
SetupTitle, IdVd_Vg_par
PrimitiveTest, I/V Sweep
TestParameter, Context.MainFrame, B1500A
TestParameter, Channel.UnitType, SMU, SMU, SMU
TestParameter, Channel.Unit, SMU3:HR, SMU2:HR, SMU1:HR
TestParameter, Channel.IName, Id, Ig, Is
TestParameter, Channel.VName, Vd, Vg, Vs
TestParameter, Channel.Mode, V, V, V
TestParameter, Channel.Func, VAR1, VAR2, CONST
TestParameter, Channel.Index, 
TestParameter, Channel.Time, 
TestParameter, Measurement.Port.Unit, SMU3:HR, SMU2:HR, SMU1:HR
TestParameter, Measurement.Port.SeriesResistor, NONE, NONE, NONE
TestParameter, Measurement.Port.Filter, ON, ON, ON
TestParameter, Measurement.Port.OutputVoltageComparison, 0, 0, 0
TestParameter, Measurement.Primary.Locus, Double
TestParameter, Measurement.Primary.Scale, LINEAR
TestParameter, Measurement.Primary.Start, 0
TestParameter, Measurement.Primary.Stop, 1
TestParameter, Measurement.Primary.Step, 0.01
TestParameter, Measurement.Primary.Compliance, 0.01
TestParameter, Measurement.Primary.PowerCompliance, 0
TestParameter, Measurement.Aborting.Condition, CONTINUE AT ANY
TestParameter, Measurement.PostOutput.Value, START
TestParameter, Measurement.PostOutput.Retention, OFF
TestParameter, Measurement.Secondary.Start, 0.5
TestParameter, Measurement.Secondary.Count, 7
TestParameter, Measurement.Secondary.Step, 0.25
TestParameter, Measurement.Secondary.Compliance, 0.01
TestParameter, Measurement.Secondary.PowerCompliance, 0
TestParameter, Measurement.Bias.Source, 0, 0.5, 0
TestParameter, Measurement.Bias.Compliance, 0.01, 0.01, 0.01
TestParameter, Measurement.Monitor.Unit, SMU3:HR, SMU2:HR, SMU1:HR
TestParameter, Measurement.Monitor.Adc, HR ADC, HR ADC, HR ADC
TestParameter, Measurement.Monitor.Measurement, Compliance Side, Compliance Side, Compliance Side
TestParameter, Measurement.Monitor.RangingMode, LIMITED, LIMITED, LIMITED
TestParameter, Measurement.Monitor.RangeBoundary, 1nA, 1nA, 1nA
TestParameter, Measurement.Monitor.RangeRating, BY FULL RANGE, BY FULL RANGE, BY FULL RANGE
TestParameter, Measurement.Monitor.RangeRatingCoeff, 50, 50, 50
TestParameter, Measurement.Timing.Hold, 0
TestParameter, Measurement.Timing.Delay, 0
TestParameter, Measurement.Adc.HighSpeed.Mode, AUTO
TestParameter, Measurement.Adc.HighSpeed.Coeff, 1
TestParameter, Measurement.Adc.HighResolution.AutoZero, OFF
TestParameter, Measurement.Adc.HighResolution.Mode, AUTO
TestParameter, Measurement.Adc.HighResolution.Coeff, 6
TestParameter, Measurement.WaitTime.Source.Coeff, 1
TestParameter, Measurement.WaitTime.Source.Offset, 0
TestParameter, Measurement.WaitTime.Monitor.Coeff, 1
TestParameter, Measurement.WaitTime.Monitor.Offset, 0
TestParameter, Function.User.Name, absId, absIg, absIs
TestParameter, Function.User.Unit, A, A, A
TestParameter, Function.User.Definition, abs(Id), abs(Ig), abs(Is)
TestParameter, Output.Graph.Enabled, true
TestParameter, Output.Graph.AutoScaling, false
TestParameter, Output.Graph.XAxis.Data, Vd
TestParameter, Output.Graph.XAxis.Scale, Linear
TestParameter, Output.Graph.XAxis.Left, 0
TestParameter, Output.Graph.XAxis.Right, 2
TestParameter, Output.Graph.XAxis.RunTimeAutoScale, false
TestParameter, Output.Graph.YAxis.Data, absId, absIs
TestParameter, Output.Graph.YAxis.Scale, Linear, Linear
TestParameter, Output.Graph.YAxis.Bottom, 1E-15, 1E-15
TestParameter, Output.Graph.YAxis.Top, 0.001, 0.001
TestParameter, Output.Graph.YAxis.Group, , 
TestParameter, Output.Graph.YAxis.RunTimeAutoScale, true, true
TestParameter, Output.List.Data, Vg, Vd, Id, Is, Ig, absId, absIs, absIg
TestParameter, AutoAnalysis.Interpolation, false
TestParameter, AutoAnalysis.Var2StepCount, 1
TestParameter, AutoAnalysis.Var2StepScript, 
TestParameter, AutoAnalysis.Line1.Enabled, false
TestParameter, AutoAnalysis.Line1.Type, 1
TestParameter, AutoAnalysis.Line1.Fix, True
TestParameter, AutoAnalysis.Line1.YAxis, 0
TestParameter, AutoAnalysis.Line1.Point1.Type, 0
TestParameter, AutoAnalysis.Line1.Point1.XY.X, 
TestParameter, AutoAnalysis.Line1.Point1.XY.Y, 
TestParameter, AutoAnalysis.Line1.Point1.Data.Var, 
TestParameter, AutoAnalysis.Line1.Point1.Data.Condition, 
TestParameter, AutoAnalysis.Line1.Point1.Data.Start, false
TestParameter, AutoAnalysis.Line1.Point1.Data.StartVar, 
TestParameter, AutoAnalysis.Line1.Point1.Data.StartCondition, 
TestParameter, AutoAnalysis.Line1.Point2.Type, 0
TestParameter, AutoAnalysis.Line1.Point2.XY.X, 
TestParameter, AutoAnalysis.Line1.Point2.XY.Y, 
TestParameter, AutoAnalysis.Line1.Point2.Data.Var, 
TestParameter, AutoAnalysis.Line1.Point2.Data.Condition, 
TestParameter, AutoAnalysis.Line1.Point2.Data.Start, false
TestParameter, AutoAnalysis.Line1.Point2.Data.StartVar, 
TestParameter, AutoAnalysis.Line1.Point2.Data.StartCondition, 
TestParameter, AutoAnalysis.Line1.GradientExpr, 0
TestParameter, AutoAnalysis.Line2.Enabled, false
TestParameter, AutoAnalysis.Line2.Type, 1
TestParameter, AutoAnalysis.Line2.Fix, True
TestParameter, AutoAnalysis.Line2.YAxis, 0
TestParameter, AutoAnalysis.Line2.Point1.Type, 0
TestParameter, AutoAnalysis.Line2.Point1.XY.X, 
TestParameter, AutoAnalysis.Line2.Point1.XY.Y, 
TestParameter, AutoAnalysis.Line2.Point1.Data.Var, 
TestParameter, AutoAnalysis.Line2.Point1.Data.Condition, 
TestParameter, AutoAnalysis.Line2.Point1.Data.Start, false
TestParameter, AutoAnalysis.Line2.Point1.Data.StartVar, 
TestParameter, AutoAnalysis.Line2.Point1.Data.StartCondition, 
TestParameter, AutoAnalysis.Line2.Point2.Type, 0
TestParameter, AutoAnalysis.Line2.Point2.XY.X, 
TestParameter, AutoAnalysis.Line2.Point2.XY.Y, 
TestParameter, AutoAnalysis.Line2.Point2.Data.Var, 
TestParameter, AutoAnalysis.Line2.Point2.Data.Condition, 
TestParameter, AutoAnalysis.Line2.Point2.Data.Start, false
TestParameter, AutoAnalysis.Line2.Point2.Data.StartVar, 
TestParameter, AutoAnalysis.Line2.Point2.Data.StartCondition, 
TestParameter, AutoAnalysis.Line2.GradientExpr, 0
TestParameter, AutoAnalysis.Marker.Enabled, false
TestParameter, AutoAnalysis.Marker.Data.Var, 
TestParameter, AutoAnalysis.Marker.Data.Condition, 
TestParameter, AutoAnalysis.Marker.Data.Start, false
TestParameter, AutoAnalysis.Marker.Data.StartVar, 
TestParameter, AutoAnalysis.Marker.Data.StartCondition, 
MetaData, TestRecord.EntryPoint, true
MetaData, TestRecord.RecordTime, 06/03/2025 15:39:37
MetaData, TestRecord.TestTarget, R[5]_D[6]_L[90]
MetaData, TestRecord.IterationIndex, 1
MetaData, TestRecord.Preservation, true
MetaData, TestRecord.Flag, !
MetaData, TestRecord.Remarks, 
MetaData, TestRecord.LinkKey, 7d6c2d92-04f2-43b1-a2a5-4f999336882f
MetaData, TestRecord.Parameters, 
Dimension1, 202, 202, 202, 202, 202, 202, 202, 202
Dimension2, 7, 7, 7, 7, 7, 7, 7, 7
DataName, Vd, Vg, Id, Ig, Is, absId, absIg, absIs
DataValue, 0, 0.5, 3.43507E-10, 1.065E-12, -3.35276E-10, 3.43507E-10, 1.065E-12, 3.35276E-10
DataValue, 0.01, 0.5, 1.626E-07, 1.065E-12, -1.6246E-07, 1.626E-07, 1.065E-12, 1.6246E-07
DataValue, 0.02, 0.5, 3.1809999999999997E-07, 1.1350000000000001E-12, -3.1576E-07, 3.1809999999999997E-07, 1.1350000000000001E-12, 3.1576E-07
DataValue, 0.030000000000000002, 0.5, 4.5968E-07, 1.2250000000000001E-12, -4.6249999999999997E-07, 4.5968E-07, 1.2250000000000001E-12, 4.6249999999999997E-07
DataValue, 0.04, 0.5, 5.9706E-07, 1.0750000000000002E-12, -5.987E-07, 5.9706E-07, 1.0750000000000002E-12, 5.987E-07
DataValue, 0.05, 0.5, 7.2695999999999994E-07, 1.295E-12, -7.2474E-07, 7.2695999999999994E-07, 1.295E-12, 7.2474E-07
DataValue, 0.060000000000000005, 0.5, 8.4021999999999994E-07, 1.195E-12, -8.3934E-07, 8.4021999999999994E-07, 1.195E-12, 8.3934E-07
DataValue, 0.07, 0.5, 9.5412E-07, 1.255E-12, -9.527E-07, 9.5412E-07, 1.255E-12, 9.527E-07
DataValue, 0.08, 0.5, 1.06326E-06, 1.335E-12, -1.06262E-06, 1.06326E-06, 1.335E-12, 1.06262E-06
DataValue, 0.090000000000000011, 0.5, 1.1523000000000002E-06, 1.375E-12, -1.1553000000000002E-06, 1.1523000000000002E-06, 1.375E-12, 1.1553000000000002E-06
DataValue, 0.1, 0.5, 1.2507000000000002E-06, 1.395E-12, -1.2518E-06, 1.2507000000000002E-06, 1.395E-12, 1.2518E-06
DataValue, 0.11, 0.5, 1.3121000000000001E-06, 1.395E-12, -1.3267000000000002E-06, 1.3121000000000001E-06, 1.395E-12, 1.3267000000000002E-06
DataValue, 0.12000000000000001, 0.5, 1.3979000000000002E-06, 9.75E-13, -1.4004000000000002E-06, 1.3979000000000002E-06, 9.75E-13, 1.4004000000000002E-06
DataValue, 0.13, 0.5, 1.4756000000000001E-06, 1.015E-12, -1.4765000000000002E-06, 1.4756000000000001E-06, 1.015E-12, 1.4765000000000002E-06
DataValue, 0.14, 0.5, 1.5444000000000002E-06, 1.195E-12, -1.5519000000000001E-06, 1.5444000000000002E-06, 1.195E-12, 1.5519000000000001E-06
DataValue, 0.15, 0.5, 1.6177000000000002E-06, 1.4050000000000002E-12, -1.6171000000000002E-06, 1.6177000000000002E-06, 1.4050000000000002E-12, 1.6171000000000002E-06
DataValue, 0.16, 0.5, 1.6751E-06, 8.45E-13, -1.6773000000000002E-06, 1.6751E-06, 8.45E-13, 1.6773000000000002E-06
DataValue, 0.17, 0.5, 1.7285000000000003E-06, 1.195E-12, -1.7278000000000002E-06, 1.7285000000000003E-06, 1.195E-12, 1.7278000000000002E-06
DataValue, 0.18000000000000002, 0.5, 1.7942000000000001E-06, 1.3550000000000002E-12, -1.8009000000000002E-06, 1.7942000000000001E-06, 1.3550000000000002E-12, 1.8009000000000002E-06
DataValue, 0.19, 0.5, 1.8571000000000002E-06, 1.1350000000000001E-12, -1.8571000000000002E-06, 1.8571000000000002E-06, 1.1350000000000001E-12, 1.8571000000000002E-06
DataValue, 0.2, 0.5, 1.8862000000000003E-06, 9.55E-13, -1.8738000000000002E-06, 1.8862000000000003E-06, 9.55E-13, 1.8738000000000002E-06
DataValue, 0.21000000000000002, 0.5, 1.9344E-06, 6.85E-13, -1.9253E-06, 1.9344E-06, 6.85E-13, 1.9253E-06
DataValue, 0.22, 0.5, 1.9638E-06, 8.8500000000000007E-13, -1.9695000000000004E-06, 1.9638E-06, 8.8500000000000007E-13, 1.9695000000000004E-06
DataValue, 0.23, 0.5, 2.0086E-06, 1.3150000000000002E-12, -2.0114000000000003E-06, 2.0086E-06, 1.3150000000000002E-12, 2.0114000000000003E-06
DataValue, 0.24000000000000002, 0.5, 2.0434E-06, 1.2250000000000001E-12, -2.0225E-06, 2.0434E-06, 1.2250000000000001E-12, 2.0225E-06
DataValue, 0.25, 0.5, 2.0680000000000004E-06, 1.1650000000000002E-12, -2.0756E-06, 2.0680000000000004E-06, 1.1650000000000002E-12, 2.0756E-06
DataValue, 0.26, 0.5, 2.0977000000000003E-06, 1.2750000000000001E-12, -2.1007E-06, 2.0977000000000003E-06, 1.2750000000000001E-12, 2.1007E-06
DataValue, 0.27, 0.5, 2.1256E-06, 9.8500000000000014E-13, -2.1398000000000002E-06, 2.1256E-06, 9.8500000000000014E-13, 2.1398000000000002E-06
DataValue, 0.28, 0.5, 2.1717000000000003E-06, 1.005E-12, -2.1619000000000004E-06, 2.1717000000000003E-06, 1.005E-12, 2.1619000000000004E-06
DataValue, 0.29000000000000004, 0.5, 2.1963E-06, 1.4950000000000002E-12, -2.1891000000000004E-06, 2.1963E-06, 1.4950000000000002E-12, 2.1891000000000004E-06
DataValue, 0.3, 0.5, 2.2227000000000003E-06, 9.75E-13, -2.2128000000000002E-06, 2.2227000000000003E-06, 9.75E-13, 2.2128000000000002E-06
DataValue, 0.31, 0.5, 2.2274E-06, 1.2650000000000002E-12, -2.2478000000000003E-06, 2.2274E-06, 1.2650000000000002E-12, 2.2478000000000003E-06
DataValue, 0.32, 0.5, 2.2990000000000004E-06, 5.65E-13, -2.2827E-06, 2.2990000000000004E-06, 5.65E-13, 2.2827E-06
DataValue, 0.33, 0.5, 2.3134E-06, 1.0850000000000001E-12, -2.3216000000000004E-06, 2.3134E-06, 1.0850000000000001E-12, 2.3216000000000004E-06
DataValue, 0.34, 0.5, 2.3384000000000003E-06, 1.485E-12, -2.3463000000000003E-06, 2.3384000000000003E-06, 1.485E-12, 2.3463000000000003E-06
DataValue, 0.35000000000000003, 0.5, 2.37E-06, 8.95E-13, -2.3401000000000003E-06, 2.37E-06, 8.95E-13, 2.3401000000000003E-06
DataValue, 0.36000000000000004, 0.5, 2.3694E-06, 8.3500000000000008E-13, -2.3575000000000003E-06, 2.3694E-06, 8.3500000000000008E-13, 2.3575000000000003E-06
DataValue, 0.37, 0.5, 2.3754E-06, 1.5050000000000002E-12, -2.3776000000000003E-06, 2.3754E-06, 1.5050000000000002E-12, 2.3776000000000003E-06
DataValue, 0.38, 0.5, 2.3931000000000004E-06, 1.145E-12, -2.4035000000000004E-06, 2.3931000000000004E-06, 1.145E-12, 2.4035000000000004E-06
DataValue, 0.39, 0.5, 2.3996000000000003E-06, 8.3500000000000008E-13, -2.4108000000000003E-06, 2.3996000000000003E-06, 8.3500000000000008E-13, 2.4108000000000003E-06
DataValue, 0.4, 0.5, 2.4249000000000003E-06, 1.1250000000000002E-12, -2.4451E-06, 2.4249000000000003E-06, 1.1250000000000002E-12, 2.4451E-06
DataValue, 0.41000000000000003, 0.5, 2.4395E-06, 1.5450000000000002E-12, -2.4287E-06, 2.4395E-06, 1.5450000000000002E-12, 2.4287E-06
DataValue, 0.42000000000000004, 0.5, 2.4574000000000004E-06, 9.8500000000000014E-13, -2.4831000000000004E-06, 2.4574000000000004E-06, 9.8500000000000014E-13, 2.4831000000000004E-06
DataValue, 0.43, 0.5, 2.4686000000000004E-06, 8.95E-13, -2.4705000000000003E-06, 2.4686000000000004E-06, 8.95E-13, 2.4705000000000003E-06
DataValue, 0.44, 0.5, 2.4808000000000005E-06, 1.4150000000000001E-12, -2.4793E-06, 2.4808000000000005E-06, 1.4150000000000001E-12, 2.4793E-06
DataValue, 0.45, 0.5, 2.4872E-06, 1.6550000000000001E-12, -2.4917000000000002E-06, 2.4872E-06, 1.6550000000000001E-12, 2.4917000000000002E-06
DataValue, 0.46, 0.5, 2.4908000000000004E-06, 9.4500000000000011E-13, -2.5068000000000003E-06, 2.4908000000000004E-06, 9.4500000000000011E-13, 2.5068000000000003E-06
DataValue, 0.47000000000000003, 0.5, 2.5340000000000002E-06, 9.15E-13, -2.5155000000000003E-06, 2.5340000000000002E-06, 9.15E-13, 2.5155000000000003E-06
DataValue, 0.48000000000000004, 0.5, 2.5214E-06, 1.2650000000000002E-12, -2.5087000000000002E-06, 2.5214E-06, 1.2650000000000002E-12, 2.5087000000000002E-06
DataValue, 0.49000000000000005, 0.5, 2.5472000000000004E-06, 1.435E-12, -2.5298000000000003E-06, 2.5472000000000004E-06, 1.435E-12, 2.5298000000000003E-06
DataValue, 0.5, 0.5, 2.5404000000000003E-06, 1.3650000000000001E-12, -2.5541000000000002E-06, 2.5404000000000003E-06, 1.3650000000000001E-12, 2.5541000000000002E-06
DataValue, 0.51, 0.5, 2.5764000000000004E-06, 1.375E-12, -2.5534000000000004E-06, 2.5764000000000004E-06, 1.375E-12, 2.5534000000000004E-06
DataValue, 0.52, 0.5, 2.5831000000000003E-06, 1.065E-12, -2.5644000000000004E-06, 2.5831000000000003E-06, 1.065E-12, 2.5644000000000004E-06
DataValue, 0.53, 0.5, 2.6148000000000004E-06, 7.75E-13, -2.5974000000000003E-06, 2.6148000000000004E-06, 7.75E-13, 2.5974000000000003E-06
DataValue, 0.54, 0.5, 2.5975E-06, 8.25E-13, -2.6138000000000003E-06, 2.5975E-06, 8.25E-13, 2.6138000000000003E-06
DataValue, 0.55, 0.5, 2.6094000000000004E-06, 1.105E-12, -2.6055000000000003E-06, 2.6094000000000004E-06, 1.105E-12, 2.6055000000000003E-06
DataValue, 0.56, 0.5, 2.6116E-06, 1.335E-12, -2.6241000000000004E-06, 2.6116E-06, 1.335E-12, 2.6241000000000004E-06
DataValue, 0.57000000000000006, 0.5, 2.6128E-06, 8.8500000000000007E-13, -2.618E-06, 2.6128E-06, 8.8500000000000007E-13, 2.618E-06
DataValue, 0.58000000000000007, 0.5, 2.6496000000000004E-06, 1.1750000000000001E-12, -2.6453000000000003E-06, 2.6496000000000004E-06, 1.1750000000000001E-12, 2.6453000000000003E-06
DataValue, 0.59000000000000008, 0.5, 2.6373E-06, 1.3250000000000001E-12, -2.6292E-06, 2.6373E-06, 1.3250000000000001E-12, 2.6292E-06
DataValue, 0.6, 0.5, 2.6443000000000002E-06, 1.3250000000000001E-12, -2.6641000000000005E-06, 2.6443000000000002E-06, 1.3250000000000001E-12, 2.6641000000000005E-06
DataValue, 0.61, 0.5, 2.6527000000000005E-06, 1.195E-12, -2.6359000000000005E-06, 2.6527000000000005E-06, 1.195E-12, 2.6359000000000005E-06
DataValue, 0.62, 0.5, 2.6408E-06, 1.0350000000000001E-12, -2.6544000000000004E-06, 2.6408E-06, 1.0350000000000001E-12, 2.6544000000000004E-06
DataValue, 0.63, 0.5, 2.6431E-06, 1.3550000000000002E-12, -2.6655E-06, 2.6431E-06, 1.3550000000000002E-12, 2.6655E-06
DataValue, 0.64, 0.5, 2.6659E-06, 1.285E-12, -2.6608000000000004E-06, 2.6659E-06, 1.285E-12, 2.6608000000000004E-06
DataValue, 0.65, 0.5, 2.6756000000000003E-06, 1.2150000000000002E-12, -2.6798E-06, 2.6756000000000003E-06, 1.2150000000000002E-12, 2.6798E-06
DataValue, 0.66, 0.5, 2.6764000000000003E-06, 1.185E-12, -2.6734E-06, 2.6764000000000003E-06, 1.185E-12, 2.6734E-06
DataValue, 0.67, 0.5, 2.6563000000000003E-06, 1.255E-12, -2.6516E-06, 2.6563000000000003E-06, 1.255E-12, 2.6516E-06
DataValue, 0.68, 0.5, 2.6591E-06, 1.115E-12, -2.6774000000000004E-06, 2.6591E-06, 1.115E-12, 2.6774000000000004E-06
DataValue, 0.69000000000000006, 0.5, 2.691E-06, 8.95E-13, -2.697E-06, 2.691E-06, 8.95E-13, 2.697E-06
DataValue, 0.70000000000000007, 0.5, 2.7013000000000003E-06, 1.4550000000000002E-12, -2.6754000000000003E-06, 2.7013000000000003E-06, 1.4550000000000002E-12, 2.6754000000000003E-06
DataValue, 0.71000000000000008, 0.5, 2.6873E-06, 1.3550000000000002E-12, -2.7023000000000004E-06, 2.6873E-06, 1.3550000000000002E-12, 2.7023000000000004E-06
DataValue, 0.72000000000000008, 0.5, 2.7117000000000002E-06, 1.235E-12, -2.7313000000000004E-06, 2.7117000000000002E-06, 1.235E-12, 2.7313000000000004E-06
DataValue, 0.73, 0.5, 2.7173000000000002E-06, 1.045E-12, -2.7162000000000004E-06, 2.7173000000000002E-06, 1.045E-12, 2.7162000000000004E-06
DataValue, 0.74, 0.5, 2.7200000000000002E-06, 1.4050000000000002E-12, -2.7356E-06, 2.7200000000000002E-06, 1.4050000000000002E-12, 2.7356E-06
DataValue, 0.75, 0.5, 2.7461000000000003E-06, 1.255E-12, -2.7388000000000004E-06, 2.7461000000000003E-06, 1.255E-12, 2.7388000000000004E-06
DataValue, 0.76, 0.5, 2.7221E-06, 1.005E-12, -2.7435E-06, 2.7221E-06, 1.005E-12, 2.7435E-06
DataValue, 0.77, 0.5, 2.7789E-06, 1.3250000000000001E-12, -2.7491E-06, 2.7789E-06, 1.3250000000000001E-12, 2.7491E-06
DataValue, 0.78, 0.5, 2.747E-06, 1.185E-12, -2.7550000000000003E-06, 2.747E-06, 1.185E-12, 2.7550000000000003E-06
DataValue, 0.79, 0.5, 2.7688E-06, 1.115E-12, -2.7569000000000002E-06, 2.7688E-06, 1.115E-12, 2.7569000000000002E-06
DataValue, 0.8, 0.5, 2.7411000000000003E-06, 1.675E-12, -2.7525000000000003E-06, 2.7411000000000003E-06, 1.675E-12, 2.7525000000000003E-06
DataValue, 0.81, 0.5, 2.7680000000000004E-06, 1.3650000000000001E-12, -2.7657000000000005E-06, 2.7680000000000004E-06, 1.3650000000000001E-12, 2.7657000000000005E-06
DataValue, 0.82000000000000006, 0.5, 2.7903E-06, 1.4150000000000001E-12, -2.7712000000000003E-06, 2.7903E-06, 1.4150000000000001E-12, 2.7712000000000003E-06
DataValue, 0.83000000000000007, 0.5, 2.8069E-06, 1.285E-12, -2.8031000000000003E-06, 2.8069E-06, 1.285E-12, 2.8031000000000003E-06
DataValue, 0.84000000000000008, 0.5, 2.8099000000000004E-06, 1.2150000000000002E-12, -2.7969000000000003E-06, 2.8099000000000004E-06, 1.2150000000000002E-12, 2.7969000000000003E-06
DataValue, 0.85000000000000009, 0.5, 2.8054000000000003E-06, 1.145E-12, -2.7964000000000004E-06, 2.8054000000000003E-06, 1.145E-12, 2.7964000000000004E-06
DataValue, 0.86, 0.5, 2.8016000000000004E-06, 1.1650000000000002E-12, -2.7941000000000005E-06, 2.8016000000000004E-06, 1.1650000000000002E-12, 2.7941000000000005E-06
DataValue, 0.87, 0.5, 2.7645000000000004E-06, 1.0350000000000001E-12, -2.7986E-06, 2.7645000000000004E-06, 1.0350000000000001E-12, 2.7986E-06
DataValue, 0.88, 0.5, 2.7969000000000003E-06, 1.385E-12, -2.8079000000000003E-06, 2.7969000000000003E-06, 1.385E-12, 2.8079000000000003E-06
DataValue, 0.89, 0.5, 2.7823000000000004E-06, 1.245E-12, -2.7939000000000005E-06, 2.7823000000000004E-06, 1.245E-12, 2.7939000000000005E-06
DataValue, 0.9, 0.5, 2.8024000000000005E-06, 1.2150000000000002E-12, -2.7961000000000002E-06, 2.8024000000000005E-06, 1.2150000000000002E-12, 2.7961000000000002E-06
DataValue, 0.91, 0.5, 2.8041000000000004E-06, 1.1250000000000002E-12, -2.7814E-06, 2.8041000000000004E-06, 1.1250000000000002E-12, 2.7814E-06
DataValue, 0.92, 0.5, 2.7999E-06, 1.1750000000000001E-12, -2.8255000000000003E-06, 2.7999E-06, 1.1750000000000001E-12, 2.8255000000000003E-06
DataValue, 0.93, 0.5, 2.8335000000000005E-06, 1.3250000000000001E-12, -2.8436E-06, 2.8335000000000005E-06, 1.3250000000000001E-12, 2.8436E-06
