
SetupTitle, IdVd_Vg_par
PrimitiveTest, I/V Sweep
TestParameter, Context.MainFrame, B1500A
TestParameter, Channel.UnitType, SMU, SMU, SMU
TestParameter, Channel.Unit, SMU3:HR, SMU2:HR, SMU1:HR
TestParameter, Channel.IName, Id, Ig, Is
TestParameter, Channel.VName, Vd, Vg, Vs
TestParameter, Channel.Mode, V, V, V
TestParameter, Channel.Func, VAR1, VAR2, CONST
TestParameter, Channel.Index, 
TestParameter, Channel.Time, 
TestParameter, Measurement.Port.Unit, SMU3:HR, SMU2:HR, SMU1:HR
TestParameter, Measurement.Port.SeriesResistor, NONE, NONE, NONE
TestParameter, Measurement.Port.Filter, ON, ON, ON
TestParameter, Measurement.Port.OutputVoltageComparison, 0, 0, 0
TestParameter, Measurement.Primary.Locus, Double
TestParameter, Measurement.Primary.Scale, LINEAR
TestParameter, Measurement.Primary.Start, 0
TestParameter, Measurement.Primary.Stop, 1
TestParameter, Measurement.Primary.Step, 0.01
TestParameter, Measurement.Primary.Compliance, 0.01
TestParameter, Measurement.Primary.PowerCompliance, 0
TestParameter, Measurement.Aborting.Condition, CONTINUE AT ANY
TestParameter, Measurement.PostOutput.Value, START
TestParameter, Measurement.PostOutput.Retention, OFF
TestParameter, Measurement.Secondary.Start, 0.5
TestParameter, Measurement.Secondary.Count, 7
TestParameter, Measurement.Secondary.Step, 0.25
TestParameter, Measurement.Secondary.Compliance, 0.01
TestParameter, Measurement.Secondary.PowerCompliance, 0
TestParameter, Measurement.Bias.Source, 0, 0.5, 0
TestParameter, Measurement.Bias.Compliance, 0.01, 0.01, 0.01
TestParameter, Measurement.Monitor.Unit, SMU3:HR, SMU2:HR, SMU1:HR
TestParameter, Measurement.Monitor.Adc, HR ADC, HR ADC, HR ADC
TestParameter, Measurement.Monitor.Measurement, Compliance Side, Compliance Side, Compliance Side
TestParameter, Measurement.Monitor.RangingMode, LIMITED, LIMITED, LIMITED
TestParameter, Measurement.Monitor.RangeBoundary, 1nA, 1nA, 1nA
TestParameter, Measurement.Monitor.RangeRating, BY FULL RANGE, BY FULL RANGE, BY FULL RANGE
TestParameter, Measurement.Monitor.RangeRatingCoeff, 50, 50, 50
TestParameter, Measurement.Timing.Hold, 0
TestParameter, Measurement.Timing.Delay, 0
TestParameter, Measurement.Adc.HighSpeed.Mode, AUTO
TestParameter, Measurement.Adc.HighSpeed.Coeff, 1
TestParameter, Measurement.Adc.HighResolution.AutoZero, OFF
TestParameter, Measurement.Adc.HighResolution.Mode, AUTO
TestParameter, Measurement.Adc.HighResolution.Coeff, 6
TestParameter, Measurement.WaitTime.Source.Coeff, 1
TestParameter, Measurement.WaitTime.Source.Offset, 0
TestParameter, Measurement.WaitTime.Monitor.Coeff, 1
TestParameter, Measurement.WaitTime.Monitor.Offset, 0
TestParameter, Function.User.Name, absId, absIg, absIs
TestParameter, Function.User.Unit, A, A, A
TestParameter, Function.User.Definition, abs(Id), abs(Ig), abs(Is)
TestParameter, Output.Graph.Enabled, true
TestParameter, Output.Graph.AutoScaling, false
TestParameter, Output.Graph.XAxis.Data, Vd
TestParameter, Output.Graph.XAxis.Scale, Linear
TestParameter, Output.Graph.XAxis.Left, 0
TestParameter, Output.Graph.XAxis.Right, 2
TestParameter, Output.Graph.XAxis.RunTimeAutoScale, false
TestParameter, Output.Graph.YAxis.Data, absId, absIs
TestParameter, Output.Graph.YAxis.Scale, Linear, Linear
TestParameter, Output.Graph.YAxis.Bottom, 1E-15, 1E-15
TestParameter, Output.Graph.YAxis.Top, 0.001, 0.001
TestParameter, Output.Graph.YAxis.Group, , 
TestParameter, Output.Graph.YAxis.RunTimeAutoScale, true, true
TestParameter, Output.List.Data, Vg, Vd, Id, Is, Ig, absId, absIs, absIg
TestParameter, AutoAnalysis.Interpolation, false
TestParameter, AutoAnalysis.Var2StepCount, 1
TestParameter, AutoAnalysis.Var2StepScript, 
TestParameter, AutoAnalysis.Line1.Enabled, false
TestParameter, AutoAnalysis.Line1.Type, 1
TestParameter, AutoAnalysis.Line1.Fix, True
TestParameter, AutoAnalysis.Line1.YAxis, 0
TestParameter, AutoAnalysis.Line1.Point1.Type, 0
TestParameter, AutoAnalysis.Line1.Point1.XY.X, 
TestParameter, AutoAnalysis.Line1.Point1.XY.Y, 
TestParameter, AutoAnalysis.Line1.Point1.Data.Var, 
TestParameter, AutoAnalysis.Line1.Point1.Data.Condition, 
TestParameter, AutoAnalysis.Line1.Point1.Data.Start, false
TestParameter, AutoAnalysis.Line1.Point1.Data.StartVar, 
TestParameter, AutoAnalysis.Line1.Point1.Data.StartCondition, 
TestParameter, AutoAnalysis.Line1.Point2.Type, 0
TestParameter, AutoAnalysis.Line1.Point2.XY.X, 
TestParameter, AutoAnalysis.Line1.Point2.XY.Y, 
TestParameter, AutoAnalysis.Line1.Point2.Data.Var, 
TestParameter, AutoAnalysis.Line1.Point2.Data.Condition, 
TestParameter, AutoAnalysis.Line1.Point2.Data.Start, false
TestParameter, AutoAnalysis.Line1.Point2.Data.StartVar, 
TestParameter, AutoAnalysis.Line1.Point2.Data.StartCondition, 
TestParameter, AutoAnalysis.Line1.GradientExpr, 0
TestParameter, AutoAnalysis.Line2.Enabled, false
TestParameter, AutoAnalysis.Line2.Type, 1
TestParameter, AutoAnalysis.Line2.Fix, True
TestParameter, AutoAnalysis.Line2.YAxis, 0
TestParameter, AutoAnalysis.Line2.Point1.Type, 0
TestParameter, AutoAnalysis.Line2.Point1.XY.X, 
TestParameter, AutoAnalysis.Line2.Point1.XY.Y, 
TestParameter, AutoAnalysis.Line2.Point1.Data.Var, 
TestParameter, AutoAnalysis.Line2.Point1.Data.Condition, 
TestParameter, AutoAnalysis.Line2.Point1.Data.Start, false
TestParameter, AutoAnalysis.Line2.Point1.Data.StartVar, 
TestParameter, AutoAnalysis.Line2.Point1.Data.StartCondition, 
TestParameter, AutoAnalysis.Line2.Point2.Type, 0
TestParameter, AutoAnalysis.Line2.Point2.XY.X, 
TestParameter, AutoAnalysis.Line2.Point2.XY.Y, 
TestParameter, AutoAnalysis.Line2.Point2.Data.Var, 
TestParameter, AutoAnalysis.Line2.Point2.Data.Condition, 
TestParameter, AutoAnalysis.Line2.Point2.Data.Start, false
TestParameter, AutoAnalysis.Line2.Point2.Data.StartVar, 
TestParameter, AutoAnalysis.Line2.Point2.Data.StartCondition, 
TestParameter, AutoAnalysis.Line2.GradientExpr, 0
TestParameter, AutoAnalysis.Marker.Enabled, false
TestParameter, AutoAnalysis.Marker.Data.Var, 
TestParameter, AutoAnalysis.Marker.Data.Condition, 
TestParameter, AutoAnalysis.Marker.Data.Start, false
TestParameter, AutoAnalysis.Marker.Data.StartVar, 
TestParameter, AutoAnalysis.Marker.Data.StartCondition, 
MetaData, TestRecord.EntryPoint, true
MetaData, TestRecord.RecordTime, 06/03/2025 15:21:28
MetaData, TestRecord.TestTarget, R[4]_D[6]_L[60]
MetaData, TestRecord.IterationIndex, 1
MetaData, TestRecord.Preservation, true
MetaData, TestRecord.Flag, !
MetaData, TestRecord.Remarks, 
MetaData, TestRecord.LinkKey, a2a2d5db-007f-4491-a5cf-916e65a89a3a
MetaData, TestRecord.Parameters, 
Dimension1, 202, 202, 202, 202, 202, 202, 202, 202
Dimension2, 7, 7, 7, 7, 7, 7, 7, 7
DataName, Vd, Vg, Id, Ig, Is, absId, absIg, absIs
DataValue, 0, 0.5, 1.32717E-09, 1.345E-12, -1.0653360000000001E-09, 1.32717E-09, 1.345E-12, 1.0653360000000001E-09
DataValue, 0.01, 0.5, 4.7042E-07, 6.4500000000000008E-13, -4.7054E-07, 4.7042E-07, 6.4500000000000008E-13, 4.7054E-07
DataValue, 0.02, 0.5, 9.0824E-07, 1.4650000000000001E-12, -9.0994E-07, 9.0824E-07, 1.4650000000000001E-12, 9.0994E-07
DataValue, 0.030000000000000002, 0.5, 1.3362000000000002E-06, 1.115E-12, -1.3446000000000002E-06, 1.3362000000000002E-06, 1.115E-12, 1.3446000000000002E-06
DataValue, 0.04, 0.5, 1.7537000000000003E-06, 1.3150000000000002E-12, -1.7490000000000001E-06, 1.7537000000000003E-06, 1.3150000000000002E-12, 1.7490000000000001E-06
DataValue, 0.05, 0.5, 2.1465E-06, 6.05E-13, -2.1386E-06, 2.1465E-06, 6.05E-13, 2.1386E-06
DataValue, 0.060000000000000005, 0.5, 2.5313000000000002E-06, 4.8500000000000005E-13, -2.5171000000000004E-06, 2.5313000000000002E-06, 4.8500000000000005E-13, 2.5171000000000004E-06
DataValue, 0.07, 0.5, 2.8954000000000003E-06, 1.7450000000000001E-12, -2.8827000000000004E-06, 2.8954000000000003E-06, 1.7450000000000001E-12, 2.8827000000000004E-06
DataValue, 0.08, 0.5, 3.2203000000000003E-06, 1.115E-12, -3.2079000000000002E-06, 3.2203000000000003E-06, 1.115E-12, 3.2079000000000002E-06
DataValue, 0.090000000000000011, 0.5, 3.5578000000000005E-06, 2.55E-13, -3.5624000000000004E-06, 3.5578000000000005E-06, 2.55E-13, 3.5624000000000004E-06
DataValue, 0.1, 0.5, 3.8915000000000008E-06, 1.525E-12, -3.8833000000000006E-06, 3.8915000000000008E-06, 1.525E-12, 3.8833000000000006E-06
DataValue, 0.11, 0.5, 4.2504000000000008E-06, 1.6550000000000001E-12, -4.2344000000000005E-06, 4.2504000000000008E-06, 1.6550000000000001E-12, 4.2344000000000005E-06
DataValue, 0.12000000000000001, 0.5, 4.4998000000000005E-06, 6.9500000000000007E-13, -4.5483E-06, 4.4998000000000005E-06, 6.9500000000000007E-13, 4.5483E-06
DataValue, 0.13, 0.5, 4.8260000000000009E-06, 6.7500000000000005E-13, -4.8562E-06, 4.8260000000000009E-06, 6.7500000000000005E-13, 4.8562E-06
DataValue, 0.14, 0.5, 5.1537E-06, 1.4550000000000002E-12, -5.1488000000000006E-06, 5.1537E-06, 1.4550000000000002E-12, 5.1488000000000006E-06
DataValue, 0.15, 0.5, 5.3664000000000008E-06, 9.4500000000000011E-13, -5.3882E-06, 5.3664000000000008E-06, 9.4500000000000011E-13, 5.3882E-06
DataValue, 0.16, 0.5, 5.6793000000000008E-06, 2.85E-13, -5.6436000000000005E-06, 5.6793000000000008E-06, 2.85E-13, 5.6436000000000005E-06
DataValue, 0.17, 0.5, 5.9304000000000009E-06, 7.55E-13, -5.9145000000000007E-06, 5.9304000000000009E-06, 7.55E-13, 5.9145000000000007E-06
DataValue, 0.18000000000000002, 0.5, 6.1881000000000009E-06, 1.7850000000000002E-12, -6.2149E-06, 6.1881000000000009E-06, 1.7850000000000002E-12, 6.2149E-06
DataValue, 0.19, 0.5, 6.4994000000000008E-06, 1.2750000000000001E-12, -6.4832000000000009E-06, 6.4994000000000008E-06, 1.2750000000000001E-12, 6.4832000000000009E-06
DataValue, 0.2, 0.5, 6.7505000000000008E-06, 3.5500000000000005E-13, -6.7049000000000008E-06, 6.7505000000000008E-06, 3.5500000000000005E-13, 6.7049000000000008E-06
DataValue, 0.21000000000000002, 0.5, 6.9202000000000011E-06, 1.145E-12, -6.913600000000001E-06, 6.9202000000000011E-06, 1.145E-12, 6.913600000000001E-06
DataValue, 0.22, 0.5, 7.1264000000000009E-06, 1.4650000000000001E-12, -7.1667E-06, 7.1264000000000009E-06, 1.4650000000000001E-12, 7.1667E-06
DataValue, 0.23, 0.5, 7.4276000000000007E-06, 1.005E-12, -7.3486000000000011E-06, 7.4276000000000007E-06, 1.005E-12, 7.3486000000000011E-06
DataValue, 0.24000000000000002, 0.5, 7.6014000000000006E-06, 3.9500000000000003E-13, -7.6753000000000009E-06, 7.6014000000000006E-06, 3.9500000000000003E-13, 7.6753000000000009E-06
DataValue, 0.25, 0.5, 7.8828E-06, 1.005E-12, -7.8812E-06, 7.8828E-06, 1.005E-12, 7.8812E-06
DataValue, 0.26, 0.5, 8.0801E-06, 1.905E-12, -8.1029000000000017E-06, 8.0801E-06, 1.905E-12, 8.1029000000000017E-06
DataValue, 0.27, 0.5, 8.2657000000000012E-06, 8.7500000000000011E-13, -8.2676E-06, 8.2657000000000012E-06, 8.7500000000000011E-13, 8.2676E-06
DataValue, 0.28, 0.5, 8.4845000000000015E-06, 3.05E-13, -8.4177E-06, 8.4845000000000015E-06, 3.05E-13, 8.4177E-06
DataValue, 0.29000000000000004, 0.5, 8.7018E-06, 1.255E-12, -8.703700000000001E-06, 8.7018E-06, 1.255E-12, 8.703700000000001E-06
DataValue, 0.3, 0.5, 8.9757000000000012E-06, 1.3150000000000002E-12, -8.9247000000000011E-06, 8.9757000000000012E-06, 1.3150000000000002E-12, 8.9247000000000011E-06
DataValue, 0.31, 0.5, 9.1308E-06, 8.050000000000001E-13, -9.1021E-06, 9.1308E-06, 8.050000000000001E-13, 9.1021E-06
DataValue, 0.32, 0.5, 9.3394E-06, 4.45E-13, -9.2681E-06, 9.3394E-06, 4.45E-13, 9.2681E-06
DataValue, 0.33, 0.5, 9.4550000000000018E-06, 1.4550000000000002E-12, -9.4193000000000014E-06, 9.4550000000000018E-06, 1.4550000000000002E-12, 9.4193000000000014E-06
DataValue, 0.34, 0.5, 9.6358E-06, 6.9500000000000007E-13, -9.7071E-06, 9.6358E-06, 6.9500000000000007E-13, 9.7071E-06
DataValue, 0.35000000000000003, 0.5, 9.8913000000000013E-06, 1.1500000000000002E-13, -9.9401000000000016E-06, 9.8913000000000013E-06, 1.1500000000000002E-13, 9.9401000000000016E-06
DataValue, 0.36000000000000004, 0.5, 1.0016400000000001E-05, 1.525E-12, -1.00678E-05, 1.0016400000000001E-05, 1.525E-12, 1.00678E-05
DataValue, 0.37, 0.5, 1.0147700000000001E-05, 1.9450000000000003E-12, -1.01071E-05, 1.0147700000000001E-05, 1.9450000000000003E-12, 1.01071E-05
DataValue, 0.38, 0.5, 1.03274E-05, 6.9500000000000007E-13, -1.0284800000000002E-05, 1.03274E-05, 6.9500000000000007E-13, 1.0284800000000002E-05
DataValue, 0.39, 0.5, 1.0456100000000001E-05, 1.005E-12, -1.04241E-05, 1.0456100000000001E-05, 1.005E-12, 1.04241E-05
DataValue, 0.4, 0.5, 1.0598200000000001E-05, 1.7850000000000002E-12, -1.06404E-05, 1.0598200000000001E-05, 1.7850000000000002E-12, 1.06404E-05
DataValue, 0.41000000000000003, 0.5, 1.0807700000000002E-05, 1.285E-12, -1.0830000000000001E-05, 1.0807700000000002E-05, 1.285E-12, 1.0830000000000001E-05
DataValue, 0.42000000000000004, 0.5, 1.1065800000000002E-05, 4.8500000000000005E-13, -1.1097100000000001E-05, 1.1065800000000002E-05, 4.8500000000000005E-13, 1.1097100000000001E-05
DataValue, 0.43, 0.5, 1.1122300000000002E-05, 7.95E-13, -1.11164E-05, 1.1122300000000002E-05, 7.95E-13, 1.11164E-05
DataValue, 0.44, 0.5, 1.1280700000000002E-05, 1.815E-12, -1.14014E-05, 1.1280700000000002E-05, 1.815E-12, 1.14014E-05
DataValue, 0.45, 0.5, 1.1481E-05, 5.2500000000000009E-13, -1.1356000000000001E-05, 1.1481E-05, 5.2500000000000009E-13, 1.1356000000000001E-05
DataValue, 0.46, 0.5, 1.1632E-05, 1.1650000000000002E-12, -1.166E-05, 1.1632E-05, 1.1650000000000002E-12, 1.166E-05
DataValue, 0.47000000000000003, 0.5, 1.1730000000000001E-05, 1.0850000000000001E-12, -1.1760000000000001E-05, 1.1730000000000001E-05, 1.0850000000000001E-12, 1.1760000000000001E-05
DataValue, 0.48000000000000004, 0.5, 1.1878E-05, 2.2500000000000003E-13, -1.1888E-05, 1.1878E-05, 2.2500000000000003E-13, 1.1888E-05
DataValue, 0.49000000000000005, 0.5, 1.1956E-05, 1.0350000000000001E-12, -1.1978000000000001E-05, 1.1956E-05, 1.0350000000000001E-12, 1.1978000000000001E-05
DataValue, 0.5, 0.5, 1.2184E-05, 9.65E-13, -1.2044E-05, 1.2184E-05, 9.65E-13, 1.2044E-05
DataValue, 0.51, 0.5, 1.2178000000000001E-05, 7.55E-13, -1.2284E-05, 1.2178000000000001E-05, 7.55E-13, 1.2284E-05
DataValue, 0.52, 0.5, 1.2404E-05, 1.285E-12, -1.241E-05, 1.2404E-05, 1.285E-12, 1.241E-05
DataValue, 0.53, 0.5, 1.2386E-05, 6.2500000000000006E-13, -1.252E-05, 1.2386E-05, 6.2500000000000006E-13, 1.252E-05
DataValue, 0.54, 0.5, 1.2652E-05, 4.2500000000000006E-13, -1.2648E-05, 1.2652E-05, 4.2500000000000006E-13, 1.2648E-05
DataValue, 0.55, 0.5, 1.2756000000000001E-05, 2.085E-12, -1.2738E-05, 1.2756000000000001E-05, 2.085E-12, 1.2738E-05
DataValue, 0.56, 0.5, 1.2898000000000001E-05, 5.15E-13, -1.2876E-05, 1.2898000000000001E-05, 5.15E-13, 1.2876E-05
DataValue, 0.57000000000000006, 0.5, 1.3000000000000001E-05, 8.050000000000001E-13, -1.3092000000000001E-05, 1.3000000000000001E-05, 8.050000000000001E-13, 1.3092000000000001E-05
DataValue, 0.58000000000000007, 0.5, 1.321E-05, 1.565E-12, -1.3286000000000001E-05, 1.321E-05, 1.565E-12, 1.3286000000000001E-05
DataValue, 0.59000000000000008, 0.5, 1.3326E-05, 6.6500000000000009E-13, -1.3368E-05, 1.3326E-05, 6.6500000000000009E-13, 1.3368E-05
DataValue, 0.6, 0.5, 1.3494E-05, 1.395E-12, -1.3676000000000001E-05, 1.3494E-05, 1.395E-12, 1.3676000000000001E-05
DataValue, 0.61, 0.5, 1.3734000000000001E-05, 1.6350000000000002E-12, -1.3852E-05, 1.3734000000000001E-05, 1.6350000000000002E-12, 1.3852E-05
DataValue, 0.62, 0.5, 1.3954E-05, 4.35E-13, -1.3846000000000001E-05, 1.3954E-05, 4.35E-13, 1.3846000000000001E-05
DataValue, 0.63, 0.5, 1.4030000000000001E-05, 1.2750000000000001E-12, -1.4038E-05, 1.4030000000000001E-05, 1.2750000000000001E-12, 1.4038E-05
DataValue, 0.64, 0.5, 1.4134E-05, 1.145E-12, -1.4174E-05, 1.4134E-05, 1.145E-12, 1.4174E-05
DataValue, 0.65, 0.5, 1.4384E-05, 2.05E-13, -1.4248E-05, 1.4384E-05, 2.05E-13, 1.4248E-05
DataValue, 0.66, 0.5, 1.4388E-05, 1.6850000000000002E-12, -1.443E-05, 1.4388E-05, 1.6850000000000002E-12, 1.443E-05
DataValue, 0.67, 0.5, 1.445E-05, 1.2750000000000001E-12, -1.4478000000000001E-05, 1.445E-05, 1.2750000000000001E-12, 1.4478000000000001E-05
DataValue, 0.68, 0.5, 1.4618000000000001E-05, 4.8500000000000005E-13, -1.4696000000000001E-05, 1.4618000000000001E-05, 4.8500000000000005E-13, 1.4696000000000001E-05
DataValue, 0.69000000000000006, 0.5, 1.4726000000000001E-05, 1.755E-12, -1.4772E-05, 1.4726000000000001E-05, 1.755E-12, 1.4772E-05
DataValue, 0.70000000000000007, 0.5, 1.4834E-05, 9.25E-13, -1.4748E-05, 1.4834E-05, 9.25E-13, 1.4748E-05
DataValue, 0.71000000000000008, 0.5, 1.499E-05, 5.9500000000000009E-13, -1.4862000000000001E-05, 1.499E-05, 5.9500000000000009E-13, 1.4862000000000001E-05
DataValue, 0.72000000000000008, 0.5, 1.507E-05, 1.5950000000000002E-12, -1.5022000000000001E-05, 1.507E-05, 1.5950000000000002E-12, 1.5022000000000001E-05
DataValue, 0.73, 0.5, 1.5088E-05, 5.5500000000000006E-13, -1.5072E-05, 1.5088E-05, 5.5500000000000006E-13, 1.5072E-05
DataValue, 0.74, 0.5, 1.5232000000000001E-05, 8.7500000000000011E-13, -1.5344E-05, 1.5232000000000001E-05, 8.7500000000000011E-13, 1.5344E-05
DataValue, 0.75, 0.5, 1.54E-05, 1.485E-12, -1.5564000000000002E-05, 1.54E-05, 1.485E-12, 1.5564000000000002E-05
DataValue, 0.76, 0.5, 1.5616E-05, 4.5500000000000008E-13, -1.5528E-05, 1.5616E-05, 4.5500000000000008E-13, 1.5528E-05
DataValue, 0.77, 0.5, 1.5638000000000002E-05, 7.1500000000000008E-13, -1.5706000000000002E-05, 1.5638000000000002E-05, 7.1500000000000008E-13, 1.5706000000000002E-05
DataValue, 0.78, 0.5, 1.5912E-05, 1.2650000000000002E-12, -1.5818E-05, 1.5912E-05, 1.2650000000000002E-12, 1.5818E-05
DataValue, 0.79, 0.5, 1.586E-05, 6.55E-13, -1.5948E-05, 1.586E-05, 6.55E-13, 1.5948E-05
DataValue, 0.8, 0.5, 1.6058E-05, 1.475E-12, -1.5986E-05, 1.6058E-05, 1.475E-12, 1.5986E-05
DataValue, 0.81, 0.5, 1.6016E-05, 3.15E-13, -1.6172E-05, 1.6016E-05, 3.15E-13, 1.6172E-05
DataValue, 0.82000000000000006, 0.5, 1.6324E-05, 1.095E-12, -1.6452E-05, 1.6324E-05, 1.095E-12, 1.6452E-05
DataValue, 0.83000000000000007, 0.5, 1.6582E-05, 1.525E-12, -1.6592E-05, 1.6582E-05, 1.525E-12, 1.6592E-05
DataValue, 0.84000000000000008, 0.5, 1.6544E-05, 3.2500000000000003E-13, -1.6496E-05, 1.6544E-05, 3.2500000000000003E-13, 1.6496E-05
DataValue, 0.85000000000000009, 0.5, 1.664E-05, 1.1250000000000002E-12, -1.6630000000000002E-05, 1.664E-05, 1.1250000000000002E-12, 1.6630000000000002E-05
DataValue, 0.86, 0.5, 1.6838E-05, 7.4500000000000006E-13, -1.677E-05, 1.6838E-05, 7.4500000000000006E-13, 1.677E-05
DataValue, 0.87, 0.5, 1.6898E-05, 1.0750000000000002E-12, -1.6760000000000002E-05, 1.6898E-05, 1.0750000000000002E-12, 1.6760000000000002E-05
DataValue, 0.88, 0.5, 1.7064E-05, 1.425E-12, -1.6822E-05, 1.7064E-05, 1.425E-12, 1.6822E-05
DataValue, 0.89, 0.5, 1.6968E-05, 6.35E-13, -1.6996E-05, 1.6968E-05, 6.35E-13, 1.6996E-05
DataValue, 0.9, 0.5, 1.7238E-05, 1.065E-12, -1.7118E-05, 1.7238E-05, 1.065E-12, 1.7118E-05
DataValue, 0.91, 0.5, 1.7266E-05, 1.7850000000000002E-12, -1.7204E-05, 1.7266E-05, 1.7850000000000002E-12, 1.7204E-05
DataValue, 0.92, 0.5, 1.7436E-05, 8.5500000000000009E-13, -1.7384E-05, 1.7436E-05, 8.5500000000000009E-13, 1.7384E-05
DataValue, 0.93, 0.5, 1.7428E-05, 8.1500000000000006E-13, -1.7384E-05, 1.7428E-05, 8.1500000000000006E-13, 1.7384E-05
DataValue, 0.94000000000000006, 0.5, 1.7382E-05, 1.4450000000000002E-12, -1.7382E-05, 1.7382E-05, 1.4450000000000002E-12, 1.7382E-05
DataValue, 0.95000000000000007, 0.5, 1.754E-05, 6.55E-13, -1.7646E-05, 1.754E-05, 6.55E-13, 1.7646E-05
DataValue, 0.96000000000000008, 0.5, 1.7612E-05, 5.85E-13, -1.7718000000000002E-05, 1.7612E-05, 5.85E-13, 1.7718000000000002E-05
DataValue, 0.97000000000000008, 0.5, 1.768E-05, 1.5450000000000002E-12, -1.7764E-05, 1.768E-05, 1.5450000000000002E-12, 1.7764E-05
DataValue, 0.98000000000000009, 0.5, 1.7772000000000002E-05, 3.75E-13, -1.7952E-05, 1.7772000000000002E-05, 3.75E-13, 1.7952E-05
