
SetupTitle, IdVd_Vg_par
PrimitiveTest, I/V Sweep
TestParameter, Context.MainFrame, B1500A
TestParameter, Channel.UnitType, SMU, SMU, SMU
TestParameter, Channel.Unit, SMU3:HR, SMU2:HR, SMU1:HR
TestParameter, Channel.IName, Id, Ig, Is
TestParameter, Channel.VName, Vd, Vg, Vs
TestParameter, Channel.Mode, V, V, V
TestParameter, Channel.Func, VAR1, VAR2, CONST
TestParameter, Channel.Index, 
TestParameter, Channel.Time, 
TestParameter, Measurement.Port.Unit, SMU3:HR, SMU2:HR, SMU1:HR
TestParameter, Measurement.Port.SeriesResistor, NONE, NONE, NONE
TestParameter, Measurement.Port.Filter, ON, ON, ON
TestParameter, Measurement.Port.OutputVoltageComparison, 0, 0, 0
TestParameter, Measurement.Primary.Locus, Double
TestParameter, Measurement.Primary.Scale, LINEAR
TestParameter, Measurement.Primary.Start, 0
TestParameter, Measurement.Primary.Stop, 1
TestParameter, Measurement.Primary.Step, 0.01
TestParameter, Measurement.Primary.Compliance, 0.01
TestParameter, Measurement.Primary.PowerCompliance, 0
TestParameter, Measurement.Aborting.Condition, CONTINUE AT ANY
TestParameter, Measurement.PostOutput.Value, START
TestParameter, Measurement.PostOutput.Retention, OFF
TestParameter, Measurement.Secondary.Start, 0.5
TestParameter, Measurement.Secondary.Count, 7
TestParameter, Measurement.Secondary.Step, 0.25
TestParameter, Measurement.Secondary.Compliance, 0.01
TestParameter, Measurement.Secondary.PowerCompliance, 0
TestParameter, Measurement.Bias.Source, 0, 0.5, 0
TestParameter, Measurement.Bias.Compliance, 0.01, 0.01, 0.01
TestParameter, Measurement.Monitor.Unit, SMU3:HR, SMU2:HR, SMU1:HR
TestParameter, Measurement.Monitor.Adc, HR ADC, HR ADC, HR ADC
TestParameter, Measurement.Monitor.Measurement, Compliance Side, Compliance Side, Compliance Side
TestParameter, Measurement.Monitor.RangingMode, LIMITED, LIMITED, LIMITED
TestParameter, Measurement.Monitor.RangeBoundary, 1nA, 1nA, 1nA
TestParameter, Measurement.Monitor.RangeRating, BY FULL RANGE, BY FULL RANGE, BY FULL RANGE
TestParameter, Measurement.Monitor.RangeRatingCoeff, 50, 50, 50
TestParameter, Measurement.Timing.Hold, 0
TestParameter, Measurement.Timing.Delay, 0
TestParameter, Measurement.Adc.HighSpeed.Mode, AUTO
TestParameter, Measurement.Adc.HighSpeed.Coeff, 1
TestParameter, Measurement.Adc.HighResolution.AutoZero, OFF
TestParameter, Measurement.Adc.HighResolution.Mode, AUTO
TestParameter, Measurement.Adc.HighResolution.Coeff, 6
TestParameter, Measurement.WaitTime.Source.Coeff, 1
TestParameter, Measurement.WaitTime.Source.Offset, 0
TestParameter, Measurement.WaitTime.Monitor.Coeff, 1
TestParameter, Measurement.WaitTime.Monitor.Offset, 0
TestParameter, Function.User.Name, absId, absIg, absIs
TestParameter, Function.User.Unit, A, A, A
TestParameter, Function.User.Definition, abs(Id), abs(Ig), abs(Is)
TestParameter, Output.Graph.Enabled, true
TestParameter, Output.Graph.AutoScaling, false
TestParameter, Output.Graph.XAxis.Data, Vd
TestParameter, Output.Graph.XAxis.Scale, Linear
TestParameter, Output.Graph.XAxis.Left, 0
TestParameter, Output.Graph.XAxis.Right, 2
TestParameter, Output.Graph.XAxis.RunTimeAutoScale, false
TestParameter, Output.Graph.YAxis.Data, absId, absIs
TestParameter, Output.Graph.YAxis.Scale, Linear, Linear
TestParameter, Output.Graph.YAxis.Bottom, 1E-15, 1E-15
TestParameter, Output.Graph.YAxis.Top, 0.001, 0.001
TestParameter, Output.Graph.YAxis.Group, , 
TestParameter, Output.Graph.YAxis.RunTimeAutoScale, true, true
TestParameter, Output.List.Data, Vg, Vd, Id, Is, Ig, absId, absIs, absIg
TestParameter, AutoAnalysis.Interpolation, false
TestParameter, AutoAnalysis.Var2StepCount, 1
TestParameter, AutoAnalysis.Var2StepScript, 
TestParameter, AutoAnalysis.Line1.Enabled, false
TestParameter, AutoAnalysis.Line1.Type, 1
TestParameter, AutoAnalysis.Line1.Fix, True
TestParameter, AutoAnalysis.Line1.YAxis, 0
TestParameter, AutoAnalysis.Line1.Point1.Type, 0
TestParameter, AutoAnalysis.Line1.Point1.XY.X, 
TestParameter, AutoAnalysis.Line1.Point1.XY.Y, 
TestParameter, AutoAnalysis.Line1.Point1.Data.Var, 
TestParameter, AutoAnalysis.Line1.Point1.Data.Condition, 
TestParameter, AutoAnalysis.Line1.Point1.Data.Start, false
TestParameter, AutoAnalysis.Line1.Point1.Data.StartVar, 
TestParameter, AutoAnalysis.Line1.Point1.Data.StartCondition, 
TestParameter, AutoAnalysis.Line1.Point2.Type, 0
TestParameter, AutoAnalysis.Line1.Point2.XY.X, 
TestParameter, AutoAnalysis.Line1.Point2.XY.Y, 
TestParameter, AutoAnalysis.Line1.Point2.Data.Var, 
TestParameter, AutoAnalysis.Line1.Point2.Data.Condition, 
TestParameter, AutoAnalysis.Line1.Point2.Data.Start, false
TestParameter, AutoAnalysis.Line1.Point2.Data.StartVar, 
TestParameter, AutoAnalysis.Line1.Point2.Data.StartCondition, 
TestParameter, AutoAnalysis.Line1.GradientExpr, 0
TestParameter, AutoAnalysis.Line2.Enabled, false
TestParameter, AutoAnalysis.Line2.Type, 1
TestParameter, AutoAnalysis.Line2.Fix, True
TestParameter, AutoAnalysis.Line2.YAxis, 0
TestParameter, AutoAnalysis.Line2.Point1.Type, 0
TestParameter, AutoAnalysis.Line2.Point1.XY.X, 
TestParameter, AutoAnalysis.Line2.Point1.XY.Y, 
TestParameter, AutoAnalysis.Line2.Point1.Data.Var, 
TestParameter, AutoAnalysis.Line2.Point1.Data.Condition, 
TestParameter, AutoAnalysis.Line2.Point1.Data.Start, false
TestParameter, AutoAnalysis.Line2.Point1.Data.StartVar, 
TestParameter, AutoAnalysis.Line2.Point1.Data.StartCondition, 
TestParameter, AutoAnalysis.Line2.Point2.Type, 0
TestParameter, AutoAnalysis.Line2.Point2.XY.X, 
TestParameter, AutoAnalysis.Line2.Point2.XY.Y, 
TestParameter, AutoAnalysis.Line2.Point2.Data.Var, 
TestParameter, AutoAnalysis.Line2.Point2.Data.Condition, 
TestParameter, AutoAnalysis.Line2.Point2.Data.Start, false
TestParameter, AutoAnalysis.Line2.Point2.Data.StartVar, 
TestParameter, AutoAnalysis.Line2.Point2.Data.StartCondition, 
TestParameter, AutoAnalysis.Line2.GradientExpr, 0
TestParameter, AutoAnalysis.Marker.Enabled, false
TestParameter, AutoAnalysis.Marker.Data.Var, 
TestParameter, AutoAnalysis.Marker.Data.Condition, 
TestParameter, AutoAnalysis.Marker.Data.Start, false
TestParameter, AutoAnalysis.Marker.Data.StartVar, 
TestParameter, AutoAnalysis.Marker.Data.StartCondition, 
MetaData, TestRecord.EntryPoint, true
MetaData, TestRecord.RecordTime, 06/03/2025 16:03:39
MetaData, TestRecord.TestTarget, R[4]_D[6]_L[200]
MetaData, TestRecord.IterationIndex, 1
MetaData, TestRecord.Preservation, true
MetaData, TestRecord.Flag, !
MetaData, TestRecord.Remarks, 
MetaData, TestRecord.LinkKey, 7f4896ec-5ab9-4e0f-9546-cdca56c88d09
MetaData, TestRecord.Parameters, 
Dimension1, 202, 202, 202, 202, 202, 202, 202, 202
Dimension2, 7, 7, 7, 7, 7, 7, 7, 7
DataName, Vd, Vg, Id, Ig, Is, absId, absIg, absIs
DataValue, 0, 0.5, 7.6157000000000012E-11, 1.395E-12, -1.70626E-10, 7.6157000000000012E-11, 1.395E-12, 1.70626E-10
DataValue, 0.01, 0.5, 6.11352E-08, 1.4650000000000001E-12, -6.1076E-08, 6.11352E-08, 1.4650000000000001E-12, 6.1076E-08
DataValue, 0.02, 0.5, 1.1784E-07, 1.015E-12, -1.1746E-07, 1.1784E-07, 1.015E-12, 1.1746E-07
DataValue, 0.030000000000000002, 0.5, 1.7062E-07, 1.115E-12, -1.7054E-07, 1.7062E-07, 1.115E-12, 1.7054E-07
DataValue, 0.04, 0.5, 2.2024E-07, 6.15E-13, -2.1928E-07, 2.2024E-07, 6.15E-13, 2.1928E-07
DataValue, 0.05, 0.5, 2.6516E-07, 1.375E-12, -2.6432E-07, 2.6516E-07, 1.375E-12, 2.6432E-07
DataValue, 0.060000000000000005, 0.5, 3.0776E-07, 1.195E-12, -3.0648E-07, 3.0776E-07, 1.195E-12, 3.0648E-07
DataValue, 0.07, 0.5, 3.4559999999999997E-07, 1.4450000000000002E-12, -3.4682E-07, 3.4559999999999997E-07, 1.4450000000000002E-12, 3.4682E-07
DataValue, 0.08, 0.5, 3.84E-07, 9.55E-13, -3.8233999999999997E-07, 3.84E-07, 9.55E-13, 3.8233999999999997E-07
DataValue, 0.090000000000000011, 0.5, 4.1556E-07, 1.3550000000000002E-12, -4.1389999999999997E-07, 4.1556E-07, 1.3550000000000002E-12, 4.1389999999999997E-07
DataValue, 0.1, 0.5, 4.458E-07, 1.425E-12, -4.4334E-07, 4.458E-07, 1.425E-12, 4.4334E-07
DataValue, 0.11, 0.5, 4.708E-07, 1.095E-12, -4.7276E-07, 4.708E-07, 1.095E-12, 4.7276E-07
DataValue, 0.12000000000000001, 0.5, 4.9944E-07, 1.5550000000000001E-12, -5.017E-07, 4.9944E-07, 1.5550000000000001E-12, 5.017E-07
DataValue, 0.13, 0.5, 5.2858E-07, 1.245E-12, -5.2629999999999994E-07, 5.2858E-07, 1.245E-12, 5.2629999999999994E-07
DataValue, 0.14, 0.5, 5.4578E-07, 1.3050000000000002E-12, -5.4744E-07, 5.4578E-07, 1.3050000000000002E-12, 5.4744E-07
DataValue, 0.15, 0.5, 5.6714E-07, 1.255E-12, -5.676E-07, 5.6714E-07, 1.255E-12, 5.676E-07
DataValue, 0.16, 0.5, 5.847E-07, 1.3050000000000002E-12, -5.8604E-07, 5.847E-07, 1.3050000000000002E-12, 5.8604E-07
DataValue, 0.17, 0.5, 6.021E-07, 1.285E-12, -5.9718E-07, 6.021E-07, 1.285E-12, 5.9718E-07
DataValue, 0.18000000000000002, 0.5, 6.0998E-07, 1.2250000000000001E-12, -6.1275999999999994E-07, 6.0998E-07, 1.2250000000000001E-12, 6.1275999999999994E-07
DataValue, 0.19, 0.5, 6.2524E-07, 1.045E-12, -6.2514E-07, 6.2524E-07, 1.045E-12, 6.2514E-07
DataValue, 0.2, 0.5, 6.3802E-07, 1.295E-12, -6.4416E-07, 6.3802E-07, 1.295E-12, 6.4416E-07
DataValue, 0.21000000000000002, 0.5, 6.5102E-07, 1.625E-12, -6.5477999999999994E-07, 6.5102E-07, 1.625E-12, 6.5477999999999994E-07
DataValue, 0.22, 0.5, 6.5991999999999994E-07, 1.345E-12, -6.6312E-07, 6.5991999999999994E-07, 1.345E-12, 6.6312E-07
DataValue, 0.23, 0.5, 6.6822E-07, 1.4550000000000002E-12, -6.6724E-07, 6.6822E-07, 1.4550000000000002E-12, 6.6724E-07
DataValue, 0.24000000000000002, 0.5, 6.7406E-07, 1.765E-12, -6.778E-07, 6.7406E-07, 1.765E-12, 6.778E-07
DataValue, 0.25, 0.5, 6.8166E-07, 1.195E-12, -6.8012E-07, 6.8166E-07, 1.195E-12, 6.8012E-07
DataValue, 0.26, 0.5, 6.9012E-07, 1.4550000000000002E-12, -6.8646E-07, 6.9012E-07, 1.4550000000000002E-12, 6.8646E-07
DataValue, 0.27, 0.5, 6.9382E-07, 1.4550000000000002E-12, -6.9312E-07, 6.9382E-07, 1.4550000000000002E-12, 6.9312E-07
DataValue, 0.28, 0.5, 7.0389999999999994E-07, 1.395E-12, -7.0534E-07, 7.0389999999999994E-07, 1.395E-12, 7.0534E-07
DataValue, 0.29000000000000004, 0.5, 7.0725999999999994E-07, 1.425E-12, -7.0728E-07, 7.0725999999999994E-07, 1.425E-12, 7.0728E-07
DataValue, 0.3, 0.5, 7.0743999999999993E-07, 1.3650000000000001E-12, -7.1036E-07, 7.0743999999999993E-07, 1.3650000000000001E-12, 7.1036E-07
DataValue, 0.31, 0.5, 7.1376E-07, 1.3550000000000002E-12, -7.1608E-07, 7.1376E-07, 1.3550000000000002E-12, 7.1608E-07
DataValue, 0.32, 0.5, 7.1764E-07, 1.055E-12, -7.1733999999999994E-07, 7.1764E-07, 1.055E-12, 7.1733999999999994E-07
DataValue, 0.33, 0.5, 7.2148E-07, 1.6350000000000002E-12, -7.1832E-07, 7.2148E-07, 1.6350000000000002E-12, 7.1832E-07
DataValue, 0.34, 0.5, 7.214E-07, 9.3500000000000016E-13, -7.2326E-07, 7.214E-07, 9.3500000000000016E-13, 7.2326E-07
DataValue, 0.35000000000000003, 0.5, 7.2578E-07, 1.4950000000000002E-12, -7.283E-07, 7.2578E-07, 1.4950000000000002E-12, 7.283E-07
DataValue, 0.36000000000000004, 0.5, 7.3134E-07, 1.5050000000000002E-12, -7.3204E-07, 7.3134E-07, 1.5050000000000002E-12, 7.3204E-07
DataValue, 0.37, 0.5, 7.3388E-07, 1.235E-12, -7.3031999999999994E-07, 7.3388E-07, 1.235E-12, 7.3031999999999994E-07
DataValue, 0.38, 0.5, 7.3148E-07, 1.485E-12, -7.3446E-07, 7.3148E-07, 1.485E-12, 7.3446E-07
DataValue, 0.39, 0.5, 7.3756E-07, 9.75E-13, -7.4024E-07, 7.3756E-07, 9.75E-13, 7.4024E-07
DataValue, 0.4, 0.5, 7.4072E-07, 1.575E-12, -7.367E-07, 7.4072E-07, 1.575E-12, 7.367E-07
DataValue, 0.41000000000000003, 0.5, 7.371E-07, 1.335E-12, -7.3708E-07, 7.371E-07, 1.335E-12, 7.3708E-07
DataValue, 0.42000000000000004, 0.5, 7.4176E-07, 1.375E-12, -7.407E-07, 7.4176E-07, 1.375E-12, 7.407E-07
DataValue, 0.43, 0.5, 7.4118E-07, 1.3250000000000001E-12, -7.3708E-07, 7.4118E-07, 1.3250000000000001E-12, 7.3708E-07
DataValue, 0.44, 0.5, 7.4283999999999995E-07, 1.4550000000000002E-12, -7.422E-07, 7.4283999999999995E-07, 1.4550000000000002E-12, 7.422E-07
DataValue, 0.45, 0.5, 7.4338E-07, 1.065E-12, -7.3818E-07, 7.4338E-07, 1.065E-12, 7.3818E-07
DataValue, 0.46, 0.5, 7.3806E-07, 1.065E-12, -7.4236E-07, 7.3806E-07, 1.065E-12, 7.4236E-07
DataValue, 0.47000000000000003, 0.5, 7.421E-07, 1.5450000000000002E-12, -7.4114E-07, 7.421E-07, 1.5450000000000002E-12, 7.4114E-07
DataValue, 0.48000000000000004, 0.5, 7.4497999999999994E-07, 1.055E-12, -7.3937999999999994E-07, 7.4497999999999994E-07, 1.055E-12, 7.3937999999999994E-07
DataValue, 0.49000000000000005, 0.5, 7.4292E-07, 1.245E-12, -7.3864E-07, 7.4292E-07, 1.245E-12, 7.3864E-07
DataValue, 0.5, 0.5, 7.4262E-07, 1.4650000000000001E-12, -7.4207999999999993E-07, 7.4262E-07, 1.4650000000000001E-12, 7.4207999999999993E-07
DataValue, 0.51, 0.5, 7.4478E-07, 1.295E-12, -7.4434E-07, 7.4478E-07, 1.295E-12, 7.4434E-07
DataValue, 0.52, 0.5, 7.4176E-07, 1.105E-12, -7.3858E-07, 7.4176E-07, 1.105E-12, 7.3858E-07
DataValue, 0.53, 0.5, 7.428E-07, 1.535E-12, -7.4428E-07, 7.428E-07, 1.535E-12, 7.4428E-07
DataValue, 0.54, 0.5, 7.4693999999999994E-07, 1.105E-12, -7.4316E-07, 7.4693999999999994E-07, 1.105E-12, 7.4316E-07
DataValue, 0.55, 0.5, 7.4744E-07, 1.345E-12, -7.4712E-07, 7.4744E-07, 1.345E-12, 7.4712E-07
DataValue, 0.56, 0.5, 7.4764E-07, 1.395E-12, -7.4604E-07, 7.4764E-07, 1.395E-12, 7.4604E-07
DataValue, 0.57000000000000006, 0.5, 7.4556E-07, 1.205E-12, -7.4512E-07, 7.4556E-07, 1.205E-12, 7.4512E-07
DataValue, 0.58000000000000007, 0.5, 7.4726E-07, 1.4150000000000001E-12, -7.4278E-07, 7.4726E-07, 1.4150000000000001E-12, 7.4278E-07
DataValue, 0.59000000000000008, 0.5, 7.5319999999999994E-07, 1.665E-12, -7.4902E-07, 7.5319999999999994E-07, 1.665E-12, 7.4902E-07
DataValue, 0.6, 0.5, 7.5616E-07, 1.0750000000000002E-12, -7.4796E-07, 7.5616E-07, 1.0750000000000002E-12, 7.4796E-07
DataValue, 0.61, 0.5, 7.4908E-07, 1.665E-12, -7.5156E-07, 7.4908E-07, 1.665E-12, 7.5156E-07
DataValue, 0.62, 0.5, 7.514E-07, 1.3050000000000002E-12, -7.513E-07, 7.514E-07, 1.3050000000000002E-12, 7.513E-07
DataValue, 0.63, 0.5, 7.4976E-07, 1.1250000000000002E-12, -7.5396E-07, 7.4976E-07, 1.1250000000000002E-12, 7.5396E-07
DataValue, 0.64, 0.5, 7.495E-07, 1.1650000000000002E-12, -7.5118E-07, 7.495E-07, 1.1650000000000002E-12, 7.5118E-07
DataValue, 0.65, 0.5, 7.5474E-07, 1.295E-12, -7.5598E-07, 7.5474E-07, 1.295E-12, 7.5598E-07
DataValue, 0.66, 0.5, 7.5892E-07, 9.15E-13, -7.5542E-07, 7.5892E-07, 9.15E-13, 7.5542E-07
DataValue, 0.67, 0.5, 7.52E-07, 1.3650000000000001E-12, -7.543E-07, 7.52E-07, 1.3650000000000001E-12, 7.543E-07
DataValue, 0.68, 0.5, 7.5256E-07, 1.2150000000000002E-12, -7.5816E-07, 7.5256E-07, 1.2150000000000002E-12, 7.5816E-07
DataValue, 0.69000000000000006, 0.5, 7.576E-07, 1.2750000000000001E-12, -7.5552E-07, 7.576E-07, 1.2750000000000001E-12, 7.5552E-07
DataValue, 0.70000000000000007, 0.5, 7.562E-07, 1.765E-12, -7.5738E-07, 7.562E-07, 1.765E-12, 7.5738E-07
DataValue, 0.71000000000000008, 0.5, 7.5688E-07, 9.55E-13, -7.6182E-07, 7.5688E-07, 9.55E-13, 7.6182E-07
DataValue, 0.72000000000000008, 0.5, 7.5892E-07, 1.335E-12, -7.575E-07, 7.5892E-07, 1.335E-12, 7.575E-07
DataValue, 0.73, 0.5, 7.5396E-07, 1.235E-12, -7.5772E-07, 7.5396E-07, 1.235E-12, 7.5772E-07
DataValue, 0.74, 0.5, 7.5606E-07, 1.2150000000000002E-12, -7.511E-07, 7.5606E-07, 1.2150000000000002E-12, 7.511E-07
DataValue, 0.75, 0.5, 7.5288E-07, 1.4450000000000002E-12, -7.54E-07, 7.5288E-07, 1.4450000000000002E-12, 7.54E-07
DataValue, 0.76, 0.5, 7.4934E-07, 1.525E-12, -7.5352E-07, 7.4934E-07, 1.525E-12, 7.5352E-07
DataValue, 0.77, 0.5, 7.5638E-07, 1.4150000000000001E-12, -7.5748E-07, 7.5638E-07, 1.4150000000000001E-12, 7.5748E-07
DataValue, 0.78, 0.5, 7.5823999999999994E-07, 1.4650000000000001E-12, -7.5966E-07, 7.5823999999999994E-07, 1.4650000000000001E-12, 7.5966E-07
DataValue, 0.79, 0.5, 7.5546E-07, 1.5550000000000001E-12, -7.5683999999999994E-07, 7.5546E-07, 1.5550000000000001E-12, 7.5683999999999994E-07
DataValue, 0.8, 0.5, 7.6094E-07, 1.245E-12, -7.629E-07, 7.6094E-07, 1.245E-12, 7.629E-07
DataValue, 0.81, 0.5, 7.6024E-07, 1.755E-12, -7.6386E-07, 7.6024E-07, 1.755E-12, 7.6386E-07
DataValue, 0.82000000000000006, 0.5, 7.6215999999999994E-07, 1.115E-12, -7.6662E-07, 7.6215999999999994E-07, 1.115E-12, 7.6662E-07
DataValue, 0.83000000000000007, 0.5, 7.6673999999999994E-07, 1.1750000000000001E-12, -7.6558E-07, 7.6673999999999994E-07, 1.1750000000000001E-12, 7.6558E-07
DataValue, 0.84000000000000008, 0.5, 7.6672E-07, 1.395E-12, -7.636E-07, 7.6672E-07, 1.395E-12, 7.636E-07
DataValue, 0.85000000000000009, 0.5, 7.6568E-07, 1.255E-12, -7.6952E-07, 7.6568E-07, 1.255E-12, 7.6952E-07
DataValue, 0.86, 0.5, 7.6642E-07, 1.245E-12, -7.6884E-07, 7.6642E-07, 1.245E-12, 7.6884E-07
DataValue, 0.87, 0.5, 7.6645999999999994E-07, 1.3250000000000001E-12, -7.6691999999999993E-07, 7.6645999999999994E-07, 1.3250000000000001E-12, 7.6691999999999993E-07
DataValue, 0.88, 0.5, 7.665E-07, 8.25E-13, -7.647E-07, 7.665E-07, 8.25E-13, 7.647E-07
DataValue, 0.89, 0.5, 7.6072E-07, 1.185E-12, -7.6248E-07, 7.6072E-07, 1.185E-12, 7.6248E-07
DataValue, 0.9, 0.5, 7.6334E-07, 1.485E-12, -7.6281999999999994E-07, 7.6334E-07, 1.485E-12, 7.6281999999999994E-07
DataValue, 0.91, 0.5, 7.6701999999999994E-07, 9.55E-13, -7.6466E-07, 7.6701999999999994E-07, 9.55E-13, 7.6466E-07
DataValue, 0.92, 0.5, 7.6594E-07, 1.525E-12, -7.6691999999999993E-07, 7.6594E-07, 1.525E-12, 7.6691999999999993E-07
DataValue, 0.93, 0.5, 7.6266E-07, 1.6550000000000001E-12, -7.6348E-07, 7.6266E-07, 1.6550000000000001E-12, 7.6348E-07
DataValue, 0.94000000000000006, 0.5, 7.6439999999999994E-07, 1.105E-12, -7.6446E-07, 7.6439999999999994E-07, 1.105E-12, 7.6446E-07
DataValue, 0.95000000000000007, 0.5, 7.5599999999999994E-07, 1.7350000000000002E-12, -7.5879999999999994E-07, 7.5599999999999994E-07, 1.7350000000000002E-12, 7.5879999999999994E-07
DataValue, 0.96000000000000008, 0.5, 7.6001999999999995E-07, 1.2150000000000002E-12, -7.577E-07, 7.6001999999999995E-07, 1.2150000000000002E-12, 7.577E-07
DataValue, 0.97000000000000008, 0.5, 7.653E-07, 1.3550000000000002E-12, -7.6393999999999994E-07, 7.653E-07, 1.3550000000000002E-12, 7.6393999999999994E-07
DataValue, 0.98000000000000009, 0.5, 7.6131999999999994E-07, 1.335E-12, -7.5767999999999994E-07, 7.6131999999999994E-07, 1.335E-12, 7.5767999999999994E-07
DataValue, 0.9900000000000001, 0.5, 7.6408E-07, 1.105E-12, -7.6504E-07, 7.6408E-07, 1.105E-12, 7.6504E-07
DataValue, 1, 0.5, 7.6062E-07, 9.8500000000000014E-13, -7.5984E-07, 7.6062E-07, 9.8500000000000014E-13, 7.5984E-07
DataValue, 1, 0.5, 7.5972E-07, 1.385E-12, -7.6253999999999994E-07, 7.5972E-07, 1.385E-12, 7.6253999999999994E-07
DataValue, 0.9900000000000001, 0.5, 7.6372E-07, 1.105E-12, -7.6508E-07, 7.6372E-07, 1.105E-12, 7.6508E-07
DataValue, 0.98000000000000009, 0.5, 7.6607999999999994E-07, 1.3150000000000002E-12, -7.6788E-07, 7.6607999999999994E-07, 1.3150000000000002E-12, 7.6788E-07
DataValue, 0.97000000000000008, 0.5, 7.6589999999999994E-07, 1.4650000000000001E-12, -7.6882E-07, 7.6589999999999994E-07, 1.4650000000000001E-12, 7.6882E-07
DataValue, 0.96000000000000008, 0.5, 7.6732E-07, 1.2150000000000002E-12, -7.6812E-07, 7.6732E-07, 1.2150000000000002E-12, 7.6812E-07
DataValue, 0.95000000000000007, 0.5, 7.6812E-07, 1.1250000000000002E-12, -7.7024E-07, 7.6812E-07, 1.1250000000000002E-12, 7.7024E-07
DataValue, 0.94000000000000006, 0.5, 7.6988E-07, 1.7450000000000001E-12, -7.6802E-07, 7.6988E-07, 1.7450000000000001E-12, 7.6802E-07
DataValue, 0.93, 0.5, 7.6614E-07, 1.155E-12, -7.6253999999999994E-07, 7.6614E-07, 1.155E-12, 7.6253999999999994E-07
DataValue, 0.92, 0.5, 7.6042E-07, 1.3150000000000002E-12, -7.6288E-07, 7.6042E-07, 1.3150000000000002E-12, 7.6288E-07
DataValue, 0.91, 0.5, 7.6352E-07, 1.5150000000000001E-12, -7.6438E-07, 7.6352E-07, 1.5150000000000001E-12, 7.6438E-07
DataValue, 0.9, 0.5, 7.648E-07, 1.1750000000000001E-12, -7.6268E-07, 7.648E-07, 1.1750000000000001E-12, 7.6268E-07
DataValue, 0.89, 0.5, 7.5626E-07, 1.0250000000000002E-12, -7.569E-07, 7.5626E-07, 1.0250000000000002E-12, 7.569E-07
