
SetupTitle, IdVd_Vg_par
PrimitiveTest, I/V Sweep
TestParameter, Context.MainFrame, B1500A
TestParameter, Channel.UnitType, SMU, SMU, SMU
TestParameter, Channel.Unit, SMU3:HR, SMU2:HR, SMU1:HR
TestParameter, Channel.IName, Id, Ig, Is
TestParameter, Channel.VName, Vd, Vg, Vs
TestParameter, Channel.Mode, V, V, V
TestParameter, Channel.Func, VAR1, VAR2, CONST
TestParameter, Channel.Index, 
TestParameter, Channel.Time, 
TestParameter, Measurement.Port.Unit, SMU3:HR, SMU2:HR, SMU1:HR
TestParameter, Measurement.Port.SeriesResistor, NONE, NONE, NONE
TestParameter, Measurement.Port.Filter, ON, ON, ON
TestParameter, Measurement.Port.OutputVoltageComparison, 0, 0, 0
TestParameter, Measurement.Primary.Locus, Double
TestParameter, Measurement.Primary.Scale, LINEAR
TestParameter, Measurement.Primary.Start, 0
TestParameter, Measurement.Primary.Stop, 1
TestParameter, Measurement.Primary.Step, 0.01
TestParameter, Measurement.Primary.Compliance, 0.01
TestParameter, Measurement.Primary.PowerCompliance, 0
TestParameter, Measurement.Aborting.Condition, CONTINUE AT ANY
TestParameter, Measurement.PostOutput.Value, START
TestParameter, Measurement.PostOutput.Retention, OFF
TestParameter, Measurement.Secondary.Start, 0.5
TestParameter, Measurement.Secondary.Count, 7
TestParameter, Measurement.Secondary.Step, 0.25
TestParameter, Measurement.Secondary.Compliance, 0.01
TestParameter, Measurement.Secondary.PowerCompliance, 0
TestParameter, Measurement.Bias.Source, 0, 0.5, 0
TestParameter, Measurement.Bias.Compliance, 0.01, 0.01, 0.01
TestParameter, Measurement.Monitor.Unit, SMU3:HR, SMU2:HR, SMU1:HR
TestParameter, Measurement.Monitor.Adc, HR ADC, HR ADC, HR ADC
TestParameter, Measurement.Monitor.Measurement, Compliance Side, Compliance Side, Compliance Side
TestParameter, Measurement.Monitor.RangingMode, LIMITED, LIMITED, LIMITED
TestParameter, Measurement.Monitor.RangeBoundary, 1nA, 1nA, 1nA
TestParameter, Measurement.Monitor.RangeRating, BY FULL RANGE, BY FULL RANGE, BY FULL RANGE
TestParameter, Measurement.Monitor.RangeRatingCoeff, 50, 50, 50
TestParameter, Measurement.Timing.Hold, 0
TestParameter, Measurement.Timing.Delay, 0
TestParameter, Measurement.Adc.HighSpeed.Mode, AUTO
TestParameter, Measurement.Adc.HighSpeed.Coeff, 1
TestParameter, Measurement.Adc.HighResolution.AutoZero, OFF
TestParameter, Measurement.Adc.HighResolution.Mode, AUTO
TestParameter, Measurement.Adc.HighResolution.Coeff, 6
TestParameter, Measurement.WaitTime.Source.Coeff, 1
TestParameter, Measurement.WaitTime.Source.Offset, 0
TestParameter, Measurement.WaitTime.Monitor.Coeff, 1
TestParameter, Measurement.WaitTime.Monitor.Offset, 0
TestParameter, Function.User.Name, absId, absIg, absIs
TestParameter, Function.User.Unit, A, A, A
TestParameter, Function.User.Definition, abs(Id), abs(Ig), abs(Is)
TestParameter, Output.Graph.Enabled, true
TestParameter, Output.Graph.AutoScaling, false
TestParameter, Output.Graph.XAxis.Data, Vd
TestParameter, Output.Graph.XAxis.Scale, Linear
TestParameter, Output.Graph.XAxis.Left, 0
TestParameter, Output.Graph.XAxis.Right, 2
TestParameter, Output.Graph.XAxis.RunTimeAutoScale, false
TestParameter, Output.Graph.YAxis.Data, absId, absIs
TestParameter, Output.Graph.YAxis.Scale, Linear, Linear
TestParameter, Output.Graph.YAxis.Bottom, 1E-15, 1E-15
TestParameter, Output.Graph.YAxis.Top, 0.001, 0.001
TestParameter, Output.Graph.YAxis.Group, , 
TestParameter, Output.Graph.YAxis.RunTimeAutoScale, true, true
TestParameter, Output.List.Data, Vg, Vd, Id, Is, Ig, absId, absIs, absIg
TestParameter, AutoAnalysis.Interpolation, false
TestParameter, AutoAnalysis.Var2StepCount, 1
TestParameter, AutoAnalysis.Var2StepScript, 
TestParameter, AutoAnalysis.Line1.Enabled, false
TestParameter, AutoAnalysis.Line1.Type, 1
TestParameter, AutoAnalysis.Line1.Fix, True
TestParameter, AutoAnalysis.Line1.YAxis, 0
TestParameter, AutoAnalysis.Line1.Point1.Type, 0
TestParameter, AutoAnalysis.Line1.Point1.XY.X, 
TestParameter, AutoAnalysis.Line1.Point1.XY.Y, 
TestParameter, AutoAnalysis.Line1.Point1.Data.Var, 
TestParameter, AutoAnalysis.Line1.Point1.Data.Condition, 
TestParameter, AutoAnalysis.Line1.Point1.Data.Start, false
TestParameter, AutoAnalysis.Line1.Point1.Data.StartVar, 
TestParameter, AutoAnalysis.Line1.Point1.Data.StartCondition, 
TestParameter, AutoAnalysis.Line1.Point2.Type, 0
TestParameter, AutoAnalysis.Line1.Point2.XY.X, 
TestParameter, AutoAnalysis.Line1.Point2.XY.Y, 
TestParameter, AutoAnalysis.Line1.Point2.Data.Var, 
TestParameter, AutoAnalysis.Line1.Point2.Data.Condition, 
TestParameter, AutoAnalysis.Line1.Point2.Data.Start, false
TestParameter, AutoAnalysis.Line1.Point2.Data.StartVar, 
TestParameter, AutoAnalysis.Line1.Point2.Data.StartCondition, 
TestParameter, AutoAnalysis.Line1.GradientExpr, 0
TestParameter, AutoAnalysis.Line2.Enabled, false
TestParameter, AutoAnalysis.Line2.Type, 1
TestParameter, AutoAnalysis.Line2.Fix, True
TestParameter, AutoAnalysis.Line2.YAxis, 0
TestParameter, AutoAnalysis.Line2.Point1.Type, 0
TestParameter, AutoAnalysis.Line2.Point1.XY.X, 
TestParameter, AutoAnalysis.Line2.Point1.XY.Y, 
TestParameter, AutoAnalysis.Line2.Point1.Data.Var, 
TestParameter, AutoAnalysis.Line2.Point1.Data.Condition, 
TestParameter, AutoAnalysis.Line2.Point1.Data.Start, false
TestParameter, AutoAnalysis.Line2.Point1.Data.StartVar, 
TestParameter, AutoAnalysis.Line2.Point1.Data.StartCondition, 
TestParameter, AutoAnalysis.Line2.Point2.Type, 0
TestParameter, AutoAnalysis.Line2.Point2.XY.X, 
TestParameter, AutoAnalysis.Line2.Point2.XY.Y, 
TestParameter, AutoAnalysis.Line2.Point2.Data.Var, 
TestParameter, AutoAnalysis.Line2.Point2.Data.Condition, 
TestParameter, AutoAnalysis.Line2.Point2.Data.Start, false
TestParameter, AutoAnalysis.Line2.Point2.Data.StartVar, 
TestParameter, AutoAnalysis.Line2.Point2.Data.StartCondition, 
TestParameter, AutoAnalysis.Line2.GradientExpr, 0
TestParameter, AutoAnalysis.Marker.Enabled, false
TestParameter, AutoAnalysis.Marker.Data.Var, 
TestParameter, AutoAnalysis.Marker.Data.Condition, 
TestParameter, AutoAnalysis.Marker.Data.Start, false
TestParameter, AutoAnalysis.Marker.Data.StartVar, 
TestParameter, AutoAnalysis.Marker.Data.StartCondition, 
MetaData, TestRecord.EntryPoint, true
MetaData, TestRecord.RecordTime, 06/03/2025 15:46:22
MetaData, TestRecord.TestTarget, R[4]_D[6]_L[100]
MetaData, TestRecord.IterationIndex, 1
MetaData, TestRecord.Preservation, true
MetaData, TestRecord.Flag, !
MetaData, TestRecord.Remarks, 
MetaData, TestRecord.LinkKey, 853694c2-f0cf-4ad4-95da-3d4ae793bbe1
MetaData, TestRecord.Parameters, 
Dimension1, 202, 202, 202, 202, 202, 202, 202, 202
Dimension2, 7, 7, 7, 7, 7, 7, 7, 7
DataName, Vd, Vg, Id, Ig, Is, absId, absIg, absIs
DataValue, 0, 0.5, 4.73347E-10, 9.3500000000000016E-13, -5.22946E-10, 4.73347E-10, 9.3500000000000016E-13, 5.22946E-10
DataValue, 0.01, 0.5, 2.0085999999999999E-07, 1.2650000000000002E-12, -2.0034E-07, 2.0085999999999999E-07, 1.2650000000000002E-12, 2.0034E-07
DataValue, 0.02, 0.5, 3.9097999999999997E-07, 1.195E-12, -3.9352E-07, 3.9097999999999997E-07, 1.195E-12, 3.9352E-07
DataValue, 0.030000000000000002, 0.5, 5.7326E-07, 1.285E-12, -5.7054E-07, 5.7326E-07, 1.285E-12, 5.7054E-07
DataValue, 0.04, 0.5, 7.4448E-07, 1.4950000000000002E-12, -7.3944E-07, 7.4448E-07, 1.4950000000000002E-12, 7.3944E-07
DataValue, 0.05, 0.5, 9.0472E-07, 1.0850000000000001E-12, -8.988E-07, 9.0472E-07, 1.0850000000000001E-12, 8.988E-07
DataValue, 0.060000000000000005, 0.5, 1.05934E-06, 1.6050000000000001E-12, -1.0571799999999999E-06, 1.05934E-06, 1.6050000000000001E-12, 1.0571799999999999E-06
DataValue, 0.07, 0.5, 1.1918000000000002E-06, 1.2750000000000001E-12, -1.1828000000000001E-06, 1.1918000000000002E-06, 1.2750000000000001E-12, 1.1828000000000001E-06
DataValue, 0.08, 0.5, 1.3266000000000001E-06, 1.145E-12, -1.3270000000000002E-06, 1.3266000000000001E-06, 1.145E-12, 1.3270000000000002E-06
DataValue, 0.090000000000000011, 0.5, 1.4570000000000002E-06, 9.75E-13, -1.4614E-06, 1.4570000000000002E-06, 9.75E-13, 1.4614E-06
DataValue, 0.1, 0.5, 1.5825E-06, 1.235E-12, -1.5864000000000002E-06, 1.5825E-06, 1.235E-12, 1.5864000000000002E-06
DataValue, 0.11, 0.5, 1.6931000000000002E-06, 1.0850000000000001E-12, -1.6795000000000002E-06, 1.6931000000000002E-06, 1.0850000000000001E-12, 1.6795000000000002E-06
DataValue, 0.12000000000000001, 0.5, 1.7900000000000002E-06, 1.6050000000000001E-12, -1.788E-06, 1.7900000000000002E-06, 1.6050000000000001E-12, 1.788E-06
DataValue, 0.13, 0.5, 1.8934000000000002E-06, 1.0250000000000002E-12, -1.8959000000000001E-06, 1.8934000000000002E-06, 1.0250000000000002E-12, 1.8959000000000001E-06
DataValue, 0.14, 0.5, 1.9913000000000003E-06, 1.3650000000000001E-12, -1.9923000000000004E-06, 1.9913000000000003E-06, 1.3650000000000001E-12, 1.9923000000000004E-06
DataValue, 0.15, 0.5, 2.1003E-06, 1.2150000000000002E-12, -2.0978E-06, 2.1003E-06, 1.2150000000000002E-12, 2.0978E-06
DataValue, 0.16, 0.5, 2.1984000000000004E-06, 1.485E-12, -2.1837000000000004E-06, 2.1984000000000004E-06, 1.485E-12, 2.1837000000000004E-06
DataValue, 0.17, 0.5, 2.2566E-06, 1.055E-12, -2.2470000000000003E-06, 2.2566E-06, 1.055E-12, 2.2470000000000003E-06
DataValue, 0.18000000000000002, 0.5, 2.3421000000000004E-06, 1.535E-12, -2.323E-06, 2.3421000000000004E-06, 1.535E-12, 2.323E-06
DataValue, 0.19, 0.5, 2.4038E-06, 1.5950000000000002E-12, -2.4240000000000004E-06, 2.4038E-06, 1.5950000000000002E-12, 2.4240000000000004E-06
DataValue, 0.2, 0.5, 2.4714E-06, 9.4500000000000011E-13, -2.4692000000000004E-06, 2.4714E-06, 9.4500000000000011E-13, 2.4692000000000004E-06
DataValue, 0.21000000000000002, 0.5, 2.5348000000000003E-06, 8.5500000000000009E-13, -2.5308000000000004E-06, 2.5348000000000003E-06, 8.5500000000000009E-13, 2.5308000000000004E-06
DataValue, 0.22, 0.5, 2.5737000000000004E-06, 1.055E-12, -2.5926000000000004E-06, 2.5737000000000004E-06, 1.055E-12, 2.5926000000000004E-06
DataValue, 0.23, 0.5, 2.6496000000000004E-06, 1.3050000000000002E-12, -2.6525000000000004E-06, 2.6496000000000004E-06, 1.3050000000000002E-12, 2.6525000000000004E-06
DataValue, 0.24000000000000002, 0.5, 2.7112000000000004E-06, 1.385E-12, -2.6930000000000003E-06, 2.7112000000000004E-06, 1.385E-12, 2.6930000000000003E-06
DataValue, 0.25, 0.5, 2.7466E-06, 1.0350000000000001E-12, -2.7464E-06, 2.7466E-06, 1.0350000000000001E-12, 2.7464E-06
DataValue, 0.26, 0.5, 2.787E-06, 1.3150000000000002E-12, -2.7885000000000005E-06, 2.787E-06, 1.3150000000000002E-12, 2.7885000000000005E-06
DataValue, 0.27, 0.5, 2.8306000000000005E-06, 1.195E-12, -2.8268E-06, 2.8306000000000005E-06, 1.195E-12, 2.8268E-06
DataValue, 0.28, 0.5, 2.8864000000000004E-06, 1.145E-12, -2.8749E-06, 2.8864000000000004E-06, 1.145E-12, 2.8749E-06
DataValue, 0.29000000000000004, 0.5, 2.9230000000000002E-06, 1.4050000000000002E-12, -2.9181000000000005E-06, 2.9230000000000002E-06, 1.4050000000000002E-12, 2.9181000000000005E-06
DataValue, 0.3, 0.5, 2.9386E-06, 1.2750000000000001E-12, -2.9514000000000002E-06, 2.9386E-06, 1.2750000000000001E-12, 2.9514000000000002E-06
DataValue, 0.31, 0.5, 3.0167000000000003E-06, 1.205E-12, -2.9876000000000004E-06, 3.0167000000000003E-06, 1.205E-12, 2.9876000000000004E-06
DataValue, 0.32, 0.5, 3.0165000000000003E-06, 9.55E-13, -3.0200000000000003E-06, 3.0165000000000003E-06, 9.55E-13, 3.0200000000000003E-06
DataValue, 0.33, 0.5, 3.0425000000000005E-06, 1.335E-12, -3.0382000000000004E-06, 3.0425000000000005E-06, 1.335E-12, 3.0382000000000004E-06
DataValue, 0.34, 0.5, 3.0708000000000003E-06, 1.5050000000000002E-12, -3.0834000000000004E-06, 3.0708000000000003E-06, 1.5050000000000002E-12, 3.0834000000000004E-06
DataValue, 0.35000000000000003, 0.5, 3.1063000000000002E-06, 6.7500000000000005E-13, -3.1156000000000003E-06, 3.1063000000000002E-06, 6.7500000000000005E-13, 3.1156000000000003E-06
DataValue, 0.36000000000000004, 0.5, 3.1389E-06, 1.1650000000000002E-12, -3.1434000000000003E-06, 3.1389E-06, 1.1650000000000002E-12, 3.1434000000000003E-06
DataValue, 0.37, 0.5, 3.1653000000000004E-06, 1.105E-12, -3.1781E-06, 3.1653000000000004E-06, 1.105E-12, 3.1781E-06
DataValue, 0.38, 0.5, 3.1823000000000004E-06, 1.185E-12, -3.2069E-06, 3.1823000000000004E-06, 1.185E-12, 3.2069E-06
DataValue, 0.39, 0.5, 3.2106000000000002E-06, 1.245E-12, -3.2135000000000002E-06, 3.2106000000000002E-06, 1.245E-12, 3.2135000000000002E-06
DataValue, 0.4, 0.5, 3.2578000000000004E-06, 1.3550000000000002E-12, -3.2454000000000003E-06, 3.2578000000000004E-06, 1.3550000000000002E-12, 3.2454000000000003E-06
DataValue, 0.41000000000000003, 0.5, 3.2594000000000005E-06, 1.235E-12, -3.2692000000000004E-06, 3.2594000000000005E-06, 1.235E-12, 3.2692000000000004E-06
DataValue, 0.42000000000000004, 0.5, 3.2915E-06, 1.3250000000000001E-12, -3.2773000000000004E-06, 3.2915E-06, 1.3250000000000001E-12, 3.2773000000000004E-06
DataValue, 0.43, 0.5, 3.3014000000000003E-06, 1.255E-12, -3.2832E-06, 3.3014000000000003E-06, 1.255E-12, 3.2832E-06
DataValue, 0.44, 0.5, 3.2955000000000005E-06, 1.185E-12, -3.3074000000000003E-06, 3.2955000000000005E-06, 1.185E-12, 3.3074000000000003E-06
DataValue, 0.45, 0.5, 3.3219000000000003E-06, 1.3150000000000002E-12, -3.3180000000000003E-06, 3.3219000000000003E-06, 1.3150000000000002E-12, 3.3180000000000003E-06
DataValue, 0.46, 0.5, 3.3497000000000003E-06, 1.005E-12, -3.3458000000000002E-06, 3.3497000000000003E-06, 1.005E-12, 3.3458000000000002E-06
DataValue, 0.47000000000000003, 0.5, 3.3806000000000003E-06, 1.3650000000000001E-12, -3.3684000000000002E-06, 3.3806000000000003E-06, 1.3650000000000001E-12, 3.3684000000000002E-06
DataValue, 0.48000000000000004, 0.5, 3.3645E-06, 1.1250000000000002E-12, -3.3838000000000005E-06, 3.3645E-06, 1.1250000000000002E-12, 3.3838000000000005E-06
DataValue, 0.49000000000000005, 0.5, 3.3799000000000005E-06, 9.55E-13, -3.4138000000000002E-06, 3.3799000000000005E-06, 9.55E-13, 3.4138000000000002E-06
DataValue, 0.5, 0.5, 3.4441E-06, 1.1750000000000001E-12, -3.4534000000000003E-06, 3.4441E-06, 1.1750000000000001E-12, 3.4534000000000003E-06
DataValue, 0.51, 0.5, 3.4478000000000003E-06, 1.195E-12, -3.4406E-06, 3.4478000000000003E-06, 1.195E-12, 3.4406E-06
DataValue, 0.52, 0.5, 3.4579000000000004E-06, 1.1250000000000002E-12, -3.4577000000000004E-06, 3.4579000000000004E-06, 1.1250000000000002E-12, 3.4577000000000004E-06
DataValue, 0.53, 0.5, 3.4737000000000003E-06, 1.115E-12, -3.4887E-06, 3.4737000000000003E-06, 1.115E-12, 3.4887E-06
DataValue, 0.54, 0.5, 3.4821000000000005E-06, 1.3250000000000001E-12, -3.4686000000000006E-06, 3.4821000000000005E-06, 1.3250000000000001E-12, 3.4686000000000006E-06
DataValue, 0.55, 0.5, 3.5066000000000004E-06, 1.3050000000000002E-12, -3.4850000000000005E-06, 3.5066000000000004E-06, 1.3050000000000002E-12, 3.4850000000000005E-06
DataValue, 0.56, 0.5, 3.5209000000000005E-06, 1.295E-12, -3.4861000000000004E-06, 3.5209000000000005E-06, 1.295E-12, 3.4861000000000004E-06
DataValue, 0.57000000000000006, 0.5, 3.5363000000000003E-06, 1.015E-12, -3.5323000000000005E-06, 3.5363000000000003E-06, 1.015E-12, 3.5323000000000005E-06
DataValue, 0.58000000000000007, 0.5, 3.5273000000000005E-06, 1.0350000000000001E-12, -3.5538E-06, 3.5273000000000005E-06, 1.0350000000000001E-12, 3.5538E-06
DataValue, 0.59000000000000008, 0.5, 3.5283E-06, 1.3050000000000002E-12, -3.5723000000000005E-06, 3.5283E-06, 1.3050000000000002E-12, 3.5723000000000005E-06
DataValue, 0.6, 0.5, 3.5668000000000003E-06, 1.2650000000000002E-12, -3.582E-06, 3.5668000000000003E-06, 1.2650000000000002E-12, 3.582E-06
DataValue, 0.61, 0.5, 3.5915000000000003E-06, 1.055E-12, -3.6003000000000005E-06, 3.5915000000000003E-06, 1.055E-12, 3.6003000000000005E-06
DataValue, 0.62, 0.5, 3.6101000000000004E-06, 9.55E-13, -3.6208000000000006E-06, 3.6101000000000004E-06, 9.55E-13, 3.6208000000000006E-06
DataValue, 0.63, 0.5, 3.6274E-06, 1.4050000000000002E-12, -3.6112000000000003E-06, 3.6274E-06, 1.4050000000000002E-12, 3.6112000000000003E-06
DataValue, 0.64, 0.5, 3.6316000000000005E-06, 1.245E-12, -3.6150000000000005E-06, 3.6316000000000005E-06, 1.245E-12, 3.6150000000000005E-06
DataValue, 0.65, 0.5, 3.6497000000000004E-06, 1.1250000000000002E-12, -3.6503000000000004E-06, 3.6497000000000004E-06, 1.1250000000000002E-12, 3.6503000000000004E-06
DataValue, 0.66, 0.5, 3.6675000000000005E-06, 1.065E-12, -3.6424000000000005E-06, 3.6675000000000005E-06, 1.065E-12, 3.6424000000000005E-06
DataValue, 0.67, 0.5, 3.6741000000000005E-06, 1.4150000000000001E-12, -3.6696000000000004E-06, 3.6741000000000005E-06, 1.4150000000000001E-12, 3.6696000000000004E-06
DataValue, 0.68, 0.5, 3.6854000000000003E-06, 1.335E-12, -3.6971000000000006E-06, 3.6854000000000003E-06, 1.335E-12, 3.6971000000000006E-06
DataValue, 0.69000000000000006, 0.5, 3.7010000000000002E-06, 1.4450000000000002E-12, -3.7091E-06, 3.7010000000000002E-06, 1.4450000000000002E-12, 3.7091E-06
DataValue, 0.70000000000000007, 0.5, 3.7380000000000005E-06, 1.205E-12, -3.7115000000000004E-06, 3.7380000000000005E-06, 1.205E-12, 3.7115000000000004E-06
DataValue, 0.71000000000000008, 0.5, 3.6922000000000004E-06, 1.375E-12, -3.7101000000000003E-06, 3.6922000000000004E-06, 1.375E-12, 3.7101000000000003E-06
DataValue, 0.72000000000000008, 0.5, 3.7078000000000003E-06, 1.045E-12, -3.7551000000000003E-06, 3.7078000000000003E-06, 1.045E-12, 3.7551000000000003E-06
DataValue, 0.73, 0.5, 3.7550000000000005E-06, 1.4050000000000002E-12, -3.7039000000000002E-06, 3.7550000000000005E-06, 1.4050000000000002E-12, 3.7039000000000002E-06
DataValue, 0.74, 0.5, 3.7199000000000006E-06, 1.145E-12, -3.7452000000000006E-06, 3.7199000000000006E-06, 1.145E-12, 3.7452000000000006E-06
DataValue, 0.75, 0.5, 3.7606000000000005E-06, 1.015E-12, -3.7877E-06, 3.7606000000000005E-06, 1.015E-12, 3.7877E-06
DataValue, 0.76, 0.5, 3.7957000000000004E-06, 1.0250000000000002E-12, -3.7848000000000006E-06, 3.7957000000000004E-06, 1.0250000000000002E-12, 3.7848000000000006E-06
DataValue, 0.77, 0.5, 3.7654000000000004E-06, 1.2150000000000002E-12, -3.7584000000000003E-06, 3.7654000000000004E-06, 1.2150000000000002E-12, 3.7584000000000003E-06
DataValue, 0.78, 0.5, 3.7763000000000006E-06, 7.95E-13, -3.7459000000000004E-06, 3.7763000000000006E-06, 7.95E-13, 3.7459000000000004E-06
DataValue, 0.79, 0.5, 3.7584000000000003E-06, 1.4450000000000002E-12, -3.7623000000000004E-06, 3.7584000000000003E-06, 1.4450000000000002E-12, 3.7623000000000004E-06
DataValue, 0.8, 0.5, 3.7766000000000004E-06, 1.1250000000000002E-12, -3.7768000000000004E-06, 3.7766000000000004E-06, 1.1250000000000002E-12, 3.7768000000000004E-06
DataValue, 0.81, 0.5, 3.8076E-06, 1.055E-12, -3.8036000000000003E-06, 3.8076E-06, 1.055E-12, 3.8036000000000003E-06
DataValue, 0.82000000000000006, 0.5, 3.8166E-06, 1.2150000000000002E-12, -3.8135000000000004E-06, 3.8166E-06, 1.2150000000000002E-12, 3.8135000000000004E-06
DataValue, 0.83000000000000007, 0.5, 3.8519E-06, 1.385E-12, -3.8197E-06, 3.8519E-06, 1.385E-12, 3.8197E-06
DataValue, 0.84000000000000008, 0.5, 3.8156E-06, 9.950000000000001E-13, -3.8387E-06, 3.8156E-06, 9.950000000000001E-13, 3.8387E-06
DataValue, 0.85000000000000009, 0.5, 3.8173000000000007E-06, 1.1250000000000002E-12, -3.8147E-06, 3.8173000000000007E-06, 1.1250000000000002E-12, 3.8147E-06
DataValue, 0.86, 0.5, 3.8221E-06, 7.75E-13, -3.8507E-06, 3.8221E-06, 7.75E-13, 3.8507E-06
DataValue, 0.87, 0.5, 3.8399E-06, 9.8500000000000014E-13, -3.8398E-06, 3.8399E-06, 9.8500000000000014E-13, 3.8398E-06
DataValue, 0.88, 0.5, 3.8488E-06, 9.75E-13, -3.8273000000000006E-06, 3.8488E-06, 9.75E-13, 3.8273000000000006E-06
DataValue, 0.89, 0.5, 3.8373000000000005E-06, 1.385E-12, -3.8336E-06, 3.8373000000000005E-06, 1.385E-12, 3.8336E-06
DataValue, 0.9, 0.5, 3.8415E-06, 1.245E-12, -3.829E-06, 3.8415E-06, 1.245E-12, 3.829E-06
