
SetupTitle, IdVd_Vg_par
PrimitiveTest, I/V Sweep
TestParameter, Context.MainFrame, B1500A
TestParameter, Channel.UnitType, SMU, SMU, SMU
TestParameter, Channel.Unit, SMU3:HR, SMU2:HR, SMU1:HR
TestParameter, Channel.IName, Id, Ig, Is
TestParameter, Channel.VName, Vd, Vg, Vs
TestParameter, Channel.Mode, V, V, V
TestParameter, Channel.Func, VAR1, VAR2, CONST
TestParameter, Channel.Index, 
TestParameter, Channel.Time, 
TestParameter, Measurement.Port.Unit, SMU3:HR, SMU2:HR, SMU1:HR
TestParameter, Measurement.Port.SeriesResistor, NONE, NONE, NONE
TestParameter, Measurement.Port.Filter, ON, ON, ON
TestParameter, Measurement.Port.OutputVoltageComparison, 0, 0, 0
TestParameter, Measurement.Primary.Locus, Double
TestParameter, Measurement.Primary.Scale, LINEAR
TestParameter, Measurement.Primary.Start, 0
TestParameter, Measurement.Primary.Stop, 1
TestParameter, Measurement.Primary.Step, 0.01
TestParameter, Measurement.Primary.Compliance, 0.01
TestParameter, Measurement.Primary.PowerCompliance, 0
TestParameter, Measurement.Aborting.Condition, CONTINUE AT ANY
TestParameter, Measurement.PostOutput.Value, START
TestParameter, Measurement.PostOutput.Retention, OFF
TestParameter, Measurement.Secondary.Start, 0.5
TestParameter, Measurement.Secondary.Count, 7
TestParameter, Measurement.Secondary.Step, 0.25
TestParameter, Measurement.Secondary.Compliance, 0.01
TestParameter, Measurement.Secondary.PowerCompliance, 0
TestParameter, Measurement.Bias.Source, 0, 0.5, 0
TestParameter, Measurement.Bias.Compliance, 0.01, 0.01, 0.01
TestParameter, Measurement.Monitor.Unit, SMU3:HR, SMU2:HR, SMU1:HR
TestParameter, Measurement.Monitor.Adc, HR ADC, HR ADC, HR ADC
TestParameter, Measurement.Monitor.Measurement, Compliance Side, Compliance Side, Compliance Side
TestParameter, Measurement.Monitor.RangingMode, LIMITED, LIMITED, LIMITED
TestParameter, Measurement.Monitor.RangeBoundary, 1nA, 1nA, 1nA
TestParameter, Measurement.Monitor.RangeRating, BY FULL RANGE, BY FULL RANGE, BY FULL RANGE
TestParameter, Measurement.Monitor.RangeRatingCoeff, 50, 50, 50
TestParameter, Measurement.Timing.Hold, 0
TestParameter, Measurement.Timing.Delay, 0
TestParameter, Measurement.Adc.HighSpeed.Mode, AUTO
TestParameter, Measurement.Adc.HighSpeed.Coeff, 1
TestParameter, Measurement.Adc.HighResolution.AutoZero, OFF
TestParameter, Measurement.Adc.HighResolution.Mode, AUTO
TestParameter, Measurement.Adc.HighResolution.Coeff, 6
TestParameter, Measurement.WaitTime.Source.Coeff, 1
TestParameter, Measurement.WaitTime.Source.Offset, 0
TestParameter, Measurement.WaitTime.Monitor.Coeff, 1
TestParameter, Measurement.WaitTime.Monitor.Offset, 0
TestParameter, Function.User.Name, absId, absIg, absIs
TestParameter, Function.User.Unit, A, A, A
TestParameter, Function.User.Definition, abs(Id), abs(Ig), abs(Is)
TestParameter, Output.Graph.Enabled, true
TestParameter, Output.Graph.AutoScaling, false
TestParameter, Output.Graph.XAxis.Data, Vd
TestParameter, Output.Graph.XAxis.Scale, Linear
TestParameter, Output.Graph.XAxis.Left, 0
TestParameter, Output.Graph.XAxis.Right, 2
TestParameter, Output.Graph.XAxis.RunTimeAutoScale, false
TestParameter, Output.Graph.YAxis.Data, absId, absIs
TestParameter, Output.Graph.YAxis.Scale, Linear, Linear
TestParameter, Output.Graph.YAxis.Bottom, 1E-15, 1E-15
TestParameter, Output.Graph.YAxis.Top, 0.001, 0.001
TestParameter, Output.Graph.YAxis.Group, , 
TestParameter, Output.Graph.YAxis.RunTimeAutoScale, true, true
TestParameter, Output.List.Data, Vg, Vd, Id, Is, Ig, absId, absIs, absIg
TestParameter, AutoAnalysis.Interpolation, false
TestParameter, AutoAnalysis.Var2StepCount, 1
TestParameter, AutoAnalysis.Var2StepScript, 
TestParameter, AutoAnalysis.Line1.Enabled, false
TestParameter, AutoAnalysis.Line1.Type, 1
TestParameter, AutoAnalysis.Line1.Fix, True
TestParameter, AutoAnalysis.Line1.YAxis, 0
TestParameter, AutoAnalysis.Line1.Point1.Type, 0
TestParameter, AutoAnalysis.Line1.Point1.XY.X, 
TestParameter, AutoAnalysis.Line1.Point1.XY.Y, 
TestParameter, AutoAnalysis.Line1.Point1.Data.Var, 
TestParameter, AutoAnalysis.Line1.Point1.Data.Condition, 
TestParameter, AutoAnalysis.Line1.Point1.Data.Start, false
TestParameter, AutoAnalysis.Line1.Point1.Data.StartVar, 
TestParameter, AutoAnalysis.Line1.Point1.Data.StartCondition, 
TestParameter, AutoAnalysis.Line1.Point2.Type, 0
TestParameter, AutoAnalysis.Line1.Point2.XY.X, 
TestParameter, AutoAnalysis.Line1.Point2.XY.Y, 
TestParameter, AutoAnalysis.Line1.Point2.Data.Var, 
TestParameter, AutoAnalysis.Line1.Point2.Data.Condition, 
TestParameter, AutoAnalysis.Line1.Point2.Data.Start, false
TestParameter, AutoAnalysis.Line1.Point2.Data.StartVar, 
TestParameter, AutoAnalysis.Line1.Point2.Data.StartCondition, 
TestParameter, AutoAnalysis.Line1.GradientExpr, 0
TestParameter, AutoAnalysis.Line2.Enabled, false
TestParameter, AutoAnalysis.Line2.Type, 1
TestParameter, AutoAnalysis.Line2.Fix, True
TestParameter, AutoAnalysis.Line2.YAxis, 0
TestParameter, AutoAnalysis.Line2.Point1.Type, 0
TestParameter, AutoAnalysis.Line2.Point1.XY.X, 
TestParameter, AutoAnalysis.Line2.Point1.XY.Y, 
TestParameter, AutoAnalysis.Line2.Point1.Data.Var, 
TestParameter, AutoAnalysis.Line2.Point1.Data.Condition, 
TestParameter, AutoAnalysis.Line2.Point1.Data.Start, false
TestParameter, AutoAnalysis.Line2.Point1.Data.StartVar, 
TestParameter, AutoAnalysis.Line2.Point1.Data.StartCondition, 
TestParameter, AutoAnalysis.Line2.Point2.Type, 0
TestParameter, AutoAnalysis.Line2.Point2.XY.X, 
TestParameter, AutoAnalysis.Line2.Point2.XY.Y, 
TestParameter, AutoAnalysis.Line2.Point2.Data.Var, 
TestParameter, AutoAnalysis.Line2.Point2.Data.Condition, 
TestParameter, AutoAnalysis.Line2.Point2.Data.Start, false
TestParameter, AutoAnalysis.Line2.Point2.Data.StartVar, 
TestParameter, AutoAnalysis.Line2.Point2.Data.StartCondition, 
TestParameter, AutoAnalysis.Line2.GradientExpr, 0
TestParameter, AutoAnalysis.Marker.Enabled, false
TestParameter, AutoAnalysis.Marker.Data.Var, 
TestParameter, AutoAnalysis.Marker.Data.Condition, 
TestParameter, AutoAnalysis.Marker.Data.Start, false
TestParameter, AutoAnalysis.Marker.Data.StartVar, 
TestParameter, AutoAnalysis.Marker.Data.StartCondition, 
MetaData, TestRecord.EntryPoint, true
MetaData, TestRecord.RecordTime, 06/03/2025 15:13:14
MetaData, TestRecord.TestTarget, R[5]_D[5]_L[80]
MetaData, TestRecord.IterationIndex, 1
MetaData, TestRecord.Preservation, true
MetaData, TestRecord.Flag, !
MetaData, TestRecord.Remarks, 
MetaData, TestRecord.LinkKey, 7008e38c-49f5-4c2a-8a2d-baa3b32f24d7
MetaData, TestRecord.Parameters, 
Dimension1, 202, 202, 202, 202, 202, 202, 202, 202
Dimension2, 7, 7, 7, 7, 7, 7, 7, 7
DataName, Vd, Vg, Id, Ig, Is, absId, absIg, absIs
DataValue, 0, 0.5, 9.3737E-10, 1.765E-12, -4.98156E-10, 9.3737E-10, 1.765E-12, 4.98156E-10
DataValue, 0.01, 0.5, 2.7616E-07, 1.6850000000000002E-12, -2.784E-07, 2.7616E-07, 1.6850000000000002E-12, 2.784E-07
DataValue, 0.02, 0.5, 5.401E-07, 1.5950000000000002E-12, -5.4268E-07, 5.401E-07, 1.5950000000000002E-12, 5.4268E-07
DataValue, 0.030000000000000002, 0.5, 7.8916E-07, 8.45E-13, -7.9332E-07, 7.8916E-07, 8.45E-13, 7.9332E-07
DataValue, 0.04, 0.5, 1.0248E-06, 1.7750000000000002E-12, -1.02768E-06, 1.0248E-06, 1.7750000000000002E-12, 1.02768E-06
DataValue, 0.05, 0.5, 1.2582E-06, 1.065E-12, -1.25E-06, 1.2582E-06, 1.065E-12, 1.25E-06
DataValue, 0.060000000000000005, 0.5, 1.4609E-06, 2.065E-12, -1.4605000000000003E-06, 1.4609E-06, 2.065E-12, 1.4605000000000003E-06
DataValue, 0.07, 0.5, 1.6776000000000003E-06, 1.4450000000000002E-12, -1.6753E-06, 1.6776000000000003E-06, 1.4450000000000002E-12, 1.6753E-06
DataValue, 0.08, 0.5, 1.8637000000000003E-06, 1.095E-12, -1.8566000000000002E-06, 1.8637000000000003E-06, 1.095E-12, 1.8566000000000002E-06
DataValue, 0.090000000000000011, 0.5, 2.0242E-06, 1.6350000000000002E-12, -2.0330000000000003E-06, 2.0242E-06, 1.6350000000000002E-12, 2.0330000000000003E-06
DataValue, 0.1, 0.5, 2.2071000000000004E-06, 2.1250000000000003E-12, -2.206E-06, 2.2071000000000004E-06, 2.1250000000000003E-12, 2.206E-06
DataValue, 0.11, 0.5, 2.3786000000000004E-06, 1.005E-12, -2.3818000000000002E-06, 2.3786000000000004E-06, 1.005E-12, 2.3818000000000002E-06
DataValue, 0.12000000000000001, 0.5, 2.5188000000000003E-06, 7.55E-13, -2.5137E-06, 2.5188000000000003E-06, 7.55E-13, 2.5137E-06
DataValue, 0.13, 0.5, 2.6872000000000003E-06, 1.9950000000000003E-12, -2.6932000000000003E-06, 2.6872000000000003E-06, 1.9950000000000003E-12, 2.6932000000000003E-06
DataValue, 0.14, 0.5, 2.8283E-06, 1.6950000000000002E-12, -2.8175E-06, 2.8283E-06, 1.6950000000000002E-12, 2.8175E-06
DataValue, 0.15, 0.5, 2.9537E-06, 7.4500000000000006E-13, -2.9369E-06, 2.9537E-06, 7.4500000000000006E-13, 2.9369E-06
DataValue, 0.16, 0.5, 3.0642000000000002E-06, 1.885E-12, -3.0669000000000002E-06, 3.0642000000000002E-06, 1.885E-12, 3.0669000000000002E-06
DataValue, 0.17, 0.5, 3.1714000000000002E-06, 2.065E-12, -3.2069E-06, 3.1714000000000002E-06, 2.065E-12, 3.2069E-06
DataValue, 0.18000000000000002, 0.5, 3.3103000000000003E-06, 1.105E-12, -3.2984000000000005E-06, 3.3103000000000003E-06, 1.105E-12, 3.2984000000000005E-06
DataValue, 0.19, 0.5, 3.4365000000000005E-06, 9.65E-13, -3.4283000000000003E-06, 3.4365000000000005E-06, 9.65E-13, 3.4283000000000003E-06
DataValue, 0.2, 0.5, 3.5419000000000003E-06, 1.4450000000000002E-12, -3.5326000000000003E-06, 3.5419000000000003E-06, 1.4450000000000002E-12, 3.5326000000000003E-06
DataValue, 0.21000000000000002, 0.5, 3.6169000000000005E-06, 2.135E-12, -3.6566000000000003E-06, 3.6169000000000005E-06, 2.135E-12, 3.6566000000000003E-06
DataValue, 0.22, 0.5, 3.7286E-06, 1.2150000000000002E-12, -3.7163000000000003E-06, 3.7286E-06, 1.2150000000000002E-12, 3.7163000000000003E-06
DataValue, 0.23, 0.5, 3.8002000000000005E-06, 1.145E-12, -3.8057000000000003E-06, 3.8002000000000005E-06, 1.145E-12, 3.8057000000000003E-06
DataValue, 0.24000000000000002, 0.5, 3.8882E-06, 1.7850000000000002E-12, -3.8629000000000007E-06, 3.8882E-06, 1.7850000000000002E-12, 3.8629000000000007E-06
DataValue, 0.25, 0.5, 3.9746E-06, 2.065E-12, -3.9805E-06, 3.9746E-06, 2.065E-12, 3.9805E-06
DataValue, 0.26, 0.5, 4.0408E-06, 7.4500000000000006E-13, -4.0299E-06, 4.0408E-06, 7.4500000000000006E-13, 4.0299E-06
DataValue, 0.27, 0.5, 4.1046000000000005E-06, 1.615E-12, -4.1126E-06, 4.1046000000000005E-06, 1.615E-12, 4.1126E-06
DataValue, 0.28, 0.5, 4.1751E-06, 2.155E-12, -4.1918E-06, 4.1751E-06, 2.155E-12, 4.1918E-06
DataValue, 0.29000000000000004, 0.5, 4.2375000000000005E-06, 1.1650000000000002E-12, -4.2771E-06, 4.2375000000000005E-06, 1.1650000000000002E-12, 4.2771E-06
DataValue, 0.3, 0.5, 4.3126000000000009E-06, 1.105E-12, -4.3364000000000005E-06, 4.3126000000000009E-06, 1.105E-12, 4.3364000000000005E-06
DataValue, 0.31, 0.5, 4.3763000000000008E-06, 1.955E-12, -4.3896E-06, 4.3763000000000008E-06, 1.955E-12, 4.3896E-06
DataValue, 0.32, 0.5, 4.4513E-06, 1.825E-12, -4.4731E-06, 4.4513E-06, 1.825E-12, 4.4731E-06
DataValue, 0.33, 0.5, 4.5395E-06, 6.2500000000000006E-13, -4.5198E-06, 4.5395E-06, 6.2500000000000006E-13, 4.5198E-06
DataValue, 0.34, 0.5, 4.5578000000000006E-06, 1.285E-12, -4.5370000000000008E-06, 4.5578000000000006E-06, 1.285E-12, 4.5370000000000008E-06
DataValue, 0.35000000000000003, 0.5, 4.6231000000000007E-06, 1.6550000000000001E-12, -4.6455000000000007E-06, 4.6231000000000007E-06, 1.6550000000000001E-12, 4.6455000000000007E-06
DataValue, 0.36000000000000004, 0.5, 4.7179E-06, 1.1350000000000001E-12, -4.6785E-06, 4.7179E-06, 1.1350000000000001E-12, 4.6785E-06
DataValue, 0.37, 0.5, 4.7378000000000006E-06, 7.55E-13, -4.7573E-06, 4.7378000000000006E-06, 7.55E-13, 4.7573E-06
DataValue, 0.38, 0.5, 4.7832E-06, 1.8650000000000002E-12, -4.8173000000000004E-06, 4.7832E-06, 1.8650000000000002E-12, 4.8173000000000004E-06
DataValue, 0.39, 0.5, 4.818E-06, 1.955E-12, -4.8395000000000008E-06, 4.818E-06, 1.955E-12, 4.8395000000000008E-06
DataValue, 0.4, 0.5, 4.8751E-06, 9.0500000000000008E-13, -4.8763E-06, 4.8751E-06, 9.0500000000000008E-13, 4.8763E-06
DataValue, 0.41000000000000003, 0.5, 4.9159000000000007E-06, 1.0250000000000002E-12, -4.9168E-06, 4.9159000000000007E-06, 1.0250000000000002E-12, 4.9168E-06
DataValue, 0.42000000000000004, 0.5, 5.0152000000000007E-06, 1.875E-12, -4.9406000000000006E-06, 5.0152000000000007E-06, 1.875E-12, 4.9406000000000006E-06
DataValue, 0.43, 0.5, 5.0110000000000008E-06, 1.3050000000000002E-12, -5.0312E-06, 5.0110000000000008E-06, 1.3050000000000002E-12, 5.0312E-06
DataValue, 0.44, 0.5, 5.0377000000000009E-06, 5.35E-13, -5.0539000000000009E-06, 5.0377000000000009E-06, 5.35E-13, 5.0539000000000009E-06
DataValue, 0.45, 0.5, 5.0912000000000005E-06, 1.5850000000000002E-12, -5.042E-06, 5.0912000000000005E-06, 1.5850000000000002E-12, 5.042E-06
DataValue, 0.46, 0.5, 5.1087000000000007E-06, 2.0950000000000003E-12, -5.1193E-06, 5.1087000000000007E-06, 2.0950000000000003E-12, 5.1193E-06
DataValue, 0.47000000000000003, 0.5, 5.1313E-06, 1.5050000000000002E-12, -5.1819E-06, 5.1313E-06, 1.5050000000000002E-12, 5.1819E-06
DataValue, 0.48000000000000004, 0.5, 5.1936000000000006E-06, 1.115E-12, -5.2331000000000008E-06, 5.1936000000000006E-06, 1.115E-12, 5.2331000000000008E-06
DataValue, 0.49000000000000005, 0.5, 5.2224E-06, 1.4650000000000001E-12, -5.2233000000000005E-06, 5.2224E-06, 1.4650000000000001E-12, 5.2233000000000005E-06
DataValue, 0.5, 0.5, 5.2484000000000004E-06, 1.955E-12, -5.2693000000000005E-06, 5.2484000000000004E-06, 1.955E-12, 5.2693000000000005E-06
DataValue, 0.51, 0.5, 5.2603E-06, 1.475E-12, -5.2619E-06, 5.2603E-06, 1.475E-12, 5.2619E-06
DataValue, 0.52, 0.5, 5.3191000000000005E-06, 1.0250000000000002E-12, -5.3154000000000008E-06, 5.3191000000000005E-06, 1.0250000000000002E-12, 5.3154000000000008E-06
DataValue, 0.53, 0.5, 5.3767000000000005E-06, 1.855E-12, -5.3808E-06, 5.3767000000000005E-06, 1.855E-12, 5.3808E-06
DataValue, 0.54, 0.5, 5.3781E-06, 1.425E-12, -5.3657E-06, 5.3781E-06, 1.425E-12, 5.3657E-06
DataValue, 0.55, 0.5, 5.3882E-06, 4.8500000000000005E-13, -5.3973000000000008E-06, 5.3882E-06, 4.8500000000000005E-13, 5.3973000000000008E-06
DataValue, 0.56, 0.5, 5.4205000000000009E-06, 1.105E-12, -5.4014000000000005E-06, 5.4205000000000009E-06, 1.105E-12, 5.4014000000000005E-06
DataValue, 0.57000000000000006, 0.5, 5.4629000000000007E-06, 1.8950000000000003E-12, -5.5000000000000007E-06, 5.4629000000000007E-06, 1.8950000000000003E-12, 5.5000000000000007E-06
DataValue, 0.58000000000000007, 0.5, 5.4821E-06, 1.535E-12, -5.4774E-06, 5.4821E-06, 1.535E-12, 5.4774E-06
DataValue, 0.59000000000000008, 0.5, 5.5147000000000007E-06, 8.8500000000000007E-13, -5.4586000000000006E-06, 5.5147000000000007E-06, 8.8500000000000007E-13, 5.4586000000000006E-06
DataValue, 0.6, 0.5, 5.5157E-06, 1.6950000000000002E-12, -5.4881000000000009E-06, 5.5157E-06, 1.6950000000000002E-12, 5.4881000000000009E-06
DataValue, 0.61, 0.5, 5.5571000000000005E-06, 2.065E-12, -5.5982000000000009E-06, 5.5571000000000005E-06, 2.065E-12, 5.5982000000000009E-06
DataValue, 0.62, 0.5, 5.5089000000000007E-06, 9.4500000000000011E-13, -5.5547E-06, 5.5089000000000007E-06, 9.4500000000000011E-13, 5.5547E-06
DataValue, 0.63, 0.5, 5.5929E-06, 1.2250000000000001E-12, -5.5755E-06, 5.5929E-06, 1.2250000000000001E-12, 5.5755E-06
DataValue, 0.64, 0.5, 5.5959000000000009E-06, 1.7750000000000002E-12, -5.6031000000000006E-06, 5.5959000000000009E-06, 1.7750000000000002E-12, 5.6031000000000006E-06
DataValue, 0.65, 0.5, 5.6188E-06, 1.8450000000000003E-12, -5.6240000000000007E-06, 5.6188E-06, 1.8450000000000003E-12, 5.6240000000000007E-06
DataValue, 0.66, 0.5, 5.6213000000000007E-06, 1.3250000000000001E-12, -5.603E-06, 5.6213000000000007E-06, 1.3250000000000001E-12, 5.603E-06
DataValue, 0.67, 0.5, 5.6371000000000006E-06, 1.435E-12, -5.6411000000000009E-06, 5.6371000000000006E-06, 1.435E-12, 5.6411000000000009E-06
DataValue, 0.68, 0.5, 5.6820000000000008E-06, 1.5850000000000002E-12, -5.6759E-06, 5.6820000000000008E-06, 1.5850000000000002E-12, 5.6759E-06
DataValue, 0.69000000000000006, 0.5, 5.6936000000000008E-06, 1.5850000000000002E-12, -5.7168000000000009E-06, 5.6936000000000008E-06, 1.5850000000000002E-12, 5.7168000000000009E-06
DataValue, 0.70000000000000007, 0.5, 5.7312E-06, 9.65E-13, -5.7803E-06, 5.7312E-06, 9.65E-13, 5.7803E-06
DataValue, 0.71000000000000008, 0.5, 5.8131E-06, 1.015E-12, -5.8210000000000007E-06, 5.8131E-06, 1.015E-12, 5.8210000000000007E-06
DataValue, 0.72000000000000008, 0.5, 5.815E-06, 1.8650000000000002E-12, -5.816900000000001E-06, 5.815E-06, 1.8650000000000002E-12, 5.816900000000001E-06
DataValue, 0.73, 0.5, 5.8606E-06, 1.095E-12, -5.8725000000000009E-06, 5.8606E-06, 1.095E-12, 5.8725000000000009E-06
DataValue, 0.74, 0.5, 5.8951000000000005E-06, 8.8500000000000007E-13, -5.89E-06, 5.8951000000000005E-06, 8.8500000000000007E-13, 5.89E-06
DataValue, 0.75, 0.5, 5.9156000000000006E-06, 1.675E-12, -5.8603000000000005E-06, 5.9156000000000006E-06, 1.675E-12, 5.8603000000000005E-06
DataValue, 0.76, 0.5, 5.9068000000000008E-06, 1.985E-12, -5.8961E-06, 5.9068000000000008E-06, 1.985E-12, 5.8961E-06
DataValue, 0.77, 0.5, 5.9287000000000005E-06, 1.005E-12, -5.9520000000000008E-06, 5.9287000000000005E-06, 1.005E-12, 5.9520000000000008E-06
DataValue, 0.78, 0.5, 5.9496000000000006E-06, 1.105E-12, -5.923500000000001E-06, 5.9496000000000006E-06, 1.105E-12, 5.923500000000001E-06
DataValue, 0.79, 0.5, 6.0017000000000005E-06, 2.005E-12, -5.9508000000000007E-06, 6.0017000000000005E-06, 2.005E-12, 5.9508000000000007E-06
DataValue, 0.8, 0.5, 5.9498E-06, 1.755E-12, -5.9623000000000005E-06, 5.9498E-06, 1.755E-12, 5.9623000000000005E-06
DataValue, 0.81, 0.5, 6.0106000000000005E-06, 8.3500000000000008E-13, -6.0399E-06, 6.0106000000000005E-06, 8.3500000000000008E-13, 6.0399E-06
DataValue, 0.82000000000000006, 0.5, 5.9922000000000008E-06, 1.1250000000000002E-12, -5.9446000000000006E-06, 5.9922000000000008E-06, 1.1250000000000002E-12, 5.9446000000000006E-06
DataValue, 0.83000000000000007, 0.5, 5.9428000000000009E-06, 2.2450000000000002E-12, -5.9598000000000009E-06, 5.9428000000000009E-06, 2.2450000000000002E-12, 5.9598000000000009E-06
DataValue, 0.84000000000000008, 0.5, 5.985E-06, 1.195E-12, -6.003100000000001E-06, 5.985E-06, 1.195E-12, 6.003100000000001E-06
DataValue, 0.85000000000000009, 0.5, 6.0396000000000006E-06, 5.9500000000000009E-13, -6.036300000000001E-06, 6.0396000000000006E-06, 5.9500000000000009E-13, 6.036300000000001E-06
DataValue, 0.86, 0.5, 6.0809000000000005E-06, 1.985E-12, -6.0576E-06, 6.0809000000000005E-06, 1.985E-12, 6.0576E-06
DataValue, 0.87, 0.5, 6.1129E-06, 1.625E-12, -6.058700000000001E-06, 6.1129E-06, 1.625E-12, 6.058700000000001E-06
DataValue, 0.88, 0.5, 6.0776000000000009E-06, 8.1500000000000006E-13, -6.154900000000001E-06, 6.0776000000000009E-06, 8.1500000000000006E-13, 6.154900000000001E-06
DataValue, 0.89, 0.5, 6.1786000000000004E-06, 1.3050000000000002E-12, -6.1472E-06, 6.1786000000000004E-06, 1.3050000000000002E-12, 6.1472E-06
DataValue, 0.9, 0.5, 6.1426E-06, 1.6950000000000002E-12, -6.1136E-06, 6.1426E-06, 1.6950000000000002E-12, 6.1136E-06
DataValue, 0.91, 0.5, 6.1365000000000005E-06, 1.235E-12, -6.138700000000001E-06, 6.1365000000000005E-06, 1.235E-12, 6.138700000000001E-06
DataValue, 0.92, 0.5, 6.1447000000000006E-06, 9.950000000000001E-13, -6.1466000000000006E-06, 6.1447000000000006E-06, 9.950000000000001E-13, 6.1466000000000006E-06
DataValue, 0.93, 0.5, 6.2066000000000009E-06, 2.2950000000000002E-12, -6.1783000000000006E-06, 6.2066000000000009E-06, 2.2950000000000002E-12, 6.1783000000000006E-06
DataValue, 0.94000000000000006, 0.5, 6.2374000000000006E-06, 1.475E-12, -6.208600000000001E-06, 6.2374000000000006E-06, 1.475E-12, 6.208600000000001E-06
DataValue, 0.95000000000000007, 0.5, 6.2238000000000004E-06, 6.35E-13, -6.2327000000000005E-06, 6.2238000000000004E-06, 6.35E-13, 6.2327000000000005E-06
