
SetupTitle, IdVd_Vg_par
PrimitiveTest, I/V Sweep
TestParameter, Context.MainFrame, B1500A
TestParameter, Channel.UnitType, SMU, SMU, SMU
TestParameter, Channel.Unit, SMU3:HR, SMU2:HR, SMU1:HR
TestParameter, Channel.IName, Id, Ig, Is
TestParameter, Channel.VName, Vd, Vg, Vs
TestParameter, Channel.Mode, V, V, V
TestParameter, Channel.Func, VAR1, VAR2, CONST
TestParameter, Channel.Index, 
TestParameter, Channel.Time, 
TestParameter, Measurement.Port.Unit, SMU3:HR, SMU2:HR, SMU1:HR
TestParameter, Measurement.Port.SeriesResistor, NONE, NONE, NONE
TestParameter, Measurement.Port.Filter, ON, ON, ON
TestParameter, Measurement.Port.OutputVoltageComparison, 0, 0, 0
TestParameter, Measurement.Primary.Locus, Double
TestParameter, Measurement.Primary.Scale, LINEAR
TestParameter, Measurement.Primary.Start, 0
TestParameter, Measurement.Primary.Stop, 1
TestParameter, Measurement.Primary.Step, 0.01
TestParameter, Measurement.Primary.Compliance, 0.01
TestParameter, Measurement.Primary.PowerCompliance, 0
TestParameter, Measurement.Aborting.Condition, CONTINUE AT ANY
TestParameter, Measurement.PostOutput.Value, START
TestParameter, Measurement.PostOutput.Retention, OFF
TestParameter, Measurement.Secondary.Start, 0.5
TestParameter, Measurement.Secondary.Count, 7
TestParameter, Measurement.Secondary.Step, 0.25
TestParameter, Measurement.Secondary.Compliance, 0.01
TestParameter, Measurement.Secondary.PowerCompliance, 0
TestParameter, Measurement.Bias.Source, 0, 0.5, 0
TestParameter, Measurement.Bias.Compliance, 0.01, 0.01, 0.01
TestParameter, Measurement.Monitor.Unit, SMU3:HR, SMU2:HR, SMU1:HR
TestParameter, Measurement.Monitor.Adc, HR ADC, HR ADC, HR ADC
TestParameter, Measurement.Monitor.Measurement, Compliance Side, Compliance Side, Compliance Side
TestParameter, Measurement.Monitor.RangingMode, LIMITED, LIMITED, LIMITED
TestParameter, Measurement.Monitor.RangeBoundary, 1nA, 1nA, 1nA
TestParameter, Measurement.Monitor.RangeRating, BY FULL RANGE, BY FULL RANGE, BY FULL RANGE
TestParameter, Measurement.Monitor.RangeRatingCoeff, 50, 50, 50
TestParameter, Measurement.Timing.Hold, 0
TestParameter, Measurement.Timing.Delay, 0
TestParameter, Measurement.Adc.HighSpeed.Mode, AUTO
TestParameter, Measurement.Adc.HighSpeed.Coeff, 1
TestParameter, Measurement.Adc.HighResolution.AutoZero, OFF
TestParameter, Measurement.Adc.HighResolution.Mode, AUTO
TestParameter, Measurement.Adc.HighResolution.Coeff, 6
TestParameter, Measurement.WaitTime.Source.Coeff, 1
TestParameter, Measurement.WaitTime.Source.Offset, 0
TestParameter, Measurement.WaitTime.Monitor.Coeff, 1
TestParameter, Measurement.WaitTime.Monitor.Offset, 0
TestParameter, Function.User.Name, absId, absIg, absIs
TestParameter, Function.User.Unit, A, A, A
TestParameter, Function.User.Definition, abs(Id), abs(Ig), abs(Is)
TestParameter, Output.Graph.Enabled, true
TestParameter, Output.Graph.AutoScaling, false
TestParameter, Output.Graph.XAxis.Data, Vd
TestParameter, Output.Graph.XAxis.Scale, Linear
TestParameter, Output.Graph.XAxis.Left, 0
TestParameter, Output.Graph.XAxis.Right, 2
TestParameter, Output.Graph.XAxis.RunTimeAutoScale, false
TestParameter, Output.Graph.YAxis.Data, absId, absIs
TestParameter, Output.Graph.YAxis.Scale, Linear, Linear
TestParameter, Output.Graph.YAxis.Bottom, 1E-15, 1E-15
TestParameter, Output.Graph.YAxis.Top, 0.001, 0.001
TestParameter, Output.Graph.YAxis.Group, , 
TestParameter, Output.Graph.YAxis.RunTimeAutoScale, true, true
TestParameter, Output.List.Data, Vg, Vd, Id, Is, Ig, absId, absIs, absIg
TestParameter, AutoAnalysis.Interpolation, false
TestParameter, AutoAnalysis.Var2StepCount, 1
TestParameter, AutoAnalysis.Var2StepScript, 
TestParameter, AutoAnalysis.Line1.Enabled, false
TestParameter, AutoAnalysis.Line1.Type, 1
TestParameter, AutoAnalysis.Line1.Fix, True
TestParameter, AutoAnalysis.Line1.YAxis, 0
TestParameter, AutoAnalysis.Line1.Point1.Type, 0
TestParameter, AutoAnalysis.Line1.Point1.XY.X, 
TestParameter, AutoAnalysis.Line1.Point1.XY.Y, 
TestParameter, AutoAnalysis.Line1.Point1.Data.Var, 
TestParameter, AutoAnalysis.Line1.Point1.Data.Condition, 
TestParameter, AutoAnalysis.Line1.Point1.Data.Start, false
TestParameter, AutoAnalysis.Line1.Point1.Data.StartVar, 
TestParameter, AutoAnalysis.Line1.Point1.Data.StartCondition, 
TestParameter, AutoAnalysis.Line1.Point2.Type, 0
TestParameter, AutoAnalysis.Line1.Point2.XY.X, 
TestParameter, AutoAnalysis.Line1.Point2.XY.Y, 
TestParameter, AutoAnalysis.Line1.Point2.Data.Var, 
TestParameter, AutoAnalysis.Line1.Point2.Data.Condition, 
TestParameter, AutoAnalysis.Line1.Point2.Data.Start, false
TestParameter, AutoAnalysis.Line1.Point2.Data.StartVar, 
TestParameter, AutoAnalysis.Line1.Point2.Data.StartCondition, 
TestParameter, AutoAnalysis.Line1.GradientExpr, 0
TestParameter, AutoAnalysis.Line2.Enabled, false
TestParameter, AutoAnalysis.Line2.Type, 1
TestParameter, AutoAnalysis.Line2.Fix, True
TestParameter, AutoAnalysis.Line2.YAxis, 0
TestParameter, AutoAnalysis.Line2.Point1.Type, 0
TestParameter, AutoAnalysis.Line2.Point1.XY.X, 
TestParameter, AutoAnalysis.Line2.Point1.XY.Y, 
TestParameter, AutoAnalysis.Line2.Point1.Data.Var, 
TestParameter, AutoAnalysis.Line2.Point1.Data.Condition, 
TestParameter, AutoAnalysis.Line2.Point1.Data.Start, false
TestParameter, AutoAnalysis.Line2.Point1.Data.StartVar, 
TestParameter, AutoAnalysis.Line2.Point1.Data.StartCondition, 
TestParameter, AutoAnalysis.Line2.Point2.Type, 0
TestParameter, AutoAnalysis.Line2.Point2.XY.X, 
TestParameter, AutoAnalysis.Line2.Point2.XY.Y, 
TestParameter, AutoAnalysis.Line2.Point2.Data.Var, 
TestParameter, AutoAnalysis.Line2.Point2.Data.Condition, 
TestParameter, AutoAnalysis.Line2.Point2.Data.Start, false
TestParameter, AutoAnalysis.Line2.Point2.Data.StartVar, 
TestParameter, AutoAnalysis.Line2.Point2.Data.StartCondition, 
TestParameter, AutoAnalysis.Line2.GradientExpr, 0
TestParameter, AutoAnalysis.Marker.Enabled, false
TestParameter, AutoAnalysis.Marker.Data.Var, 
TestParameter, AutoAnalysis.Marker.Data.Condition, 
TestParameter, AutoAnalysis.Marker.Data.Start, false
TestParameter, AutoAnalysis.Marker.Data.StartVar, 
TestParameter, AutoAnalysis.Marker.Data.StartCondition, 
MetaData, TestRecord.EntryPoint, true
MetaData, TestRecord.RecordTime, 06/03/2025 14:55:42
MetaData, TestRecord.TestTarget, R[5]_D[6]_L[100]
MetaData, TestRecord.IterationIndex, 2
MetaData, TestRecord.Preservation, true
MetaData, TestRecord.Flag, !
MetaData, TestRecord.Remarks, 
MetaData, TestRecord.LinkKey, 6a2949e6-36b3-49ac-bea8-eba0fe15b661
MetaData, TestRecord.Parameters, 
Dimension1, 202, 202, 202, 202, 202, 202, 202, 202
Dimension2, 7, 7, 7, 7, 7, 7, 7, 7
DataName, Vd, Vg, Id, Ig, Is, absId, absIg, absIs
DataValue, 0, 0.5, 4.43567E-10, 2.035E-12, -2.4740600000000004E-10, 4.43567E-10, 2.035E-12, 2.4740600000000004E-10
DataValue, 0.01, 0.5, 1.5746E-07, 2.105E-12, -1.5736E-07, 1.5746E-07, 2.105E-12, 1.5736E-07
DataValue, 0.02, 0.5, 3.0628E-07, 1.935E-12, -3.0304E-07, 3.0628E-07, 1.935E-12, 3.0304E-07
DataValue, 0.030000000000000002, 0.5, 4.447E-07, 2.085E-12, -4.4464E-07, 4.447E-07, 2.085E-12, 4.4464E-07
DataValue, 0.04, 0.5, 5.7488E-07, 2.215E-12, -5.8168E-07, 5.7488E-07, 2.215E-12, 5.8168E-07
DataValue, 0.05, 0.5, 7.0911999999999993E-07, 1.8650000000000002E-12, -7.0308E-07, 7.0911999999999993E-07, 1.8650000000000002E-12, 7.0308E-07
DataValue, 0.060000000000000005, 0.5, 8.175E-07, 2.085E-12, -8.2206E-07, 8.175E-07, 2.085E-12, 8.2206E-07
DataValue, 0.07, 0.5, 9.366E-07, 2.2750000000000003E-12, -9.303E-07, 9.366E-07, 2.2750000000000003E-12, 9.303E-07
DataValue, 0.08, 0.5, 1.0324399999999999E-06, 2.0750000000000003E-12, -1.02914E-06, 1.0324399999999999E-06, 2.0750000000000003E-12, 1.02914E-06
DataValue, 0.090000000000000011, 0.5, 1.13774E-06, 2.385E-12, -1.13108E-06, 1.13774E-06, 2.385E-12, 1.13108E-06
DataValue, 0.1, 0.5, 1.2182E-06, 1.875E-12, -1.2101E-06, 1.2182E-06, 1.875E-12, 1.2101E-06
DataValue, 0.11, 0.5, 1.3074000000000002E-06, 2.0950000000000003E-12, -1.2973E-06, 1.3074000000000002E-06, 2.0950000000000003E-12, 1.2973E-06
DataValue, 0.12000000000000001, 0.5, 1.3788E-06, 2.135E-12, -1.3737E-06, 1.3788E-06, 2.135E-12, 1.3737E-06
DataValue, 0.13, 0.5, 1.4505000000000001E-06, 2.0450000000000003E-12, -1.4495E-06, 1.4505000000000001E-06, 2.0450000000000003E-12, 1.4495E-06
DataValue, 0.14, 0.5, 1.5185000000000002E-06, 1.805E-12, -1.5169000000000003E-06, 1.5185000000000002E-06, 1.805E-12, 1.5169000000000003E-06
DataValue, 0.15, 0.5, 1.5887000000000001E-06, 2.065E-12, -1.5810000000000002E-06, 1.5887000000000001E-06, 2.065E-12, 1.5810000000000002E-06
DataValue, 0.16, 0.5, 1.6511000000000002E-06, 2.165E-12, -1.6614E-06, 1.6511000000000002E-06, 2.165E-12, 1.6614E-06
DataValue, 0.17, 0.5, 1.7078000000000002E-06, 1.985E-12, -1.6990000000000002E-06, 1.7078000000000002E-06, 1.985E-12, 1.6990000000000002E-06
DataValue, 0.18000000000000002, 0.5, 1.7456000000000003E-06, 2.035E-12, -1.7544E-06, 1.7456000000000003E-06, 2.035E-12, 1.7544E-06
DataValue, 0.19, 0.5, 1.8088000000000002E-06, 2.235E-12, -1.8132000000000003E-06, 1.8088000000000002E-06, 2.235E-12, 1.8132000000000003E-06
DataValue, 0.2, 0.5, 1.8523000000000003E-06, 2.135E-12, -1.8542000000000002E-06, 1.8523000000000003E-06, 2.135E-12, 1.8542000000000002E-06
DataValue, 0.21000000000000002, 0.5, 1.9008000000000003E-06, 1.975E-12, -1.8881000000000002E-06, 1.9008000000000003E-06, 1.975E-12, 1.8881000000000002E-06
DataValue, 0.22, 0.5, 1.9281000000000002E-06, 2.0450000000000003E-12, -1.9357000000000004E-06, 1.9281000000000002E-06, 2.0450000000000003E-12, 1.9357000000000004E-06
DataValue, 0.23, 0.5, 1.9669E-06, 2.365E-12, -1.9705E-06, 1.9669E-06, 2.365E-12, 1.9705E-06
DataValue, 0.24000000000000002, 0.5, 1.9958E-06, 1.855E-12, -1.9963000000000003E-06, 1.9958E-06, 1.855E-12, 1.9963000000000003E-06
DataValue, 0.25, 0.5, 2.0355000000000002E-06, 1.935E-12, -2.0224000000000003E-06, 2.0355000000000002E-06, 1.935E-12, 2.0224000000000003E-06
DataValue, 0.26, 0.5, 2.0494000000000002E-06, 2.3050000000000004E-12, -2.0560000000000003E-06, 2.0494000000000002E-06, 2.3050000000000004E-12, 2.0560000000000003E-06
DataValue, 0.27, 0.5, 2.0774000000000002E-06, 2.235E-12, -2.0885000000000004E-06, 2.0774000000000002E-06, 2.235E-12, 2.0885000000000004E-06
DataValue, 0.28, 0.5, 2.1114000000000002E-06, 1.6350000000000002E-12, -2.1236000000000003E-06, 2.1114000000000002E-06, 1.6350000000000002E-12, 2.1236000000000003E-06
DataValue, 0.29000000000000004, 0.5, 2.1465E-06, 2.105E-12, -2.1394000000000002E-06, 2.1465E-06, 2.105E-12, 2.1394000000000002E-06
DataValue, 0.3, 0.5, 2.1599000000000003E-06, 2.1450000000000003E-12, -2.1685E-06, 2.1599000000000003E-06, 2.1450000000000003E-12, 2.1685E-06
DataValue, 0.31, 0.5, 2.1801E-06, 1.835E-12, -2.1788000000000002E-06, 2.1801E-06, 1.835E-12, 2.1788000000000002E-06
DataValue, 0.32, 0.5, 2.1893000000000004E-06, 2.1450000000000003E-12, -2.1928000000000004E-06, 2.1893000000000004E-06, 2.1450000000000003E-12, 2.1928000000000004E-06
DataValue, 0.33, 0.5, 2.2307E-06, 1.6850000000000002E-12, -2.2108E-06, 2.2307E-06, 1.6850000000000002E-12, 2.2108E-06
DataValue, 0.34, 0.5, 2.2326E-06, 2.1250000000000003E-12, -2.2498E-06, 2.2326E-06, 2.1250000000000003E-12, 2.2498E-06
DataValue, 0.35000000000000003, 0.5, 2.2581E-06, 2.385E-12, -2.2325000000000002E-06, 2.2581E-06, 2.385E-12, 2.2325000000000002E-06
DataValue, 0.36000000000000004, 0.5, 2.2736E-06, 1.9450000000000003E-12, -2.2355E-06, 2.2736E-06, 1.9450000000000003E-12, 2.2355E-06
DataValue, 0.37, 0.5, 2.2708000000000003E-06, 2.435E-12, -2.2861000000000004E-06, 2.2708000000000003E-06, 2.435E-12, 2.2861000000000004E-06
DataValue, 0.38, 0.5, 2.3036000000000003E-06, 2.285E-12, -2.3061000000000002E-06, 2.3036000000000003E-06, 2.285E-12, 2.3061000000000002E-06
DataValue, 0.39, 0.5, 2.3005000000000003E-06, 2.0950000000000003E-12, -2.3075000000000004E-06, 2.3005000000000003E-06, 2.0950000000000003E-12, 2.3075000000000004E-06
DataValue, 0.4, 0.5, 2.3194E-06, 1.955E-12, -2.3133000000000004E-06, 2.3194E-06, 1.955E-12, 2.3133000000000004E-06
DataValue, 0.41000000000000003, 0.5, 2.3266000000000003E-06, 1.7250000000000002E-12, -2.3340000000000004E-06, 2.3266000000000003E-06, 1.7250000000000002E-12, 2.3340000000000004E-06
DataValue, 0.42000000000000004, 0.5, 2.3279E-06, 2.0450000000000003E-12, -2.3366E-06, 2.3279E-06, 2.0450000000000003E-12, 2.3366E-06
DataValue, 0.43, 0.5, 2.3481000000000004E-06, 1.9950000000000003E-12, -2.3414E-06, 2.3481000000000004E-06, 1.9950000000000003E-12, 2.3414E-06
DataValue, 0.44, 0.5, 2.3677000000000002E-06, 2.105E-12, -2.3413000000000004E-06, 2.3677000000000002E-06, 2.105E-12, 2.3413000000000004E-06
DataValue, 0.45, 0.5, 2.3505E-06, 2.335E-12, -2.3628E-06, 2.3505E-06, 2.335E-12, 2.3628E-06
DataValue, 0.46, 0.5, 2.3611E-06, 2.4050000000000004E-12, -2.3689000000000003E-06, 2.3611E-06, 2.4050000000000004E-12, 2.3689000000000003E-06
DataValue, 0.47000000000000003, 0.5, 2.3620000000000004E-06, 2.165E-12, -2.3827E-06, 2.3620000000000004E-06, 2.165E-12, 2.3827E-06
DataValue, 0.48000000000000004, 0.5, 2.4102000000000002E-06, 2.265E-12, -2.4041000000000004E-06, 2.4102000000000002E-06, 2.265E-12, 2.4041000000000004E-06
DataValue, 0.49000000000000005, 0.5, 2.4062000000000004E-06, 2.205E-12, -2.4249000000000003E-06, 2.4062000000000004E-06, 2.205E-12, 2.4249000000000003E-06
DataValue, 0.5, 0.5, 2.4243000000000002E-06, 2.335E-12, -2.4135000000000003E-06, 2.4243000000000002E-06, 2.335E-12, 2.4135000000000003E-06
DataValue, 0.51, 0.5, 2.4175E-06, 2.265E-12, -2.4152E-06, 2.4175E-06, 2.265E-12, 2.4152E-06
DataValue, 0.52, 0.5, 2.4266E-06, 2.105E-12, -2.4441000000000005E-06, 2.4266E-06, 2.105E-12, 2.4441000000000005E-06
DataValue, 0.53, 0.5, 2.4454000000000003E-06, 2.435E-12, -2.4413000000000002E-06, 2.4454000000000003E-06, 2.435E-12, 2.4413000000000002E-06
DataValue, 0.54, 0.5, 2.4692000000000004E-06, 2.1750000000000003E-12, -2.4860000000000004E-06, 2.4692000000000004E-06, 2.1750000000000003E-12, 2.4860000000000004E-06
DataValue, 0.55, 0.5, 2.4816E-06, 2.205E-12, -2.482E-06, 2.4816E-06, 2.205E-12, 2.482E-06
DataValue, 0.56, 0.5, 2.4891000000000004E-06, 2.415E-12, -2.4749000000000002E-06, 2.4891000000000004E-06, 2.415E-12, 2.4749000000000002E-06
DataValue, 0.57000000000000006, 0.5, 2.4988E-06, 2.3250000000000003E-12, -2.505E-06, 2.4988E-06, 2.3250000000000003E-12, 2.505E-06
DataValue, 0.58000000000000007, 0.5, 2.5136000000000004E-06, 2.1250000000000003E-12, -2.4911E-06, 2.5136000000000004E-06, 2.1250000000000003E-12, 2.4911E-06
DataValue, 0.59000000000000008, 0.5, 2.4971E-06, 2.3550000000000004E-12, -2.5104E-06, 2.4971E-06, 2.3550000000000004E-12, 2.5104E-06
DataValue, 0.6, 0.5, 2.5010000000000003E-06, 2.065E-12, -2.5E-06, 2.5010000000000003E-06, 2.065E-12, 2.5E-06
DataValue, 0.61, 0.5, 2.5031000000000002E-06, 2.395E-12, -2.5077E-06, 2.5031000000000002E-06, 2.395E-12, 2.5077E-06
DataValue, 0.62, 0.5, 2.5367E-06, 2.165E-12, -2.5582000000000003E-06, 2.5367E-06, 2.165E-12, 2.5582000000000003E-06
DataValue, 0.63, 0.5, 2.5575E-06, 2.2950000000000002E-12, -2.5423E-06, 2.5575E-06, 2.2950000000000002E-12, 2.5423E-06
DataValue, 0.64, 0.5, 2.5471E-06, 2.135E-12, -2.5299E-06, 2.5471E-06, 2.135E-12, 2.5299E-06
DataValue, 0.65, 0.5, 2.5602E-06, 2.1250000000000003E-12, -2.5658E-06, 2.5602E-06, 2.1250000000000003E-12, 2.5658E-06
DataValue, 0.66, 0.5, 2.5646000000000004E-06, 2.215E-12, -2.5570000000000003E-06, 2.5646000000000004E-06, 2.215E-12, 2.5570000000000003E-06
DataValue, 0.67, 0.5, 2.577E-06, 1.925E-12, -2.5782E-06, 2.577E-06, 1.925E-12, 2.5782E-06
DataValue, 0.68, 0.5, 2.5948E-06, 2.085E-12, -2.5917E-06, 2.5948E-06, 2.085E-12, 2.5917E-06
DataValue, 0.69000000000000006, 0.5, 2.5889000000000003E-06, 1.8650000000000002E-12, -2.5898E-06, 2.5889000000000003E-06, 1.8650000000000002E-12, 2.5898E-06
DataValue, 0.70000000000000007, 0.5, 2.5963000000000005E-06, 1.875E-12, -2.6017000000000004E-06, 2.5963000000000005E-06, 1.875E-12, 2.6017000000000004E-06
DataValue, 0.71000000000000008, 0.5, 2.6011000000000004E-06, 2.0450000000000003E-12, -2.5973E-06, 2.6011000000000004E-06, 2.0450000000000003E-12, 2.5973E-06
DataValue, 0.72000000000000008, 0.5, 2.6149E-06, 2.265E-12, -2.6309E-06, 2.6149E-06, 2.265E-12, 2.6309E-06
DataValue, 0.73, 0.5, 2.6367E-06, 2.285E-12, -2.6129000000000004E-06, 2.6367E-06, 2.285E-12, 2.6129000000000004E-06
DataValue, 0.74, 0.5, 2.6091E-06, 2.335E-12, -2.6045000000000002E-06, 2.6091E-06, 2.335E-12, 2.6045000000000002E-06
DataValue, 0.75, 0.5, 2.6314000000000003E-06, 1.975E-12, -2.6325E-06, 2.6314000000000003E-06, 1.975E-12, 2.6325E-06
DataValue, 0.76, 0.5, 2.6356000000000002E-06, 2.065E-12, -2.6546000000000004E-06, 2.6356000000000002E-06, 2.065E-12, 2.6546000000000004E-06
DataValue, 0.77, 0.5, 2.6547E-06, 1.9650000000000002E-12, -2.6551E-06, 2.6547E-06, 1.9650000000000002E-12, 2.6551E-06
DataValue, 0.78, 0.5, 2.6592000000000003E-06, 2.265E-12, -2.6646000000000003E-06, 2.6592000000000003E-06, 2.265E-12, 2.6646000000000003E-06
DataValue, 0.79, 0.5, 2.6677000000000003E-06, 1.975E-12, -2.6506E-06, 2.6677000000000003E-06, 1.975E-12, 2.6506E-06
DataValue, 0.8, 0.5, 2.6588000000000003E-06, 2.135E-12, -2.6687000000000004E-06, 2.6588000000000003E-06, 2.135E-12, 2.6687000000000004E-06
DataValue, 0.81, 0.5, 2.7015000000000003E-06, 1.805E-12, -2.7106000000000004E-06, 2.7015000000000003E-06, 1.805E-12, 2.7106000000000004E-06
DataValue, 0.82000000000000006, 0.5, 2.714E-06, 1.925E-12, -2.6954E-06, 2.714E-06, 1.925E-12, 2.6954E-06
DataValue, 0.83000000000000007, 0.5, 2.6994000000000004E-06, 2.3550000000000004E-12, -2.6940000000000004E-06, 2.6994000000000004E-06, 2.3550000000000004E-12, 2.6940000000000004E-06
DataValue, 0.84000000000000008, 0.5, 2.6803000000000004E-06, 1.805E-12, -2.6737000000000003E-06, 2.6803000000000004E-06, 1.805E-12, 2.6737000000000003E-06
DataValue, 0.85000000000000009, 0.5, 2.6854E-06, 1.955E-12, -2.6722000000000004E-06, 2.6854E-06, 1.955E-12, 2.6722000000000004E-06
DataValue, 0.86, 0.5, 2.6993E-06, 1.9450000000000003E-12, -2.7129000000000003E-06, 2.6993E-06, 1.9450000000000003E-12, 2.7129000000000003E-06
DataValue, 0.87, 0.5, 2.7261000000000005E-06, 1.6850000000000002E-12, -2.7206000000000003E-06, 2.7261000000000005E-06, 1.6850000000000002E-12, 2.7206000000000003E-06
DataValue, 0.88, 0.5, 2.7248E-06, 2.2950000000000002E-12, -2.7369000000000004E-06, 2.7248E-06, 2.2950000000000002E-12, 2.7369000000000004E-06
DataValue, 0.89, 0.5, 2.7245000000000003E-06, 2.035E-12, -2.7386000000000003E-06, 2.7245000000000003E-06, 2.035E-12, 2.7386000000000003E-06
DataValue, 0.9, 0.5, 2.7277E-06, 2.065E-12, -2.7305000000000004E-06, 2.7277E-06, 2.065E-12, 2.7305000000000004E-06
DataValue, 0.91, 0.5, 2.7472E-06, 2.105E-12, -2.7281E-06, 2.7472E-06, 2.105E-12, 2.7281E-06
DataValue, 0.92, 0.5, 2.7468E-06, 2.035E-12, -2.7320000000000003E-06, 2.7468E-06, 2.035E-12, 2.7320000000000003E-06
DataValue, 0.93, 0.5, 2.7337E-06, 2.185E-12, -2.7376000000000003E-06, 2.7337E-06, 2.185E-12, 2.7376000000000003E-06
DataValue, 0.94000000000000006, 0.5, 2.7374000000000003E-06, 2.2450000000000002E-12, -2.7266000000000003E-06, 2.7374000000000003E-06, 2.2450000000000002E-12, 2.7266000000000003E-06
DataValue, 0.95000000000000007, 0.5, 2.7533000000000004E-06, 2.155E-12, -2.7303000000000004E-06, 2.7533000000000004E-06, 2.155E-12, 2.7303000000000004E-06
DataValue, 0.96000000000000008, 0.5, 2.7390000000000004E-06, 2.165E-12, -2.731E-06, 2.7390000000000004E-06, 2.165E-12, 2.731E-06
DataValue, 0.97000000000000008, 0.5, 2.7414E-06, 2.065E-12, -2.7389E-06, 2.7414E-06, 2.065E-12, 2.7389E-06
DataValue, 0.98000000000000009, 0.5, 2.7601000000000005E-06, 2.085E-12, -2.7541000000000004E-06, 2.7601000000000005E-06, 2.085E-12, 2.7541000000000004E-06
