
SetupTitle, IdVd_Vg_par
PrimitiveTest, I/V Sweep
TestParameter, Context.MainFrame, B1500A
TestParameter, Channel.UnitType, SMU, SMU, SMU
TestParameter, Channel.Unit, SMU3:HR, SMU2:HR, SMU1:HR
TestParameter, Channel.IName, Id, Ig, Is
TestParameter, Channel.VName, Vd, Vg, Vs
TestParameter, Channel.Mode, V, V, V
TestParameter, Channel.Func, VAR1, VAR2, CONST
TestParameter, Channel.Index, 
TestParameter, Channel.Time, 
TestParameter, Measurement.Port.Unit, SMU3:HR, SMU2:HR, SMU1:HR
TestParameter, Measurement.Port.SeriesResistor, NONE, NONE, NONE
TestParameter, Measurement.Port.Filter, ON, ON, ON
TestParameter, Measurement.Port.OutputVoltageComparison, 0, 0, 0
TestParameter, Measurement.Primary.Locus, Double
TestParameter, Measurement.Primary.Scale, LINEAR
TestParameter, Measurement.Primary.Start, 0
TestParameter, Measurement.Primary.Stop, 1
TestParameter, Measurement.Primary.Step, 0.01
TestParameter, Measurement.Primary.Compliance, 0.01
TestParameter, Measurement.Primary.PowerCompliance, 0
TestParameter, Measurement.Aborting.Condition, CONTINUE AT ANY
TestParameter, Measurement.PostOutput.Value, START
TestParameter, Measurement.PostOutput.Retention, OFF
TestParameter, Measurement.Secondary.Start, 0.5
TestParameter, Measurement.Secondary.Count, 7
TestParameter, Measurement.Secondary.Step, 0.25
TestParameter, Measurement.Secondary.Compliance, 0.01
TestParameter, Measurement.Secondary.PowerCompliance, 0
TestParameter, Measurement.Bias.Source, 0, 0.5, 0
TestParameter, Measurement.Bias.Compliance, 0.01, 0.01, 0.01
TestParameter, Measurement.Monitor.Unit, SMU3:HR, SMU2:HR, SMU1:HR
TestParameter, Measurement.Monitor.Adc, HR ADC, HR ADC, HR ADC
TestParameter, Measurement.Monitor.Measurement, Compliance Side, Compliance Side, Compliance Side
TestParameter, Measurement.Monitor.RangingMode, LIMITED, LIMITED, LIMITED
TestParameter, Measurement.Monitor.RangeBoundary, 1nA, 1nA, 1nA
TestParameter, Measurement.Monitor.RangeRating, BY FULL RANGE, BY FULL RANGE, BY FULL RANGE
TestParameter, Measurement.Monitor.RangeRatingCoeff, 50, 50, 50
TestParameter, Measurement.Timing.Hold, 0
TestParameter, Measurement.Timing.Delay, 0
TestParameter, Measurement.Adc.HighSpeed.Mode, AUTO
TestParameter, Measurement.Adc.HighSpeed.Coeff, 1
TestParameter, Measurement.Adc.HighResolution.AutoZero, OFF
TestParameter, Measurement.Adc.HighResolution.Mode, AUTO
TestParameter, Measurement.Adc.HighResolution.Coeff, 6
TestParameter, Measurement.WaitTime.Source.Coeff, 1
TestParameter, Measurement.WaitTime.Source.Offset, 0
TestParameter, Measurement.WaitTime.Monitor.Coeff, 1
TestParameter, Measurement.WaitTime.Monitor.Offset, 0
TestParameter, Function.User.Name, absId, absIg, absIs
TestParameter, Function.User.Unit, A, A, A
TestParameter, Function.User.Definition, abs(Id), abs(Ig), abs(Is)
TestParameter, Output.Graph.Enabled, true
TestParameter, Output.Graph.AutoScaling, false
TestParameter, Output.Graph.XAxis.Data, Vd
TestParameter, Output.Graph.XAxis.Scale, Linear
TestParameter, Output.Graph.XAxis.Left, 0
TestParameter, Output.Graph.XAxis.Right, 2
TestParameter, Output.Graph.XAxis.RunTimeAutoScale, false
TestParameter, Output.Graph.YAxis.Data, absId, absIs
TestParameter, Output.Graph.YAxis.Scale, Linear, Linear
TestParameter, Output.Graph.YAxis.Bottom, 1E-15, 1E-15
TestParameter, Output.Graph.YAxis.Top, 0.001, 0.001
TestParameter, Output.Graph.YAxis.Group, , 
TestParameter, Output.Graph.YAxis.RunTimeAutoScale, true, true
TestParameter, Output.List.Data, Vg, Vd, Id, Is, Ig, absId, absIs, absIg
TestParameter, AutoAnalysis.Interpolation, false
TestParameter, AutoAnalysis.Var2StepCount, 1
TestParameter, AutoAnalysis.Var2StepScript, 
TestParameter, AutoAnalysis.Line1.Enabled, false
TestParameter, AutoAnalysis.Line1.Type, 1
TestParameter, AutoAnalysis.Line1.Fix, True
TestParameter, AutoAnalysis.Line1.YAxis, 0
TestParameter, AutoAnalysis.Line1.Point1.Type, 0
TestParameter, AutoAnalysis.Line1.Point1.XY.X, 
TestParameter, AutoAnalysis.Line1.Point1.XY.Y, 
TestParameter, AutoAnalysis.Line1.Point1.Data.Var, 
TestParameter, AutoAnalysis.Line1.Point1.Data.Condition, 
TestParameter, AutoAnalysis.Line1.Point1.Data.Start, false
TestParameter, AutoAnalysis.Line1.Point1.Data.StartVar, 
TestParameter, AutoAnalysis.Line1.Point1.Data.StartCondition, 
TestParameter, AutoAnalysis.Line1.Point2.Type, 0
TestParameter, AutoAnalysis.Line1.Point2.XY.X, 
TestParameter, AutoAnalysis.Line1.Point2.XY.Y, 
TestParameter, AutoAnalysis.Line1.Point2.Data.Var, 
TestParameter, AutoAnalysis.Line1.Point2.Data.Condition, 
TestParameter, AutoAnalysis.Line1.Point2.Data.Start, false
TestParameter, AutoAnalysis.Line1.Point2.Data.StartVar, 
TestParameter, AutoAnalysis.Line1.Point2.Data.StartCondition, 
TestParameter, AutoAnalysis.Line1.GradientExpr, 0
TestParameter, AutoAnalysis.Line2.Enabled, false
TestParameter, AutoAnalysis.Line2.Type, 1
TestParameter, AutoAnalysis.Line2.Fix, True
TestParameter, AutoAnalysis.Line2.YAxis, 0
TestParameter, AutoAnalysis.Line2.Point1.Type, 0
TestParameter, AutoAnalysis.Line2.Point1.XY.X, 
TestParameter, AutoAnalysis.Line2.Point1.XY.Y, 
TestParameter, AutoAnalysis.Line2.Point1.Data.Var, 
TestParameter, AutoAnalysis.Line2.Point1.Data.Condition, 
TestParameter, AutoAnalysis.Line2.Point1.Data.Start, false
TestParameter, AutoAnalysis.Line2.Point1.Data.StartVar, 
TestParameter, AutoAnalysis.Line2.Point1.Data.StartCondition, 
TestParameter, AutoAnalysis.Line2.Point2.Type, 0
TestParameter, AutoAnalysis.Line2.Point2.XY.X, 
TestParameter, AutoAnalysis.Line2.Point2.XY.Y, 
TestParameter, AutoAnalysis.Line2.Point2.Data.Var, 
TestParameter, AutoAnalysis.Line2.Point2.Data.Condition, 
TestParameter, AutoAnalysis.Line2.Point2.Data.Start, false
TestParameter, AutoAnalysis.Line2.Point2.Data.StartVar, 
TestParameter, AutoAnalysis.Line2.Point2.Data.StartCondition, 
TestParameter, AutoAnalysis.Line2.GradientExpr, 0
TestParameter, AutoAnalysis.Marker.Enabled, false
TestParameter, AutoAnalysis.Marker.Data.Var, 
TestParameter, AutoAnalysis.Marker.Data.Condition, 
TestParameter, AutoAnalysis.Marker.Data.Start, false
TestParameter, AutoAnalysis.Marker.Data.StartVar, 
TestParameter, AutoAnalysis.Marker.Data.StartCondition, 
MetaData, TestRecord.EntryPoint, true
MetaData, TestRecord.RecordTime, 06/03/2025 15:31:47
MetaData, TestRecord.TestTarget, R[6]_D[6]_L[70]
MetaData, TestRecord.IterationIndex, 1
MetaData, TestRecord.Preservation, true
MetaData, TestRecord.Flag, !
MetaData, TestRecord.Remarks, 
MetaData, TestRecord.LinkKey, ba6ff6d9-984b-4568-81f2-0ed37f78e59f
MetaData, TestRecord.Parameters, 
Dimension1, 202, 202, 202, 202, 202, 202, 202, 202
Dimension2, 7, 7, 7, 7, 7, 7, 7, 7
DataName, Vd, Vg, Id, Ig, Is, absId, absIg, absIs
DataValue, 0, 0.5, 1.1593699999999999E-09, 1.3650000000000001E-12, -4.6421600000000004E-10, 1.1593699999999999E-09, 1.3650000000000001E-12, 4.6421600000000004E-10
DataValue, 0.01, 0.5, 2.7326E-07, 1.235E-12, -2.7602E-07, 2.7326E-07, 1.235E-12, 2.7602E-07
DataValue, 0.02, 0.5, 5.3618E-07, 1.045E-12, -5.3644E-07, 5.3618E-07, 1.045E-12, 5.3644E-07
DataValue, 0.030000000000000002, 0.5, 7.8266E-07, 1.1650000000000002E-12, -7.8276E-07, 7.8266E-07, 1.1650000000000002E-12, 7.8276E-07
DataValue, 0.04, 0.5, 1.01402E-06, 1.375E-12, -1.01924E-06, 1.01402E-06, 1.375E-12, 1.01924E-06
DataValue, 0.05, 0.5, 1.2182E-06, 1.145E-12, -1.2217E-06, 1.2182E-06, 1.145E-12, 1.2217E-06
DataValue, 0.060000000000000005, 0.5, 1.4422000000000001E-06, 1.015E-12, -1.4488000000000002E-06, 1.4422000000000001E-06, 1.015E-12, 1.4488000000000002E-06
DataValue, 0.07, 0.5, 1.6401000000000002E-06, 9.3500000000000016E-13, -1.6456000000000002E-06, 1.6401000000000002E-06, 9.3500000000000016E-13, 1.6456000000000002E-06
DataValue, 0.08, 0.5, 1.8246000000000003E-06, 1.0750000000000002E-12, -1.8219E-06, 1.8246000000000003E-06, 1.0750000000000002E-12, 1.8219E-06
DataValue, 0.090000000000000011, 0.5, 1.9976E-06, 9.8500000000000014E-13, -2.0129000000000002E-06, 1.9976E-06, 9.8500000000000014E-13, 2.0129000000000002E-06
DataValue, 0.1, 0.5, 2.1513E-06, 1.2650000000000002E-12, -2.1740000000000003E-06, 2.1513E-06, 1.2650000000000002E-12, 2.1740000000000003E-06
DataValue, 0.11, 0.5, 2.3194E-06, 9.8500000000000014E-13, -2.3161E-06, 2.3194E-06, 9.8500000000000014E-13, 2.3161E-06
DataValue, 0.12000000000000001, 0.5, 2.4799E-06, 1.065E-12, -2.4697000000000003E-06, 2.4799E-06, 1.065E-12, 2.4697000000000003E-06
DataValue, 0.13, 0.5, 2.6179000000000004E-06, 8.8500000000000007E-13, -2.6431E-06, 2.6179000000000004E-06, 8.8500000000000007E-13, 2.6431E-06
DataValue, 0.14, 0.5, 2.7807000000000003E-06, 1.385E-12, -2.7789E-06, 2.7807000000000003E-06, 1.385E-12, 2.7789E-06
DataValue, 0.15, 0.5, 2.9153000000000003E-06, 1.065E-12, -2.9167000000000004E-06, 2.9153000000000003E-06, 1.065E-12, 2.9167000000000004E-06
DataValue, 0.16, 0.5, 3.0535000000000005E-06, 9.4500000000000011E-13, -3.0708000000000003E-06, 3.0535000000000005E-06, 9.4500000000000011E-13, 3.0708000000000003E-06
DataValue, 0.17, 0.5, 3.2012000000000004E-06, 9.8500000000000014E-13, -3.1808000000000005E-06, 3.2012000000000004E-06, 9.8500000000000014E-13, 3.1808000000000005E-06
DataValue, 0.18000000000000002, 0.5, 3.2961000000000005E-06, 8.7500000000000011E-13, -3.2943000000000004E-06, 3.2961000000000005E-06, 8.7500000000000011E-13, 3.2943000000000004E-06
DataValue, 0.19, 0.5, 3.3952000000000005E-06, 7.05E-13, -3.4025000000000005E-06, 3.3952000000000005E-06, 7.05E-13, 3.4025000000000005E-06
DataValue, 0.2, 0.5, 3.4845000000000003E-06, 8.1500000000000006E-13, -3.4802E-06, 3.4845000000000003E-06, 8.1500000000000006E-13, 3.4802E-06
DataValue, 0.21000000000000002, 0.5, 3.6090000000000005E-06, 1.2150000000000002E-12, -3.5904000000000004E-06, 3.6090000000000005E-06, 1.2150000000000002E-12, 3.5904000000000004E-06
DataValue, 0.22, 0.5, 3.6910000000000003E-06, 1.145E-12, -3.6835000000000004E-06, 3.6910000000000003E-06, 1.145E-12, 3.6835000000000004E-06
DataValue, 0.23, 0.5, 3.7600000000000004E-06, 1.155E-12, -3.7756000000000003E-06, 3.7600000000000004E-06, 1.155E-12, 3.7756000000000003E-06
DataValue, 0.24000000000000002, 0.5, 3.8843E-06, 1.245E-12, -3.8716E-06, 3.8843E-06, 1.245E-12, 3.8716E-06
DataValue, 0.25, 0.5, 4.008E-06, 1.2150000000000002E-12, -3.9769E-06, 4.008E-06, 1.2150000000000002E-12, 3.9769E-06
DataValue, 0.26, 0.5, 4.0327E-06, 9.0500000000000008E-13, -4.0476E-06, 4.0327E-06, 9.0500000000000008E-13, 4.0476E-06
DataValue, 0.27, 0.5, 4.0915000000000006E-06, 1.145E-12, -4.1357E-06, 4.0915000000000006E-06, 1.145E-12, 4.1357E-06
DataValue, 0.28, 0.5, 4.1857000000000004E-06, 1.235E-12, -4.2003E-06, 4.1857000000000004E-06, 1.235E-12, 4.2003E-06
DataValue, 0.29000000000000004, 0.5, 4.2944000000000008E-06, 9.3500000000000016E-13, -4.2895E-06, 4.2944000000000008E-06, 9.3500000000000016E-13, 4.2895E-06
DataValue, 0.3, 0.5, 4.3328E-06, 1.0850000000000001E-12, -4.3171000000000006E-06, 4.3328E-06, 1.0850000000000001E-12, 4.3171000000000006E-06
DataValue, 0.31, 0.5, 4.4168000000000006E-06, 1.1750000000000001E-12, -4.3877E-06, 4.4168000000000006E-06, 1.1750000000000001E-12, 4.3877E-06
DataValue, 0.32, 0.5, 4.4606E-06, 1.105E-12, -4.5016E-06, 4.4606E-06, 1.105E-12, 4.5016E-06
DataValue, 0.33, 0.5, 4.5388000000000005E-06, 1.115E-12, -4.5639000000000005E-06, 4.5388000000000005E-06, 1.115E-12, 4.5639000000000005E-06
DataValue, 0.34, 0.5, 4.6631E-06, 7.95E-13, -4.6323000000000005E-06, 4.6631E-06, 7.95E-13, 4.6323000000000005E-06
DataValue, 0.35000000000000003, 0.5, 4.6988000000000007E-06, 1.145E-12, -4.6828E-06, 4.6988000000000007E-06, 1.145E-12, 4.6828E-06
DataValue, 0.36000000000000004, 0.5, 4.7297000000000006E-06, 1.2650000000000002E-12, -4.7198E-06, 4.7297000000000006E-06, 1.2650000000000002E-12, 4.7198E-06
DataValue, 0.37, 0.5, 4.7745000000000006E-06, 1.045E-12, -4.7633000000000006E-06, 4.7745000000000006E-06, 1.045E-12, 4.7633000000000006E-06
DataValue, 0.38, 0.5, 4.8392E-06, 7.95E-13, -4.8478E-06, 4.8392E-06, 7.95E-13, 4.8478E-06
DataValue, 0.39, 0.5, 4.8744E-06, 1.375E-12, -4.8893000000000008E-06, 4.8744E-06, 1.375E-12, 4.8893000000000008E-06
DataValue, 0.4, 0.5, 4.8772000000000005E-06, 9.15E-13, -4.9210000000000008E-06, 4.8772000000000005E-06, 9.15E-13, 4.9210000000000008E-06
DataValue, 0.41000000000000003, 0.5, 5.0051000000000006E-06, 1.0850000000000001E-12, -4.9799E-06, 5.0051000000000006E-06, 1.0850000000000001E-12, 4.9799E-06
DataValue, 0.42000000000000004, 0.5, 5.0060000000000009E-06, 9.65E-13, -4.9865000000000005E-06, 5.0060000000000009E-06, 9.65E-13, 4.9865000000000005E-06
DataValue, 0.43, 0.5, 5.076E-06, 1.145E-12, -5.0579E-06, 5.076E-06, 1.145E-12, 5.0579E-06
DataValue, 0.44, 0.5, 5.0642000000000006E-06, 7.75E-13, -5.1106000000000007E-06, 5.0642000000000006E-06, 7.75E-13, 5.1106000000000007E-06
DataValue, 0.45, 0.5, 5.1493000000000008E-06, 9.55E-13, -5.1265000000000008E-06, 5.1493000000000008E-06, 9.55E-13, 5.1265000000000008E-06
DataValue, 0.46, 0.5, 5.1594E-06, 1.095E-12, -5.1654000000000006E-06, 5.1594E-06, 1.095E-12, 5.1654000000000006E-06
DataValue, 0.47000000000000003, 0.5, 5.2055E-06, 1.1250000000000002E-12, -5.2094000000000005E-06, 5.2055E-06, 1.1250000000000002E-12, 5.2094000000000005E-06
DataValue, 0.48000000000000004, 0.5, 5.2348E-06, 7.55E-13, -5.2168000000000006E-06, 5.2348E-06, 7.55E-13, 5.2168000000000006E-06
DataValue, 0.49000000000000005, 0.5, 5.2325E-06, 1.105E-12, -5.2886000000000005E-06, 5.2325E-06, 1.105E-12, 5.2886000000000005E-06
DataValue, 0.5, 0.5, 5.2693000000000005E-06, 9.8500000000000014E-13, -5.2884000000000009E-06, 5.2693000000000005E-06, 9.8500000000000014E-13, 5.2884000000000009E-06
DataValue, 0.51, 0.5, 5.3649000000000009E-06, 1.2250000000000001E-12, -5.3434E-06, 5.3649000000000009E-06, 1.2250000000000001E-12, 5.3434E-06
DataValue, 0.52, 0.5, 5.4242000000000005E-06, 8.1500000000000006E-13, -5.4013E-06, 5.4242000000000005E-06, 8.1500000000000006E-13, 5.4013E-06
DataValue, 0.53, 0.5, 5.4816E-06, 1.065E-12, -5.4725000000000005E-06, 5.4816E-06, 1.065E-12, 5.4725000000000005E-06
DataValue, 0.54, 0.5, 5.5012000000000008E-06, 1.045E-12, -5.4957000000000006E-06, 5.5012000000000008E-06, 1.045E-12, 5.4957000000000006E-06
DataValue, 0.55, 0.5, 5.5528000000000004E-06, 6.55E-13, -5.5218E-06, 5.5528000000000004E-06, 6.55E-13, 5.5218E-06
DataValue, 0.56, 0.5, 5.551500000000001E-06, 8.65E-13, -5.5729000000000005E-06, 5.551500000000001E-06, 8.65E-13, 5.5729000000000005E-06
DataValue, 0.57000000000000006, 0.5, 5.6199E-06, 1.0350000000000001E-12, -5.5864E-06, 5.6199E-06, 1.0350000000000001E-12, 5.5864E-06
DataValue, 0.58000000000000007, 0.5, 5.5987E-06, 1.285E-12, -5.5677000000000009E-06, 5.5987E-06, 1.285E-12, 5.5677000000000009E-06
DataValue, 0.59000000000000008, 0.5, 5.5742000000000008E-06, 1.0350000000000001E-12, -5.5814000000000005E-06, 5.5742000000000008E-06, 1.0350000000000001E-12, 5.5814000000000005E-06
DataValue, 0.6, 0.5, 5.6108000000000006E-06, 1.1650000000000002E-12, -5.5904000000000007E-06, 5.6108000000000006E-06, 1.1650000000000002E-12, 5.5904000000000007E-06
DataValue, 0.61, 0.5, 5.6448000000000006E-06, 1.295E-12, -5.5861000000000006E-06, 5.6448000000000006E-06, 1.295E-12, 5.5861000000000006E-06
DataValue, 0.62, 0.5, 5.703E-06, 1.3050000000000002E-12, -5.6661000000000007E-06, 5.703E-06, 1.3050000000000002E-12, 5.6661000000000007E-06
DataValue, 0.63, 0.5, 5.748500000000001E-06, 8.45E-13, -5.7199000000000009E-06, 5.748500000000001E-06, 8.45E-13, 5.7199000000000009E-06
DataValue, 0.64, 0.5, 5.7447E-06, 1.185E-12, -5.7482E-06, 5.7447E-06, 1.185E-12, 5.7482E-06
DataValue, 0.65, 0.5, 5.6856E-06, 1.295E-12, -5.7315000000000009E-06, 5.6856E-06, 1.295E-12, 5.7315000000000009E-06
DataValue, 0.66, 0.5, 5.7561000000000007E-06, 1.0350000000000001E-12, -5.7907E-06, 5.7561000000000007E-06, 1.0350000000000001E-12, 5.7907E-06
DataValue, 0.67, 0.5, 5.7918E-06, 1.1750000000000001E-12, -5.8059000000000006E-06, 5.7918E-06, 1.1750000000000001E-12, 5.8059000000000006E-06
DataValue, 0.68, 0.5, 5.8558000000000008E-06, 1.1250000000000002E-12, -5.836600000000001E-06, 5.8558000000000008E-06, 1.1250000000000002E-12, 5.836600000000001E-06
DataValue, 0.69000000000000006, 0.5, 5.8564E-06, 1.2650000000000002E-12, -5.8679E-06, 5.8564E-06, 1.2650000000000002E-12, 5.8679E-06
DataValue, 0.70000000000000007, 0.5, 5.9088000000000009E-06, 1.145E-12, -5.8809000000000007E-06, 5.9088000000000009E-06, 1.145E-12, 5.8809000000000007E-06
DataValue, 0.71000000000000008, 0.5, 5.9194000000000004E-06, 1.1650000000000002E-12, -5.8943000000000005E-06, 5.9194000000000004E-06, 1.1650000000000002E-12, 5.8943000000000005E-06
DataValue, 0.72000000000000008, 0.5, 5.9723E-06, 1.1750000000000001E-12, -5.9427000000000007E-06, 5.9723E-06, 1.1750000000000001E-12, 5.9427000000000007E-06
DataValue, 0.73, 0.5, 5.9115000000000009E-06, 1.1750000000000001E-12, -5.8873E-06, 5.9115000000000009E-06, 1.1750000000000001E-12, 5.8873E-06
DataValue, 0.74, 0.5, 5.9945000000000008E-06, 1.0250000000000002E-12, -5.9692E-06, 5.9945000000000008E-06, 1.0250000000000002E-12, 5.9692E-06
DataValue, 0.75, 0.5, 6.002300000000001E-06, 1.235E-12, -6.0205E-06, 6.002300000000001E-06, 1.235E-12, 6.0205E-06
DataValue, 0.76, 0.5, 5.9945000000000008E-06, 9.55E-13, -6.0276000000000005E-06, 5.9945000000000008E-06, 9.55E-13, 6.0276000000000005E-06
DataValue, 0.77, 0.5, 6.0025000000000006E-06, 1.015E-12, -6.0664000000000009E-06, 6.0025000000000006E-06, 1.015E-12, 6.0664000000000009E-06
DataValue, 0.78, 0.5, 6.1027000000000009E-06, 1.0350000000000001E-12, -6.0522E-06, 6.1027000000000009E-06, 1.0350000000000001E-12, 6.0522E-06
DataValue, 0.79, 0.5, 6.0358000000000007E-06, 1.095E-12, -6.0769E-06, 6.0358000000000007E-06, 1.095E-12, 6.0769E-06
DataValue, 0.8, 0.5, 6.0342000000000006E-06, 1.045E-12, -6.0965000000000008E-06, 6.0342000000000006E-06, 1.045E-12, 6.0965000000000008E-06
DataValue, 0.81, 0.5, 6.0719E-06, 9.950000000000001E-13, -6.1291E-06, 6.0719E-06, 9.950000000000001E-13, 6.1291E-06
DataValue, 0.82000000000000006, 0.5, 6.1684000000000009E-06, 6.2500000000000006E-13, -6.165E-06, 6.1684000000000009E-06, 6.2500000000000006E-13, 6.165E-06
DataValue, 0.83000000000000007, 0.5, 6.1598000000000007E-06, 1.0350000000000001E-12, -6.1474000000000006E-06, 6.1598000000000007E-06, 1.0350000000000001E-12, 6.1474000000000006E-06
DataValue, 0.84000000000000008, 0.5, 6.2015000000000007E-06, 1.255E-12, -6.1721000000000006E-06, 6.2015000000000007E-06, 1.255E-12, 6.1721000000000006E-06
DataValue, 0.85000000000000009, 0.5, 6.1937000000000005E-06, 1.015E-12, -6.188500000000001E-06, 6.1937000000000005E-06, 1.015E-12, 6.188500000000001E-06
DataValue, 0.86, 0.5, 6.2715000000000009E-06, 1.0250000000000002E-12, -6.1496E-06, 6.2715000000000009E-06, 1.0250000000000002E-12, 6.1496E-06
DataValue, 0.87, 0.5, 6.2034000000000006E-06, 1.2150000000000002E-12, -6.1960000000000005E-06, 6.2034000000000006E-06, 1.2150000000000002E-12, 6.1960000000000005E-06
DataValue, 0.88, 0.5, 6.233700000000001E-06, 1.4950000000000002E-12, -6.2566E-06, 6.233700000000001E-06, 1.4950000000000002E-12, 6.2566E-06
DataValue, 0.89, 0.5, 6.2207000000000004E-06, 8.65E-13, -6.2688000000000009E-06, 6.2207000000000004E-06, 8.65E-13, 6.2688000000000009E-06
DataValue, 0.9, 0.5, 6.1900000000000009E-06, 8.45E-13, -6.2049000000000005E-06, 6.1900000000000009E-06, 8.45E-13, 6.2049000000000005E-06
DataValue, 0.91, 0.5, 6.1899000000000007E-06, 7.75E-13, -6.2079E-06, 6.1899000000000007E-06, 7.75E-13, 6.2079E-06
DataValue, 0.92, 0.5, 6.2241E-06, 1.2250000000000001E-12, -6.221E-06, 6.2241E-06, 1.2250000000000001E-12, 6.221E-06
DataValue, 0.93, 0.5, 6.2057000000000006E-06, 1.185E-12, -6.245E-06, 6.2057000000000006E-06, 1.185E-12, 6.245E-06
DataValue, 0.94000000000000006, 0.5, 6.2737000000000006E-06, 1.295E-12, -6.3116000000000007E-06, 6.2737000000000006E-06, 1.295E-12, 6.3116000000000007E-06
