
SetupTitle, IdVd_Vg_par
PrimitiveTest, I/V Sweep
TestParameter, Context.MainFrame, B1500A
TestParameter, Channel.UnitType, SMU, SMU, SMU
TestParameter, Channel.Unit, SMU3:HR, SMU2:HR, SMU1:HR
TestParameter, Channel.IName, Id, Ig, Is
TestParameter, Channel.VName, Vd, Vg, Vs
TestParameter, Channel.Mode, V, V, V
TestParameter, Channel.Func, VAR1, VAR2, CONST
TestParameter, Channel.Index, 
TestParameter, Channel.Time, 
TestParameter, Measurement.Port.Unit, SMU3:HR, SMU2:HR, SMU1:HR
TestParameter, Measurement.Port.SeriesResistor, NONE, NONE, NONE
TestParameter, Measurement.Port.Filter, ON, ON, ON
TestParameter, Measurement.Port.OutputVoltageComparison, 0, 0, 0
TestParameter, Measurement.Primary.Locus, Double
TestParameter, Measurement.Primary.Scale, LINEAR
TestParameter, Measurement.Primary.Start, 0
TestParameter, Measurement.Primary.Stop, 1
TestParameter, Measurement.Primary.Step, 0.01
TestParameter, Measurement.Primary.Compliance, 0.01
TestParameter, Measurement.Primary.PowerCompliance, 0
TestParameter, Measurement.Aborting.Condition, CONTINUE AT ANY
TestParameter, Measurement.PostOutput.Value, START
TestParameter, Measurement.PostOutput.Retention, OFF
TestParameter, Measurement.Secondary.Start, 0.5
TestParameter, Measurement.Secondary.Count, 7
TestParameter, Measurement.Secondary.Step, 0.25
TestParameter, Measurement.Secondary.Compliance, 0.01
TestParameter, Measurement.Secondary.PowerCompliance, 0
TestParameter, Measurement.Bias.Source, 0, 0.5, 0
TestParameter, Measurement.Bias.Compliance, 0.01, 0.01, 0.01
TestParameter, Measurement.Monitor.Unit, SMU3:HR, SMU2:HR, SMU1:HR
TestParameter, Measurement.Monitor.Adc, HR ADC, HR ADC, HR ADC
TestParameter, Measurement.Monitor.Measurement, Compliance Side, Compliance Side, Compliance Side
TestParameter, Measurement.Monitor.RangingMode, LIMITED, LIMITED, LIMITED
TestParameter, Measurement.Monitor.RangeBoundary, 1nA, 1nA, 1nA
TestParameter, Measurement.Monitor.RangeRating, BY FULL RANGE, BY FULL RANGE, BY FULL RANGE
TestParameter, Measurement.Monitor.RangeRatingCoeff, 50, 50, 50
TestParameter, Measurement.Timing.Hold, 0
TestParameter, Measurement.Timing.Delay, 0
TestParameter, Measurement.Adc.HighSpeed.Mode, AUTO
TestParameter, Measurement.Adc.HighSpeed.Coeff, 1
TestParameter, Measurement.Adc.HighResolution.AutoZero, OFF
TestParameter, Measurement.Adc.HighResolution.Mode, AUTO
TestParameter, Measurement.Adc.HighResolution.Coeff, 6
TestParameter, Measurement.WaitTime.Source.Coeff, 1
TestParameter, Measurement.WaitTime.Source.Offset, 0
TestParameter, Measurement.WaitTime.Monitor.Coeff, 1
TestParameter, Measurement.WaitTime.Monitor.Offset, 0
TestParameter, Function.User.Name, absId, absIg, absIs
TestParameter, Function.User.Unit, A, A, A
TestParameter, Function.User.Definition, abs(Id), abs(Ig), abs(Is)
TestParameter, Output.Graph.Enabled, true
TestParameter, Output.Graph.AutoScaling, false
TestParameter, Output.Graph.XAxis.Data, Vd
TestParameter, Output.Graph.XAxis.Scale, Linear
TestParameter, Output.Graph.XAxis.Left, 0
TestParameter, Output.Graph.XAxis.Right, 2
TestParameter, Output.Graph.XAxis.RunTimeAutoScale, false
TestParameter, Output.Graph.YAxis.Data, absId, absIs
TestParameter, Output.Graph.YAxis.Scale, Linear, Linear
TestParameter, Output.Graph.YAxis.Bottom, 1E-15, 1E-15
TestParameter, Output.Graph.YAxis.Top, 0.001, 0.001
TestParameter, Output.Graph.YAxis.Group, , 
TestParameter, Output.Graph.YAxis.RunTimeAutoScale, true, true
TestParameter, Output.List.Data, Vg, Vd, Id, Is, Ig, absId, absIs, absIg
TestParameter, AutoAnalysis.Interpolation, false
TestParameter, AutoAnalysis.Var2StepCount, 1
TestParameter, AutoAnalysis.Var2StepScript, 
TestParameter, AutoAnalysis.Line1.Enabled, false
TestParameter, AutoAnalysis.Line1.Type, 1
TestParameter, AutoAnalysis.Line1.Fix, True
TestParameter, AutoAnalysis.Line1.YAxis, 0
TestParameter, AutoAnalysis.Line1.Point1.Type, 0
TestParameter, AutoAnalysis.Line1.Point1.XY.X, 
TestParameter, AutoAnalysis.Line1.Point1.XY.Y, 
TestParameter, AutoAnalysis.Line1.Point1.Data.Var, 
TestParameter, AutoAnalysis.Line1.Point1.Data.Condition, 
TestParameter, AutoAnalysis.Line1.Point1.Data.Start, false
TestParameter, AutoAnalysis.Line1.Point1.Data.StartVar, 
TestParameter, AutoAnalysis.Line1.Point1.Data.StartCondition, 
TestParameter, AutoAnalysis.Line1.Point2.Type, 0
TestParameter, AutoAnalysis.Line1.Point2.XY.X, 
TestParameter, AutoAnalysis.Line1.Point2.XY.Y, 
TestParameter, AutoAnalysis.Line1.Point2.Data.Var, 
TestParameter, AutoAnalysis.Line1.Point2.Data.Condition, 
TestParameter, AutoAnalysis.Line1.Point2.Data.Start, false
TestParameter, AutoAnalysis.Line1.Point2.Data.StartVar, 
TestParameter, AutoAnalysis.Line1.Point2.Data.StartCondition, 
TestParameter, AutoAnalysis.Line1.GradientExpr, 0
TestParameter, AutoAnalysis.Line2.Enabled, false
TestParameter, AutoAnalysis.Line2.Type, 1
TestParameter, AutoAnalysis.Line2.Fix, True
TestParameter, AutoAnalysis.Line2.YAxis, 0
TestParameter, AutoAnalysis.Line2.Point1.Type, 0
TestParameter, AutoAnalysis.Line2.Point1.XY.X, 
TestParameter, AutoAnalysis.Line2.Point1.XY.Y, 
TestParameter, AutoAnalysis.Line2.Point1.Data.Var, 
TestParameter, AutoAnalysis.Line2.Point1.Data.Condition, 
TestParameter, AutoAnalysis.Line2.Point1.Data.Start, false
TestParameter, AutoAnalysis.Line2.Point1.Data.StartVar, 
TestParameter, AutoAnalysis.Line2.Point1.Data.StartCondition, 
TestParameter, AutoAnalysis.Line2.Point2.Type, 0
TestParameter, AutoAnalysis.Line2.Point2.XY.X, 
TestParameter, AutoAnalysis.Line2.Point2.XY.Y, 
TestParameter, AutoAnalysis.Line2.Point2.Data.Var, 
TestParameter, AutoAnalysis.Line2.Point2.Data.Condition, 
TestParameter, AutoAnalysis.Line2.Point2.Data.Start, false
TestParameter, AutoAnalysis.Line2.Point2.Data.StartVar, 
TestParameter, AutoAnalysis.Line2.Point2.Data.StartCondition, 
TestParameter, AutoAnalysis.Line2.GradientExpr, 0
TestParameter, AutoAnalysis.Marker.Enabled, false
TestParameter, AutoAnalysis.Marker.Data.Var, 
TestParameter, AutoAnalysis.Marker.Data.Condition, 
TestParameter, AutoAnalysis.Marker.Data.Start, false
TestParameter, AutoAnalysis.Marker.Data.StartVar, 
TestParameter, AutoAnalysis.Marker.Data.StartCondition, 
MetaData, TestRecord.EntryPoint, true
MetaData, TestRecord.RecordTime, 06/03/2025 15:37:15
MetaData, TestRecord.TestTarget, R[4]_D[6]_L[90]
MetaData, TestRecord.IterationIndex, 1
MetaData, TestRecord.Preservation, true
MetaData, TestRecord.Flag, !
MetaData, TestRecord.Remarks, 
MetaData, TestRecord.LinkKey, 73a5abca-7780-49af-a214-665d09c90159
MetaData, TestRecord.Parameters, 
Dimension1, 202, 202, 202, 202, 202, 202, 202, 202
Dimension2, 7, 7, 7, 7, 7, 7, 7, 7
DataName, Vd, Vg, Id, Ig, Is, absId, absIg, absIs
DataValue, 0, 0.5, 1.07797E-09, 1.105E-12, -4.3469600000000003E-10, 1.07797E-09, 1.105E-12, 4.3469600000000003E-10
DataValue, 0.01, 0.5, 2.8482E-07, 1.475E-12, -2.852E-07, 2.8482E-07, 1.475E-12, 2.852E-07
DataValue, 0.02, 0.5, 5.5925999999999994E-07, 1.1750000000000001E-12, -5.553E-07, 5.5925999999999994E-07, 1.1750000000000001E-12, 5.553E-07
DataValue, 0.030000000000000002, 0.5, 8.1432E-07, 9.15E-13, -8.1172E-07, 8.1432E-07, 9.15E-13, 8.1172E-07
DataValue, 0.04, 0.5, 1.0607E-06, 1.245E-12, -1.05802E-06, 1.0607E-06, 1.245E-12, 1.05802E-06
DataValue, 0.05, 0.5, 1.2954000000000001E-06, 1.3250000000000001E-12, -1.2965000000000002E-06, 1.2954000000000001E-06, 1.3250000000000001E-12, 1.2965000000000002E-06
DataValue, 0.060000000000000005, 0.5, 1.5113000000000003E-06, 1.115E-12, -1.5135000000000002E-06, 1.5113000000000003E-06, 1.115E-12, 1.5135000000000002E-06
DataValue, 0.07, 0.5, 1.7224000000000002E-06, 1.045E-12, -1.7293000000000001E-06, 1.7224000000000002E-06, 1.045E-12, 1.7293000000000001E-06
DataValue, 0.08, 0.5, 1.9213E-06, 1.015E-12, -1.9269E-06, 1.9213E-06, 1.015E-12, 1.9269E-06
DataValue, 0.090000000000000011, 0.5, 2.1099000000000003E-06, 1.0350000000000001E-12, -2.1331000000000004E-06, 2.1099000000000003E-06, 1.0350000000000001E-12, 2.1331000000000004E-06
DataValue, 0.1, 0.5, 2.3119000000000003E-06, 1.4150000000000001E-12, -2.3101E-06, 2.3119000000000003E-06, 1.4150000000000001E-12, 2.3101E-06
DataValue, 0.11, 0.5, 2.4941000000000004E-06, 1.095E-12, -2.5036E-06, 2.4941000000000004E-06, 1.095E-12, 2.5036E-06
DataValue, 0.12000000000000001, 0.5, 2.6604000000000004E-06, 8.8500000000000007E-13, -2.6641000000000005E-06, 2.6604000000000004E-06, 8.8500000000000007E-13, 2.6641000000000005E-06
DataValue, 0.13, 0.5, 2.8242000000000004E-06, 1.5550000000000001E-12, -2.8173E-06, 2.8242000000000004E-06, 1.5550000000000001E-12, 2.8173E-06
DataValue, 0.14, 0.5, 2.9708000000000004E-06, 1.2250000000000001E-12, -2.9714000000000005E-06, 2.9708000000000004E-06, 1.2250000000000001E-12, 2.9714000000000005E-06
DataValue, 0.15, 0.5, 3.1148000000000002E-06, 1.2150000000000002E-12, -3.1218000000000003E-06, 3.1148000000000002E-06, 1.2150000000000002E-12, 3.1218000000000003E-06
DataValue, 0.16, 0.5, 3.2491000000000004E-06, 1.1250000000000002E-12, -3.2651000000000003E-06, 3.2491000000000004E-06, 1.1250000000000002E-12, 3.2651000000000003E-06
DataValue, 0.17, 0.5, 3.3877E-06, 1.055E-12, -3.3708000000000004E-06, 3.3877E-06, 1.055E-12, 3.3708000000000004E-06
DataValue, 0.18000000000000002, 0.5, 3.5264000000000002E-06, 1.285E-12, -3.5189000000000003E-06, 3.5264000000000002E-06, 1.285E-12, 3.5189000000000003E-06
DataValue, 0.19, 0.5, 3.6196000000000005E-06, 8.3500000000000008E-13, -3.6437000000000004E-06, 3.6196000000000005E-06, 8.3500000000000008E-13, 3.6437000000000004E-06
DataValue, 0.2, 0.5, 3.7542000000000004E-06, 1.055E-12, -3.7448000000000006E-06, 3.7542000000000004E-06, 1.055E-12, 3.7448000000000006E-06
DataValue, 0.21000000000000002, 0.5, 3.8654E-06, 1.2650000000000002E-12, -3.8843E-06, 3.8654E-06, 1.2650000000000002E-12, 3.8843E-06
DataValue, 0.22, 0.5, 3.9869000000000007E-06, 1.005E-12, -3.9726000000000007E-06, 3.9869000000000007E-06, 1.005E-12, 3.9726000000000007E-06
DataValue, 0.23, 0.5, 4.0727000000000008E-06, 1.055E-12, -4.0447000000000004E-06, 4.0727000000000008E-06, 1.055E-12, 4.0447000000000004E-06
DataValue, 0.24000000000000002, 0.5, 4.1438E-06, 1.345E-12, -4.1610000000000005E-06, 4.1438E-06, 1.345E-12, 4.1610000000000005E-06
DataValue, 0.25, 0.5, 4.2546000000000007E-06, 1.0750000000000002E-12, -4.2428E-06, 4.2546000000000007E-06, 1.0750000000000002E-12, 4.2428E-06
DataValue, 0.26, 0.5, 4.3253000000000008E-06, 1.395E-12, -4.3441000000000005E-06, 4.3253000000000008E-06, 1.395E-12, 4.3441000000000005E-06
DataValue, 0.27, 0.5, 4.4218000000000006E-06, 9.15E-13, -4.4501000000000008E-06, 4.4218000000000006E-06, 9.15E-13, 4.4501000000000008E-06
DataValue, 0.28, 0.5, 4.5250000000000007E-06, 8.050000000000001E-13, -4.5275E-06, 4.5250000000000007E-06, 8.050000000000001E-13, 4.5275E-06
DataValue, 0.29000000000000004, 0.5, 4.5660000000000008E-06, 1.205E-12, -4.5774E-06, 4.5660000000000008E-06, 1.205E-12, 4.5774E-06
DataValue, 0.3, 0.5, 4.6315000000000005E-06, 1.1350000000000001E-12, -4.6375E-06, 4.6315000000000005E-06, 1.1350000000000001E-12, 4.6375E-06
DataValue, 0.31, 0.5, 4.7002E-06, 1.1750000000000001E-12, -4.6866E-06, 4.7002E-06, 1.1750000000000001E-12, 4.6866E-06
DataValue, 0.32, 0.5, 4.7816E-06, 1.2250000000000001E-12, -4.7543E-06, 4.7816E-06, 1.2250000000000001E-12, 4.7543E-06
DataValue, 0.33, 0.5, 4.833E-06, 1.1650000000000002E-12, -4.7908000000000008E-06, 4.833E-06, 1.1650000000000002E-12, 4.7908000000000008E-06
DataValue, 0.34, 0.5, 4.8536E-06, 1.335E-12, -4.8863E-06, 4.8536E-06, 1.335E-12, 4.8863E-06
DataValue, 0.35000000000000003, 0.5, 4.9623000000000008E-06, 1.115E-12, -4.9645000000000005E-06, 4.9623000000000008E-06, 1.115E-12, 4.9645000000000005E-06
DataValue, 0.36000000000000004, 0.5, 4.9781000000000007E-06, 1.3550000000000002E-12, -4.9904000000000005E-06, 4.9781000000000007E-06, 1.3550000000000002E-12, 4.9904000000000005E-06
DataValue, 0.37, 0.5, 5.0788E-06, 9.8500000000000014E-13, -5.0935000000000004E-06, 5.0788E-06, 9.8500000000000014E-13, 5.0935000000000004E-06
DataValue, 0.38, 0.5, 5.1405E-06, 1.425E-12, -5.1309E-06, 5.1405E-06, 1.425E-12, 5.1309E-06
DataValue, 0.39, 0.5, 5.1312E-06, 1.525E-12, -5.1632000000000008E-06, 5.1312E-06, 1.525E-12, 5.1632000000000008E-06
DataValue, 0.4, 0.5, 5.2325E-06, 1.235E-12, -5.202E-06, 5.2325E-06, 1.235E-12, 5.202E-06
DataValue, 0.41000000000000003, 0.5, 5.2966E-06, 1.2750000000000001E-12, -5.2683000000000009E-06, 5.2966E-06, 1.2750000000000001E-12, 5.2683000000000009E-06
DataValue, 0.42000000000000004, 0.5, 5.3517000000000008E-06, 1.2650000000000002E-12, -5.2925000000000006E-06, 5.3517000000000008E-06, 1.2650000000000002E-12, 5.2925000000000006E-06
DataValue, 0.43, 0.5, 5.3363000000000009E-06, 1.105E-12, -5.3710000000000008E-06, 5.3363000000000009E-06, 1.105E-12, 5.3710000000000008E-06
DataValue, 0.44, 0.5, 5.4075E-06, 1.4050000000000002E-12, -5.4285000000000006E-06, 5.4075E-06, 1.4050000000000002E-12, 5.4285000000000006E-06
DataValue, 0.45, 0.5, 5.4823000000000009E-06, 1.015E-12, -5.4519E-06, 5.4823000000000009E-06, 1.015E-12, 5.4519E-06
DataValue, 0.46, 0.5, 5.4681E-06, 1.485E-12, -5.4768000000000007E-06, 5.4681E-06, 1.485E-12, 5.4768000000000007E-06
DataValue, 0.47000000000000003, 0.5, 5.4744000000000005E-06, 1.1350000000000001E-12, -5.5248000000000009E-06, 5.4744000000000005E-06, 1.1350000000000001E-12, 5.5248000000000009E-06
DataValue, 0.48000000000000004, 0.5, 5.5393000000000005E-06, 1.2250000000000001E-12, -5.526000000000001E-06, 5.5393000000000005E-06, 1.2250000000000001E-12, 5.526000000000001E-06
DataValue, 0.49000000000000005, 0.5, 5.5721E-06, 9.25E-13, -5.5528000000000004E-06, 5.5721E-06, 9.25E-13, 5.5528000000000004E-06
DataValue, 0.5, 0.5, 5.5887E-06, 1.3050000000000002E-12, -5.5884000000000006E-06, 5.5887E-06, 1.3050000000000002E-12, 5.5884000000000006E-06
DataValue, 0.51, 0.5, 5.6371000000000006E-06, 1.335E-12, -5.6042000000000005E-06, 5.6371000000000006E-06, 1.335E-12, 5.6042000000000005E-06
DataValue, 0.52, 0.5, 5.6293000000000005E-06, 5.65E-13, -5.6173E-06, 5.6293000000000005E-06, 5.65E-13, 5.6173E-06
DataValue, 0.53, 0.5, 5.6887E-06, 1.115E-12, -5.7007E-06, 5.6887E-06, 1.115E-12, 5.7007E-06
DataValue, 0.54, 0.5, 5.7228000000000005E-06, 1.2150000000000002E-12, -5.686700000000001E-06, 5.7228000000000005E-06, 1.2150000000000002E-12, 5.686700000000001E-06
DataValue, 0.55, 0.5, 5.7163000000000006E-06, 1.375E-12, -5.6887E-06, 5.7163000000000006E-06, 1.375E-12, 5.6887E-06
DataValue, 0.56, 0.5, 5.7276000000000009E-06, 1.1650000000000002E-12, -5.7071000000000008E-06, 5.7276000000000009E-06, 1.1650000000000002E-12, 5.7071000000000008E-06
DataValue, 0.57000000000000006, 0.5, 5.7312E-06, 9.65E-13, -5.7705000000000009E-06, 5.7312E-06, 9.65E-13, 5.7705000000000009E-06
DataValue, 0.58000000000000007, 0.5, 5.816500000000001E-06, 1.055E-12, -5.8178000000000004E-06, 5.816500000000001E-06, 1.055E-12, 5.8178000000000004E-06
DataValue, 0.59000000000000008, 0.5, 5.804900000000001E-06, 1.095E-12, -5.7569000000000007E-06, 5.804900000000001E-06, 1.095E-12, 5.7569000000000007E-06
DataValue, 0.6, 0.5, 5.8256000000000006E-06, 1.065E-12, -5.7791E-06, 5.8256000000000006E-06, 1.065E-12, 5.7791E-06
DataValue, 0.61, 0.5, 5.8504000000000008E-06, 1.055E-12, -5.8382E-06, 5.8504000000000008E-06, 1.055E-12, 5.8382E-06
DataValue, 0.62, 0.5, 5.8650000000000006E-06, 1.4450000000000002E-12, -5.8612000000000007E-06, 5.8650000000000006E-06, 1.4450000000000002E-12, 5.8612000000000007E-06
DataValue, 0.63, 0.5, 5.8734E-06, 7.6500000000000007E-13, -5.89E-06, 5.8734E-06, 7.6500000000000007E-13, 5.89E-06
DataValue, 0.64, 0.5, 5.9219000000000008E-06, 1.345E-12, -5.9276000000000006E-06, 5.9219000000000008E-06, 1.345E-12, 5.9276000000000006E-06
DataValue, 0.65, 0.5, 5.9502E-06, 1.0850000000000001E-12, -5.9026000000000009E-06, 5.9502E-06, 1.0850000000000001E-12, 5.9026000000000009E-06
DataValue, 0.66, 0.5, 5.9465000000000006E-06, 8.45E-13, -5.9740000000000007E-06, 5.9465000000000006E-06, 8.45E-13, 5.9740000000000007E-06
DataValue, 0.67, 0.5, 6.000000000000001E-06, 8.45E-13, -5.9700000000000004E-06, 6.000000000000001E-06, 8.45E-13, 5.9700000000000004E-06
DataValue, 0.68, 0.5, 5.9789000000000005E-06, 1.1750000000000001E-12, -5.983000000000001E-06, 5.9789000000000005E-06, 1.1750000000000001E-12, 5.983000000000001E-06
DataValue, 0.69000000000000006, 0.5, 6.0151E-06, 9.950000000000001E-13, -5.9523000000000006E-06, 6.0151E-06, 9.950000000000001E-13, 5.9523000000000006E-06
DataValue, 0.70000000000000007, 0.5, 5.9871000000000007E-06, 1.235E-12, -6.0155E-06, 5.9871000000000007E-06, 1.235E-12, 6.0155E-06
DataValue, 0.71000000000000008, 0.5, 6.07E-06, 1.145E-12, -6.0281000000000008E-06, 6.07E-06, 1.145E-12, 6.0281000000000008E-06
DataValue, 0.72000000000000008, 0.5, 6.0486000000000008E-06, 1.2250000000000001E-12, -6.0572E-06, 6.0486000000000008E-06, 1.2250000000000001E-12, 6.0572E-06
DataValue, 0.73, 0.5, 6.048E-06, 1.1250000000000002E-12, -6.0860000000000007E-06, 6.048E-06, 1.1250000000000002E-12, 6.0860000000000007E-06
DataValue, 0.74, 0.5, 6.1156E-06, 9.950000000000001E-13, -6.1201000000000009E-06, 6.1156E-06, 9.950000000000001E-13, 6.1201000000000009E-06
DataValue, 0.75, 0.5, 6.0860000000000007E-06, 1.625E-12, -6.030900000000001E-06, 6.0860000000000007E-06, 1.625E-12, 6.030900000000001E-06
DataValue, 0.76, 0.5, 6.0617000000000008E-06, 1.385E-12, -6.0928E-06, 6.0617000000000008E-06, 1.385E-12, 6.0928E-06
DataValue, 0.77, 0.5, 6.1470000000000006E-06, 1.105E-12, -6.0955E-06, 6.1470000000000006E-06, 1.105E-12, 6.0955E-06
DataValue, 0.78, 0.5, 6.1664000000000008E-06, 1.235E-12, -6.1501000000000006E-06, 6.1664000000000008E-06, 1.235E-12, 6.1501000000000006E-06
DataValue, 0.79, 0.5, 6.1656000000000007E-06, 1.0750000000000002E-12, -6.1323000000000006E-06, 6.1656000000000007E-06, 1.0750000000000002E-12, 6.1323000000000006E-06
DataValue, 0.8, 0.5, 6.205500000000001E-06, 1.255E-12, -6.1633000000000008E-06, 6.205500000000001E-06, 1.255E-12, 6.1633000000000008E-06
DataValue, 0.81, 0.5, 6.189E-06, 1.335E-12, -6.1830000000000008E-06, 6.189E-06, 1.335E-12, 6.1830000000000008E-06
DataValue, 0.82000000000000006, 0.5, 6.2351000000000007E-06, 9.950000000000001E-13, -6.236400000000001E-06, 6.2351000000000007E-06, 9.950000000000001E-13, 6.236400000000001E-06
DataValue, 0.83000000000000007, 0.5, 6.2571000000000006E-06, 1.4050000000000002E-12, -6.2228000000000008E-06, 6.2571000000000006E-06, 1.4050000000000002E-12, 6.2228000000000008E-06
DataValue, 0.84000000000000008, 0.5, 6.2387000000000009E-06, 1.005E-12, -6.2706000000000006E-06, 6.2387000000000009E-06, 1.005E-12, 6.2706000000000006E-06
DataValue, 0.85000000000000009, 0.5, 6.3065000000000005E-06, 1.015E-12, -6.3342E-06, 6.3065000000000005E-06, 1.015E-12, 6.3342E-06
DataValue, 0.86, 0.5, 6.299400000000001E-06, 1.205E-12, -6.2933E-06, 6.299400000000001E-06, 1.205E-12, 6.2933E-06
DataValue, 0.87, 0.5, 6.2808000000000009E-06, 1.0250000000000002E-12, -6.299000000000001E-06, 6.2808000000000009E-06, 1.0250000000000002E-12, 6.299000000000001E-06
DataValue, 0.88, 0.5, 6.3050000000000006E-06, 1.3550000000000002E-12, -6.289E-06, 6.3050000000000006E-06, 1.3550000000000002E-12, 6.289E-06
DataValue, 0.89, 0.5, 6.312900000000001E-06, 9.4500000000000011E-13, -6.306700000000001E-06, 6.312900000000001E-06, 9.4500000000000011E-13, 6.306700000000001E-06
DataValue, 0.9, 0.5, 6.3347000000000005E-06, 1.205E-12, -6.3181000000000005E-06, 6.3347000000000005E-06, 1.205E-12, 6.3181000000000005E-06
DataValue, 0.91, 0.5, 6.3463000000000005E-06, 9.15E-13, -6.3116000000000007E-06, 6.3463000000000005E-06, 9.15E-13, 6.3116000000000007E-06
DataValue, 0.92, 0.5, 6.3352000000000008E-06, 1.1650000000000002E-12, -6.3617000000000004E-06, 6.3352000000000008E-06, 1.1650000000000002E-12, 6.3617000000000004E-06
DataValue, 0.93, 0.5, 6.4066000000000006E-06, 1.1650000000000002E-12, -6.4189000000000005E-06, 6.4066000000000006E-06, 1.1650000000000002E-12, 6.4189000000000005E-06
