
SetupTitle, IdVd_Vg_par
PrimitiveTest, I/V Sweep
TestParameter, Context.MainFrame, B1500A
TestParameter, Channel.UnitType, SMU, SMU, SMU
TestParameter, Channel.Unit, SMU3:HR, SMU2:HR, SMU1:HR
TestParameter, Channel.IName, Id, Ig, Is
TestParameter, Channel.VName, Vd, Vg, Vs
TestParameter, Channel.Mode, V, V, V
TestParameter, Channel.Func, VAR1, VAR2, CONST
TestParameter, Channel.Index, 
TestParameter, Channel.Time, 
TestParameter, Measurement.Port.Unit, SMU3:HR, SMU2:HR, SMU1:HR
TestParameter, Measurement.Port.SeriesResistor, NONE, NONE, NONE
TestParameter, Measurement.Port.Filter, ON, ON, ON
TestParameter, Measurement.Port.OutputVoltageComparison, 0, 0, 0
TestParameter, Measurement.Primary.Locus, Double
TestParameter, Measurement.Primary.Scale, LINEAR
TestParameter, Measurement.Primary.Start, 0
TestParameter, Measurement.Primary.Stop, 1
TestParameter, Measurement.Primary.Step, 0.01
TestParameter, Measurement.Primary.Compliance, 0.01
TestParameter, Measurement.Primary.PowerCompliance, 0
TestParameter, Measurement.Aborting.Condition, CONTINUE AT ANY
TestParameter, Measurement.PostOutput.Value, START
TestParameter, Measurement.PostOutput.Retention, OFF
TestParameter, Measurement.Secondary.Start, 0.5
TestParameter, Measurement.Secondary.Count, 7
TestParameter, Measurement.Secondary.Step, 0.25
TestParameter, Measurement.Secondary.Compliance, 0.01
TestParameter, Measurement.Secondary.PowerCompliance, 0
TestParameter, Measurement.Bias.Source, 0, 0.5, 0
TestParameter, Measurement.Bias.Compliance, 0.01, 0.01, 0.01
TestParameter, Measurement.Monitor.Unit, SMU3:HR, SMU2:HR, SMU1:HR
TestParameter, Measurement.Monitor.Adc, HR ADC, HR ADC, HR ADC
TestParameter, Measurement.Monitor.Measurement, Compliance Side, Compliance Side, Compliance Side
TestParameter, Measurement.Monitor.RangingMode, LIMITED, LIMITED, LIMITED
TestParameter, Measurement.Monitor.RangeBoundary, 1nA, 1nA, 1nA
TestParameter, Measurement.Monitor.RangeRating, BY FULL RANGE, BY FULL RANGE, BY FULL RANGE
TestParameter, Measurement.Monitor.RangeRatingCoeff, 50, 50, 50
TestParameter, Measurement.Timing.Hold, 0
TestParameter, Measurement.Timing.Delay, 0
TestParameter, Measurement.Adc.HighSpeed.Mode, AUTO
TestParameter, Measurement.Adc.HighSpeed.Coeff, 1
TestParameter, Measurement.Adc.HighResolution.AutoZero, OFF
TestParameter, Measurement.Adc.HighResolution.Mode, AUTO
TestParameter, Measurement.Adc.HighResolution.Coeff, 6
TestParameter, Measurement.WaitTime.Source.Coeff, 1
TestParameter, Measurement.WaitTime.Source.Offset, 0
TestParameter, Measurement.WaitTime.Monitor.Coeff, 1
TestParameter, Measurement.WaitTime.Monitor.Offset, 0
TestParameter, Function.User.Name, absId, absIg, absIs
TestParameter, Function.User.Unit, A, A, A
TestParameter, Function.User.Definition, abs(Id), abs(Ig), abs(Is)
TestParameter, Output.Graph.Enabled, true
TestParameter, Output.Graph.AutoScaling, false
TestParameter, Output.Graph.XAxis.Data, Vd
TestParameter, Output.Graph.XAxis.Scale, Linear
TestParameter, Output.Graph.XAxis.Left, 0
TestParameter, Output.Graph.XAxis.Right, 2
TestParameter, Output.Graph.XAxis.RunTimeAutoScale, false
TestParameter, Output.Graph.YAxis.Data, absId, absIs
TestParameter, Output.Graph.YAxis.Scale, Linear, Linear
TestParameter, Output.Graph.YAxis.Bottom, 1E-15, 1E-15
TestParameter, Output.Graph.YAxis.Top, 0.001, 0.001
TestParameter, Output.Graph.YAxis.Group, , 
TestParameter, Output.Graph.YAxis.RunTimeAutoScale, true, true
TestParameter, Output.List.Data, Vg, Vd, Id, Is, Ig, absId, absIs, absIg
TestParameter, AutoAnalysis.Interpolation, false
TestParameter, AutoAnalysis.Var2StepCount, 1
TestParameter, AutoAnalysis.Var2StepScript, 
TestParameter, AutoAnalysis.Line1.Enabled, false
TestParameter, AutoAnalysis.Line1.Type, 1
TestParameter, AutoAnalysis.Line1.Fix, True
TestParameter, AutoAnalysis.Line1.YAxis, 0
TestParameter, AutoAnalysis.Line1.Point1.Type, 0
TestParameter, AutoAnalysis.Line1.Point1.XY.X, 
TestParameter, AutoAnalysis.Line1.Point1.XY.Y, 
TestParameter, AutoAnalysis.Line1.Point1.Data.Var, 
TestParameter, AutoAnalysis.Line1.Point1.Data.Condition, 
TestParameter, AutoAnalysis.Line1.Point1.Data.Start, false
TestParameter, AutoAnalysis.Line1.Point1.Data.StartVar, 
TestParameter, AutoAnalysis.Line1.Point1.Data.StartCondition, 
TestParameter, AutoAnalysis.Line1.Point2.Type, 0
TestParameter, AutoAnalysis.Line1.Point2.XY.X, 
TestParameter, AutoAnalysis.Line1.Point2.XY.Y, 
TestParameter, AutoAnalysis.Line1.Point2.Data.Var, 
TestParameter, AutoAnalysis.Line1.Point2.Data.Condition, 
TestParameter, AutoAnalysis.Line1.Point2.Data.Start, false
TestParameter, AutoAnalysis.Line1.Point2.Data.StartVar, 
TestParameter, AutoAnalysis.Line1.Point2.Data.StartCondition, 
TestParameter, AutoAnalysis.Line1.GradientExpr, 0
TestParameter, AutoAnalysis.Line2.Enabled, false
TestParameter, AutoAnalysis.Line2.Type, 1
TestParameter, AutoAnalysis.Line2.Fix, True
TestParameter, AutoAnalysis.Line2.YAxis, 0
TestParameter, AutoAnalysis.Line2.Point1.Type, 0
TestParameter, AutoAnalysis.Line2.Point1.XY.X, 
TestParameter, AutoAnalysis.Line2.Point1.XY.Y, 
TestParameter, AutoAnalysis.Line2.Point1.Data.Var, 
TestParameter, AutoAnalysis.Line2.Point1.Data.Condition, 
TestParameter, AutoAnalysis.Line2.Point1.Data.Start, false
TestParameter, AutoAnalysis.Line2.Point1.Data.StartVar, 
TestParameter, AutoAnalysis.Line2.Point1.Data.StartCondition, 
TestParameter, AutoAnalysis.Line2.Point2.Type, 0
TestParameter, AutoAnalysis.Line2.Point2.XY.X, 
TestParameter, AutoAnalysis.Line2.Point2.XY.Y, 
TestParameter, AutoAnalysis.Line2.Point2.Data.Var, 
TestParameter, AutoAnalysis.Line2.Point2.Data.Condition, 
TestParameter, AutoAnalysis.Line2.Point2.Data.Start, false
TestParameter, AutoAnalysis.Line2.Point2.Data.StartVar, 
TestParameter, AutoAnalysis.Line2.Point2.Data.StartCondition, 
TestParameter, AutoAnalysis.Line2.GradientExpr, 0
TestParameter, AutoAnalysis.Marker.Enabled, false
TestParameter, AutoAnalysis.Marker.Data.Var, 
TestParameter, AutoAnalysis.Marker.Data.Condition, 
TestParameter, AutoAnalysis.Marker.Data.Start, false
TestParameter, AutoAnalysis.Marker.Data.StartVar, 
TestParameter, AutoAnalysis.Marker.Data.StartCondition, 
MetaData, TestRecord.EntryPoint, true
MetaData, TestRecord.RecordTime, 06/03/2025 16:15:21
MetaData, TestRecord.TestTarget, R[6]_D[6]_L[500]
MetaData, TestRecord.IterationIndex, 1
MetaData, TestRecord.Preservation, true
MetaData, TestRecord.Flag, !
MetaData, TestRecord.Remarks, 
MetaData, TestRecord.LinkKey, 8e25297a-6a19-432b-9a21-a773b0bd9f4a
MetaData, TestRecord.Parameters, 
Dimension1, 202, 202, 202, 202, 202, 202, 202, 202
Dimension2, 7, 7, 7, 7, 7, 7, 7, 7
DataName, Vd, Vg, Id, Ig, Is, absId, absIg, absIs
DataValue, 0, 0.5, -8.893000000000001E-12, 1.385E-12, 6.8740000000000008E-12, 8.893000000000001E-12, 1.385E-12, 6.8740000000000008E-12
DataValue, 0.01, 0.5, 1.3974399999999998E-08, 1.765E-12, -1.3981599999999999E-08, 1.3974399999999998E-08, 1.765E-12, 1.3981599999999999E-08
DataValue, 0.02, 0.5, 2.6612799999999997E-08, 1.485E-12, -2.6521999999999998E-08, 2.6612799999999997E-08, 1.485E-12, 2.6521999999999998E-08
DataValue, 0.030000000000000002, 0.5, 3.8022599999999994E-08, 1.7450000000000001E-12, -3.7790799999999993E-08, 3.8022599999999994E-08, 1.7450000000000001E-12, 3.7790799999999993E-08
DataValue, 0.04, 0.5, 4.8171999999999996E-08, 1.985E-12, -4.8053399999999995E-08, 4.8171999999999996E-08, 1.985E-12, 4.8053399999999995E-08
DataValue, 0.05, 0.5, 5.7152799999999991E-08, 1.925E-12, -5.7304799999999992E-08, 5.7152799999999991E-08, 1.925E-12, 5.7304799999999992E-08
DataValue, 0.060000000000000005, 0.5, 6.55964E-08, 1.615E-12, -6.5389199999999988E-08, 6.55964E-08, 1.615E-12, 6.5389199999999988E-08
DataValue, 0.07, 0.5, 7.28234E-08, 1.3050000000000002E-12, -7.28268E-08, 7.28234E-08, 1.3050000000000002E-12, 7.28268E-08
DataValue, 0.08, 0.5, 7.9244999999999993E-08, 1.395E-12, -7.89886E-08, 7.9244999999999993E-08, 1.395E-12, 7.89886E-08
DataValue, 0.090000000000000011, 0.5, 8.48566E-08, 1.575E-12, -8.5095199999999993E-08, 8.48566E-08, 1.575E-12, 8.5095199999999993E-08
DataValue, 0.1, 0.5, 8.96362E-08, 1.7750000000000002E-12, -8.9644999999999993E-08, 8.96362E-08, 1.7750000000000002E-12, 8.9644999999999993E-08
DataValue, 0.11, 0.5, 9.3803399999999991E-08, 1.5550000000000001E-12, -9.37844E-08, 9.3803399999999991E-08, 1.5550000000000001E-12, 9.37844E-08
DataValue, 0.12000000000000001, 0.5, 9.7747799999999985E-08, 1.485E-12, -9.7619E-08, 9.7747799999999985E-08, 1.485E-12, 9.7619E-08
DataValue, 0.13, 0.5, 1.0126679999999999E-07, 1.335E-12, -1.0097279999999999E-07, 1.0126679999999999E-07, 1.335E-12, 1.0097279999999999E-07
DataValue, 0.14, 0.5, 1.0370299999999999E-07, 1.665E-12, -1.0410859999999999E-07, 1.0370299999999999E-07, 1.665E-12, 1.0410859999999999E-07
DataValue, 0.15, 0.5, 1.063294E-07, 1.6350000000000002E-12, -1.0587779999999999E-07, 1.063294E-07, 1.6350000000000002E-12, 1.0587779999999999E-07
DataValue, 0.16, 0.5, 1.0787839999999999E-07, 1.6950000000000002E-12, -1.0788919999999999E-07, 1.0787839999999999E-07, 1.6950000000000002E-12, 1.0788919999999999E-07
DataValue, 0.17, 0.5, 1.0972219999999999E-07, 1.665E-12, -1.0963479999999999E-07, 1.0972219999999999E-07, 1.665E-12, 1.0963479999999999E-07
DataValue, 0.18000000000000002, 0.5, 1.1101899999999998E-07, 1.7250000000000002E-12, -1.1129059999999999E-07, 1.1101899999999998E-07, 1.7250000000000002E-12, 1.1129059999999999E-07
DataValue, 0.19, 0.5, 1.1225079999999999E-07, 1.4150000000000001E-12, -1.1219879999999999E-07, 1.1225079999999999E-07, 1.4150000000000001E-12, 1.1219879999999999E-07
DataValue, 0.2, 0.5, 1.1302099999999999E-07, 1.615E-12, -1.1271719999999999E-07, 1.1302099999999999E-07, 1.615E-12, 1.1271719999999999E-07
DataValue, 0.21000000000000002, 0.5, 1.1438E-07, 2.055E-12, -1.1410739999999999E-07, 1.1438E-07, 2.055E-12, 1.1410739999999999E-07
DataValue, 0.22, 0.5, 1.1528E-07, 1.7450000000000001E-12, -1.1502659999999999E-07, 1.1528E-07, 1.7450000000000001E-12, 1.1502659999999999E-07
DataValue, 0.23, 0.5, 1.1565999999999999E-07, 1.7750000000000002E-12, -1.1621399999999998E-07, 1.1565999999999999E-07, 1.7750000000000002E-12, 1.1621399999999998E-07
DataValue, 0.24000000000000002, 0.5, 1.165E-07, 1.615E-12, -1.1644919999999998E-07, 1.165E-07, 1.615E-12, 1.1644919999999998E-07
DataValue, 0.25, 0.5, 1.1644E-07, 1.675E-12, -1.166E-07, 1.1644E-07, 1.675E-12, 1.166E-07
DataValue, 0.26, 0.5, 1.1668E-07, 1.345E-12, -1.1696E-07, 1.1668E-07, 1.345E-12, 1.1696E-07
DataValue, 0.27, 0.5, 1.1711999999999999E-07, 1.575E-12, -1.1739999999999999E-07, 1.1711999999999999E-07, 1.575E-12, 1.1739999999999999E-07
DataValue, 0.28, 0.5, 1.175E-07, 1.575E-12, -1.172E-07, 1.175E-07, 1.575E-12, 1.172E-07
DataValue, 0.29000000000000004, 0.5, 1.1767999999999999E-07, 1.4050000000000002E-12, -1.1766E-07, 1.1767999999999999E-07, 1.4050000000000002E-12, 1.1766E-07
DataValue, 0.3, 0.5, 1.1786E-07, 1.435E-12, -1.1798E-07, 1.1786E-07, 1.435E-12, 1.1798E-07
DataValue, 0.31, 0.5, 1.183E-07, 1.475E-12, -1.1809999999999999E-07, 1.183E-07, 1.475E-12, 1.1809999999999999E-07
DataValue, 0.32, 0.5, 1.1893999999999999E-07, 9.65E-13, -1.1874E-07, 1.1893999999999999E-07, 9.65E-13, 1.1874E-07
DataValue, 0.33, 0.5, 1.1882E-07, 1.535E-12, -1.1879999999999999E-07, 1.1882E-07, 1.535E-12, 1.1879999999999999E-07
DataValue, 0.34, 0.5, 1.1836E-07, 1.345E-12, -1.1865999999999999E-07, 1.1836E-07, 1.345E-12, 1.1865999999999999E-07
DataValue, 0.35000000000000003, 0.5, 1.1837999999999999E-07, 1.7250000000000002E-12, -1.1818E-07, 1.1837999999999999E-07, 1.7250000000000002E-12, 1.1818E-07
DataValue, 0.36000000000000004, 0.5, 1.1848E-07, 1.7050000000000001E-12, -1.1872E-07, 1.1848E-07, 1.7050000000000001E-12, 1.1872E-07
DataValue, 0.37, 0.5, 1.1865999999999999E-07, 1.4650000000000001E-12, -1.1826E-07, 1.1865999999999999E-07, 1.4650000000000001E-12, 1.1826E-07
DataValue, 0.38, 0.5, 1.1876E-07, 1.5550000000000001E-12, -1.186E-07, 1.1876E-07, 1.5550000000000001E-12, 1.186E-07
DataValue, 0.39, 0.5, 1.1854E-07, 1.755E-12, -1.1844E-07, 1.1854E-07, 1.755E-12, 1.1844E-07
DataValue, 0.4, 0.5, 1.1893999999999999E-07, 1.195E-12, -1.1878E-07, 1.1893999999999999E-07, 1.195E-12, 1.1878E-07
DataValue, 0.41000000000000003, 0.5, 1.1865999999999999E-07, 1.5050000000000002E-12, -1.19E-07, 1.1865999999999999E-07, 1.5050000000000002E-12, 1.19E-07
DataValue, 0.42000000000000004, 0.5, 1.193E-07, 1.6350000000000002E-12, -1.1928E-07, 1.193E-07, 1.6350000000000002E-12, 1.1928E-07
DataValue, 0.43, 0.5, 1.1884E-07, 1.525E-12, -1.1872E-07, 1.1884E-07, 1.525E-12, 1.1872E-07
DataValue, 0.44, 0.5, 1.1876E-07, 1.1350000000000001E-12, -1.1892E-07, 1.1876E-07, 1.1350000000000001E-12, 1.1892E-07
DataValue, 0.45, 0.5, 1.1864E-07, 1.8650000000000002E-12, -1.19E-07, 1.1864E-07, 1.8650000000000002E-12, 1.19E-07
DataValue, 0.46, 0.5, 1.1886E-07, 1.6550000000000001E-12, -1.1856E-07, 1.1886E-07, 1.6550000000000001E-12, 1.1856E-07
DataValue, 0.47000000000000003, 0.5, 1.184E-07, 1.615E-12, -1.1886E-07, 1.184E-07, 1.615E-12, 1.1886E-07
DataValue, 0.48000000000000004, 0.5, 1.19E-07, 1.675E-12, -1.189E-07, 1.19E-07, 1.675E-12, 1.189E-07
DataValue, 0.49000000000000005, 0.5, 1.1945999999999999E-07, 1.4450000000000002E-12, -1.1958E-07, 1.1945999999999999E-07, 1.4450000000000002E-12, 1.1958E-07
DataValue, 0.5, 0.5, 1.1936E-07, 1.425E-12, -1.1936E-07, 1.1936E-07, 1.425E-12, 1.1936E-07
DataValue, 0.51, 0.5, 1.1926E-07, 1.4950000000000002E-12, -1.1934E-07, 1.1926E-07, 1.4950000000000002E-12, 1.1934E-07
DataValue, 0.52, 0.5, 1.1924E-07, 1.525E-12, -1.1907999999999999E-07, 1.1924E-07, 1.525E-12, 1.1907999999999999E-07
DataValue, 0.53, 0.5, 1.1902E-07, 1.615E-12, -1.1954E-07, 1.1902E-07, 1.615E-12, 1.1954E-07
DataValue, 0.54, 0.5, 1.193E-07, 1.4050000000000002E-12, -1.1904E-07, 1.193E-07, 1.4050000000000002E-12, 1.1904E-07
DataValue, 0.55, 0.5, 1.1934E-07, 1.6350000000000002E-12, -1.1972E-07, 1.1934E-07, 1.6350000000000002E-12, 1.1972E-07
DataValue, 0.56, 0.5, 1.1936E-07, 1.6950000000000002E-12, -1.1978E-07, 1.1936E-07, 1.6950000000000002E-12, 1.1978E-07
DataValue, 0.57000000000000006, 0.5, 1.1952E-07, 1.435E-12, -1.1916E-07, 1.1952E-07, 1.435E-12, 1.1916E-07
DataValue, 0.58000000000000007, 0.5, 1.191E-07, 1.805E-12, -1.1942E-07, 1.191E-07, 1.805E-12, 1.1942E-07
DataValue, 0.59000000000000008, 0.5, 1.1912E-07, 1.8650000000000002E-12, -1.1928E-07, 1.1912E-07, 1.8650000000000002E-12, 1.1928E-07
DataValue, 0.6, 0.5, 1.1922E-07, 1.395E-12, -1.1918E-07, 1.1922E-07, 1.395E-12, 1.1918E-07
DataValue, 0.61, 0.5, 1.19E-07, 1.7950000000000001E-12, -1.1912E-07, 1.19E-07, 1.7950000000000001E-12, 1.1912E-07
DataValue, 0.62, 0.5, 1.1912E-07, 1.4550000000000002E-12, -1.189E-07, 1.1912E-07, 1.4550000000000002E-12, 1.189E-07
DataValue, 0.63, 0.5, 1.1886E-07, 1.195E-12, -1.1865999999999999E-07, 1.1886E-07, 1.195E-12, 1.1865999999999999E-07
DataValue, 0.64, 0.5, 1.1854E-07, 1.975E-12, -1.1832E-07, 1.1854E-07, 1.975E-12, 1.1832E-07
DataValue, 0.65, 0.5, 1.1879999999999999E-07, 1.4650000000000001E-12, -1.185E-07, 1.1879999999999999E-07, 1.4650000000000001E-12, 1.185E-07
DataValue, 0.66, 0.5, 1.1851999999999999E-07, 1.6350000000000002E-12, -1.1804E-07, 1.1851999999999999E-07, 1.6350000000000002E-12, 1.1804E-07
DataValue, 0.67, 0.5, 1.1828E-07, 1.7750000000000002E-12, -1.1802E-07, 1.1828E-07, 1.7750000000000002E-12, 1.1802E-07
DataValue, 0.68, 0.5, 1.1828E-07, 1.675E-12, -1.1864E-07, 1.1828E-07, 1.675E-12, 1.1864E-07
DataValue, 0.69000000000000006, 0.5, 1.1884E-07, 1.475E-12, -1.1862E-07, 1.1884E-07, 1.475E-12, 1.1862E-07
DataValue, 0.70000000000000007, 0.5, 1.1808E-07, 1.7350000000000002E-12, -1.1848E-07, 1.1808E-07, 1.7350000000000002E-12, 1.1848E-07
DataValue, 0.71000000000000008, 0.5, 1.1798E-07, 1.625E-12, -1.1848E-07, 1.1798E-07, 1.625E-12, 1.1848E-07
DataValue, 0.72000000000000008, 0.5, 1.1826E-07, 1.535E-12, -1.1851999999999999E-07, 1.1826E-07, 1.535E-12, 1.1851999999999999E-07
DataValue, 0.73, 0.5, 1.1916E-07, 1.9650000000000002E-12, -1.1874E-07, 1.1916E-07, 1.9650000000000002E-12, 1.1874E-07
DataValue, 0.74, 0.5, 1.1816E-07, 1.5450000000000002E-12, -1.184E-07, 1.1816E-07, 1.5450000000000002E-12, 1.184E-07
DataValue, 0.75, 0.5, 1.1865999999999999E-07, 1.4650000000000001E-12, -1.1842E-07, 1.1865999999999999E-07, 1.4650000000000001E-12, 1.1842E-07
DataValue, 0.76, 0.5, 1.1893999999999999E-07, 1.975E-12, -1.1848E-07, 1.1893999999999999E-07, 1.975E-12, 1.1848E-07
DataValue, 0.77, 0.5, 1.1846E-07, 1.335E-12, -1.1834E-07, 1.1846E-07, 1.335E-12, 1.1834E-07
DataValue, 0.78, 0.5, 1.1854E-07, 1.4150000000000001E-12, -1.1794E-07, 1.1854E-07, 1.4150000000000001E-12, 1.1794E-07
DataValue, 0.79, 0.5, 1.1798E-07, 1.475E-12, -1.1836E-07, 1.1798E-07, 1.475E-12, 1.1836E-07
DataValue, 0.8, 0.5, 1.1806E-07, 1.5150000000000001E-12, -1.1832E-07, 1.1806E-07, 1.5150000000000001E-12, 1.1832E-07
DataValue, 0.81, 0.5, 1.1874E-07, 1.485E-12, -1.1865999999999999E-07, 1.1874E-07, 1.485E-12, 1.1865999999999999E-07
DataValue, 0.82000000000000006, 0.5, 1.1809999999999999E-07, 1.3650000000000001E-12, -1.1836E-07, 1.1809999999999999E-07, 1.3650000000000001E-12, 1.1836E-07
DataValue, 0.83000000000000007, 0.5, 1.1834E-07, 1.435E-12, -1.1806E-07, 1.1834E-07, 1.435E-12, 1.1806E-07
DataValue, 0.84000000000000008, 0.5, 1.1858E-07, 1.5550000000000001E-12, -1.1792E-07, 1.1858E-07, 1.5550000000000001E-12, 1.1792E-07
DataValue, 0.85000000000000009, 0.5, 1.1864E-07, 1.235E-12, -1.1818E-07, 1.1864E-07, 1.235E-12, 1.1818E-07
DataValue, 0.86, 0.5, 1.1812E-07, 1.4550000000000002E-12, -1.1896E-07, 1.1812E-07, 1.4550000000000002E-12, 1.1896E-07
DataValue, 0.87, 0.5, 1.1822E-07, 1.7450000000000001E-12, -1.1809999999999999E-07, 1.1822E-07, 1.7450000000000001E-12, 1.1809999999999999E-07
DataValue, 0.88, 0.5, 1.1834E-07, 1.285E-12, -1.1809999999999999E-07, 1.1834E-07, 1.285E-12, 1.1809999999999999E-07
DataValue, 0.89, 0.5, 1.1874E-07, 1.5550000000000001E-12, -1.1788E-07, 1.1874E-07, 1.5550000000000001E-12, 1.1788E-07
DataValue, 0.9, 0.5, 1.1802E-07, 1.6950000000000002E-12, -1.1795999999999999E-07, 1.1802E-07, 1.6950000000000002E-12, 1.1795999999999999E-07
DataValue, 0.91, 0.5, 1.1828E-07, 1.345E-12, -1.1865999999999999E-07, 1.1828E-07, 1.345E-12, 1.1865999999999999E-07
DataValue, 0.92, 0.5, 1.1834E-07, 1.375E-12, -1.1826E-07, 1.1834E-07, 1.375E-12, 1.1826E-07
DataValue, 0.93, 0.5, 1.1848E-07, 1.4550000000000002E-12, -1.1823999999999999E-07, 1.1848E-07, 1.4550000000000002E-12, 1.1823999999999999E-07
DataValue, 0.94000000000000006, 0.5, 1.1822E-07, 1.5550000000000001E-12, -1.1794E-07, 1.1822E-07, 1.5550000000000001E-12, 1.1794E-07
DataValue, 0.95000000000000007, 0.5, 1.1822E-07, 1.815E-12, -1.1784E-07, 1.1822E-07, 1.815E-12, 1.1784E-07
DataValue, 0.96000000000000008, 0.5, 1.1792E-07, 1.625E-12, -1.1748E-07, 1.1792E-07, 1.625E-12, 1.1748E-07
DataValue, 0.97000000000000008, 0.5, 1.1736E-07, 1.5050000000000002E-12, -1.1788E-07, 1.1736E-07, 1.5050000000000002E-12, 1.1788E-07
DataValue, 0.98000000000000009, 0.5, 1.182E-07, 1.7850000000000002E-12, -1.18E-07, 1.182E-07, 1.7850000000000002E-12, 1.18E-07
DataValue, 0.9900000000000001, 0.5, 1.1826E-07, 1.7050000000000001E-12, -1.19E-07, 1.1826E-07, 1.7050000000000001E-12, 1.19E-07
DataValue, 1, 0.5, 1.1884E-07, 1.675E-12, -1.1872E-07, 1.1884E-07, 1.675E-12, 1.1872E-07
DataValue, 1, 0.5, 1.1865999999999999E-07, 1.6950000000000002E-12, -1.1892E-07, 1.1865999999999999E-07, 1.6950000000000002E-12, 1.1892E-07
DataValue, 0.9900000000000001, 0.5, 1.193E-07, 1.375E-12, -1.1898E-07, 1.193E-07, 1.375E-12, 1.1898E-07
DataValue, 0.98000000000000009, 0.5, 1.192E-07, 1.675E-12, -1.186E-07, 1.192E-07, 1.675E-12, 1.186E-07
DataValue, 0.97000000000000008, 0.5, 1.1772E-07, 1.675E-12, -1.1834E-07, 1.1772E-07, 1.675E-12, 1.1834E-07
DataValue, 0.96000000000000008, 0.5, 1.1874E-07, 1.3250000000000001E-12, -1.186E-07, 1.1874E-07, 1.3250000000000001E-12, 1.186E-07
