
SetupTitle, IdVd_Vg_par
PrimitiveTest, I/V Sweep
TestParameter, Context.MainFrame, B1500A
TestParameter, Channel.UnitType, SMU, SMU, SMU
TestParameter, Channel.Unit, SMU3:HR, SMU2:HR, SMU1:HR
TestParameter, Channel.IName, Id, Ig, Is
TestParameter, Channel.VName, Vd, Vg, Vs
TestParameter, Channel.Mode, V, V, V
TestParameter, Channel.Func, VAR1, VAR2, CONST
TestParameter, Channel.Index, 
TestParameter, Channel.Time, 
TestParameter, Measurement.Port.Unit, SMU3:HR, SMU2:HR, SMU1:HR
TestParameter, Measurement.Port.SeriesResistor, NONE, NONE, NONE
TestParameter, Measurement.Port.Filter, ON, ON, ON
TestParameter, Measurement.Port.OutputVoltageComparison, 0, 0, 0
TestParameter, Measurement.Primary.Locus, Double
TestParameter, Measurement.Primary.Scale, LINEAR
TestParameter, Measurement.Primary.Start, 0
TestParameter, Measurement.Primary.Stop, 1
TestParameter, Measurement.Primary.Step, 0.01
TestParameter, Measurement.Primary.Compliance, 0.01
TestParameter, Measurement.Primary.PowerCompliance, 0
TestParameter, Measurement.Aborting.Condition, CONTINUE AT ANY
TestParameter, Measurement.PostOutput.Value, START
TestParameter, Measurement.PostOutput.Retention, OFF
TestParameter, Measurement.Secondary.Start, 0.5
TestParameter, Measurement.Secondary.Count, 7
TestParameter, Measurement.Secondary.Step, 0.25
TestParameter, Measurement.Secondary.Compliance, 0.01
TestParameter, Measurement.Secondary.PowerCompliance, 0
TestParameter, Measurement.Bias.Source, 0, 0.5, 0
TestParameter, Measurement.Bias.Compliance, 0.01, 0.01, 0.01
TestParameter, Measurement.Monitor.Unit, SMU3:HR, SMU2:HR, SMU1:HR
TestParameter, Measurement.Monitor.Adc, HR ADC, HR ADC, HR ADC
TestParameter, Measurement.Monitor.Measurement, Compliance Side, Compliance Side, Compliance Side
TestParameter, Measurement.Monitor.RangingMode, LIMITED, LIMITED, LIMITED
TestParameter, Measurement.Monitor.RangeBoundary, 1nA, 1nA, 1nA
TestParameter, Measurement.Monitor.RangeRating, BY FULL RANGE, BY FULL RANGE, BY FULL RANGE
TestParameter, Measurement.Monitor.RangeRatingCoeff, 50, 50, 50
TestParameter, Measurement.Timing.Hold, 0
TestParameter, Measurement.Timing.Delay, 0
TestParameter, Measurement.Adc.HighSpeed.Mode, AUTO
TestParameter, Measurement.Adc.HighSpeed.Coeff, 1
TestParameter, Measurement.Adc.HighResolution.AutoZero, OFF
TestParameter, Measurement.Adc.HighResolution.Mode, AUTO
TestParameter, Measurement.Adc.HighResolution.Coeff, 6
TestParameter, Measurement.WaitTime.Source.Coeff, 1
TestParameter, Measurement.WaitTime.Source.Offset, 0
TestParameter, Measurement.WaitTime.Monitor.Coeff, 1
TestParameter, Measurement.WaitTime.Monitor.Offset, 0
TestParameter, Function.User.Name, absId, absIg, absIs
TestParameter, Function.User.Unit, A, A, A
TestParameter, Function.User.Definition, abs(Id), abs(Ig), abs(Is)
TestParameter, Output.Graph.Enabled, true
TestParameter, Output.Graph.AutoScaling, false
TestParameter, Output.Graph.XAxis.Data, Vd
TestParameter, Output.Graph.XAxis.Scale, Linear
TestParameter, Output.Graph.XAxis.Left, 0
TestParameter, Output.Graph.XAxis.Right, 2
TestParameter, Output.Graph.XAxis.RunTimeAutoScale, false
TestParameter, Output.Graph.YAxis.Data, absId, absIs
TestParameter, Output.Graph.YAxis.Scale, Linear, Linear
TestParameter, Output.Graph.YAxis.Bottom, 1E-15, 1E-15
TestParameter, Output.Graph.YAxis.Top, 0.001, 0.001
TestParameter, Output.Graph.YAxis.Group, , 
TestParameter, Output.Graph.YAxis.RunTimeAutoScale, true, true
TestParameter, Output.List.Data, Vg, Vd, Id, Is, Ig, absId, absIs, absIg
TestParameter, AutoAnalysis.Interpolation, false
TestParameter, AutoAnalysis.Var2StepCount, 1
TestParameter, AutoAnalysis.Var2StepScript, 
TestParameter, AutoAnalysis.Line1.Enabled, false
TestParameter, AutoAnalysis.Line1.Type, 1
TestParameter, AutoAnalysis.Line1.Fix, True
TestParameter, AutoAnalysis.Line1.YAxis, 0
TestParameter, AutoAnalysis.Line1.Point1.Type, 0
TestParameter, AutoAnalysis.Line1.Point1.XY.X, 
TestParameter, AutoAnalysis.Line1.Point1.XY.Y, 
TestParameter, AutoAnalysis.Line1.Point1.Data.Var, 
TestParameter, AutoAnalysis.Line1.Point1.Data.Condition, 
TestParameter, AutoAnalysis.Line1.Point1.Data.Start, false
TestParameter, AutoAnalysis.Line1.Point1.Data.StartVar, 
TestParameter, AutoAnalysis.Line1.Point1.Data.StartCondition, 
TestParameter, AutoAnalysis.Line1.Point2.Type, 0
TestParameter, AutoAnalysis.Line1.Point2.XY.X, 
TestParameter, AutoAnalysis.Line1.Point2.XY.Y, 
TestParameter, AutoAnalysis.Line1.Point2.Data.Var, 
TestParameter, AutoAnalysis.Line1.Point2.Data.Condition, 
TestParameter, AutoAnalysis.Line1.Point2.Data.Start, false
TestParameter, AutoAnalysis.Line1.Point2.Data.StartVar, 
TestParameter, AutoAnalysis.Line1.Point2.Data.StartCondition, 
TestParameter, AutoAnalysis.Line1.GradientExpr, 0
TestParameter, AutoAnalysis.Line2.Enabled, false
TestParameter, AutoAnalysis.Line2.Type, 1
TestParameter, AutoAnalysis.Line2.Fix, True
TestParameter, AutoAnalysis.Line2.YAxis, 0
TestParameter, AutoAnalysis.Line2.Point1.Type, 0
TestParameter, AutoAnalysis.Line2.Point1.XY.X, 
TestParameter, AutoAnalysis.Line2.Point1.XY.Y, 
TestParameter, AutoAnalysis.Line2.Point1.Data.Var, 
TestParameter, AutoAnalysis.Line2.Point1.Data.Condition, 
TestParameter, AutoAnalysis.Line2.Point1.Data.Start, false
TestParameter, AutoAnalysis.Line2.Point1.Data.StartVar, 
TestParameter, AutoAnalysis.Line2.Point1.Data.StartCondition, 
TestParameter, AutoAnalysis.Line2.Point2.Type, 0
TestParameter, AutoAnalysis.Line2.Point2.XY.X, 
TestParameter, AutoAnalysis.Line2.Point2.XY.Y, 
TestParameter, AutoAnalysis.Line2.Point2.Data.Var, 
TestParameter, AutoAnalysis.Line2.Point2.Data.Condition, 
TestParameter, AutoAnalysis.Line2.Point2.Data.Start, false
TestParameter, AutoAnalysis.Line2.Point2.Data.StartVar, 
TestParameter, AutoAnalysis.Line2.Point2.Data.StartCondition, 
TestParameter, AutoAnalysis.Line2.GradientExpr, 0
TestParameter, AutoAnalysis.Marker.Enabled, false
TestParameter, AutoAnalysis.Marker.Data.Var, 
TestParameter, AutoAnalysis.Marker.Data.Condition, 
TestParameter, AutoAnalysis.Marker.Data.Start, false
TestParameter, AutoAnalysis.Marker.Data.StartVar, 
TestParameter, AutoAnalysis.Marker.Data.StartCondition, 
MetaData, TestRecord.EntryPoint, true
MetaData, TestRecord.RecordTime, 06/03/2025 16:21:11
MetaData, TestRecord.TestTarget, R[4]_D[5]_L[100]
MetaData, TestRecord.IterationIndex, 1
MetaData, TestRecord.Preservation, true
MetaData, TestRecord.Flag, !
MetaData, TestRecord.Remarks, 
MetaData, TestRecord.LinkKey, fca55c47-a872-4905-b6b1-55e26cfe6109
MetaData, TestRecord.Parameters, 
Dimension1, 202, 202, 202, 202, 202, 202, 202, 202
Dimension2, 7, 7, 7, 7, 7, 7, 7, 7
DataName, Vd, Vg, Id, Ig, Is, absId, absIg, absIs
DataValue, 0, 0.5, 9.5027E-10, 2.235E-12, -2.9892600000000004E-10, 9.5027E-10, 2.235E-12, 2.9892600000000004E-10
DataValue, 0.01, 0.5, 2.1206E-07, 1.615E-12, -2.1338E-07, 2.1206E-07, 1.615E-12, 2.1338E-07
DataValue, 0.02, 0.5, 4.1618E-07, 1.4450000000000002E-12, -4.1543999999999997E-07, 4.1618E-07, 1.4450000000000002E-12, 4.1543999999999997E-07
DataValue, 0.030000000000000002, 0.5, 6.0564E-07, 1.6050000000000001E-12, -6.036E-07, 6.0564E-07, 1.6050000000000001E-12, 6.036E-07
DataValue, 0.04, 0.5, 7.8682E-07, 1.8450000000000003E-12, -7.8828E-07, 7.8682E-07, 1.8450000000000003E-12, 7.8828E-07
DataValue, 0.05, 0.5, 9.6282E-07, 1.8650000000000002E-12, -9.602E-07, 9.6282E-07, 1.8650000000000002E-12, 9.602E-07
DataValue, 0.060000000000000005, 0.5, 1.1252E-06, 1.5950000000000002E-12, -1.1301E-06, 1.1252E-06, 1.5950000000000002E-12, 1.1301E-06
DataValue, 0.07, 0.5, 1.2801E-06, 1.7850000000000002E-12, -1.2788000000000002E-06, 1.2801E-06, 1.7850000000000002E-12, 1.2788000000000002E-06
DataValue, 0.08, 0.5, 1.419E-06, 1.5150000000000001E-12, -1.4139000000000001E-06, 1.419E-06, 1.5150000000000001E-12, 1.4139000000000001E-06
DataValue, 0.090000000000000011, 0.5, 1.5667000000000002E-06, 1.9650000000000002E-12, -1.568E-06, 1.5667000000000002E-06, 1.9650000000000002E-12, 1.568E-06
DataValue, 0.1, 0.5, 1.6973000000000003E-06, 1.525E-12, -1.6857000000000002E-06, 1.6973000000000003E-06, 1.525E-12, 1.6857000000000002E-06
DataValue, 0.11, 0.5, 1.8182000000000002E-06, 1.395E-12, -1.8249E-06, 1.8182000000000002E-06, 1.395E-12, 1.8249E-06
DataValue, 0.12000000000000001, 0.5, 1.9488000000000003E-06, 1.5550000000000001E-12, -1.9495E-06, 1.9488000000000003E-06, 1.5550000000000001E-12, 1.9495E-06
DataValue, 0.13, 0.5, 2.0651000000000004E-06, 2.015E-12, -2.0527000000000003E-06, 2.0651000000000004E-06, 2.015E-12, 2.0527000000000003E-06
DataValue, 0.14, 0.5, 2.1420000000000004E-06, 1.6350000000000002E-12, -2.1524000000000003E-06, 2.1420000000000004E-06, 1.6350000000000002E-12, 2.1524000000000003E-06
DataValue, 0.15, 0.5, 2.2677000000000003E-06, 1.5850000000000002E-12, -2.2502E-06, 2.2677000000000003E-06, 1.5850000000000002E-12, 2.2502E-06
DataValue, 0.16, 0.5, 2.3476E-06, 1.7750000000000002E-12, -2.3515000000000003E-06, 2.3476E-06, 1.7750000000000002E-12, 2.3515000000000003E-06
DataValue, 0.17, 0.5, 2.4339E-06, 1.8950000000000003E-12, -2.4325000000000004E-06, 2.4339E-06, 1.8950000000000003E-12, 2.4325000000000004E-06
DataValue, 0.18000000000000002, 0.5, 2.5041000000000003E-06, 1.6050000000000001E-12, -2.5121E-06, 2.5041000000000003E-06, 1.6050000000000001E-12, 2.5121E-06
DataValue, 0.19, 0.5, 2.5899000000000004E-06, 1.6850000000000002E-12, -2.5792000000000002E-06, 2.5899000000000004E-06, 1.6850000000000002E-12, 2.5792000000000002E-06
DataValue, 0.2, 0.5, 2.6619000000000003E-06, 1.6850000000000002E-12, -2.6612000000000005E-06, 2.6619000000000003E-06, 1.6850000000000002E-12, 2.6612000000000005E-06
DataValue, 0.21000000000000002, 0.5, 2.7272000000000003E-06, 1.715E-12, -2.7262000000000003E-06, 2.7272000000000003E-06, 1.715E-12, 2.7262000000000003E-06
DataValue, 0.22, 0.5, 2.7910000000000005E-06, 1.485E-12, -2.7950000000000003E-06, 2.7910000000000005E-06, 1.485E-12, 2.7950000000000003E-06
DataValue, 0.23, 0.5, 2.8726000000000002E-06, 1.8950000000000003E-12, -2.8780000000000002E-06, 2.8726000000000002E-06, 1.8950000000000003E-12, 2.8780000000000002E-06
DataValue, 0.24000000000000002, 0.5, 2.9316000000000004E-06, 1.665E-12, -2.9401000000000004E-06, 2.9316000000000004E-06, 1.665E-12, 2.9401000000000004E-06
DataValue, 0.25, 0.5, 2.9702000000000004E-06, 1.815E-12, -3.0037E-06, 2.9702000000000004E-06, 1.815E-12, 3.0037E-06
DataValue, 0.26, 0.5, 3.0392000000000005E-06, 1.825E-12, -3.0518E-06, 3.0392000000000005E-06, 1.825E-12, 3.0518E-06
DataValue, 0.27, 0.5, 3.1089000000000004E-06, 1.955E-12, -3.1293000000000003E-06, 3.1089000000000004E-06, 1.955E-12, 3.1293000000000003E-06
DataValue, 0.28, 0.5, 3.1723000000000005E-06, 1.5950000000000002E-12, -3.1523000000000003E-06, 3.1723000000000005E-06, 1.5950000000000002E-12, 3.1523000000000003E-06
DataValue, 0.29000000000000004, 0.5, 3.2137000000000002E-06, 1.755E-12, -3.2070000000000004E-06, 3.2137000000000002E-06, 1.755E-12, 3.2070000000000004E-06
DataValue, 0.3, 0.5, 3.2530000000000004E-06, 1.805E-12, -3.2411E-06, 3.2530000000000004E-06, 1.805E-12, 3.2411E-06
DataValue, 0.31, 0.5, 3.2779000000000004E-06, 1.7850000000000002E-12, -3.2908000000000003E-06, 3.2779000000000004E-06, 1.7850000000000002E-12, 3.2908000000000003E-06
DataValue, 0.32, 0.5, 3.3572000000000002E-06, 1.7750000000000002E-12, -3.3335000000000004E-06, 3.3572000000000002E-06, 1.7750000000000002E-12, 3.3335000000000004E-06
DataValue, 0.33, 0.5, 3.3487000000000002E-06, 1.675E-12, -3.3607000000000003E-06, 3.3487000000000002E-06, 1.675E-12, 3.3607000000000003E-06
DataValue, 0.34, 0.5, 3.3919000000000005E-06, 1.955E-12, -3.4088000000000003E-06, 3.3919000000000005E-06, 1.955E-12, 3.4088000000000003E-06
DataValue, 0.35000000000000003, 0.5, 3.4306000000000002E-06, 1.8950000000000003E-12, -3.4377E-06, 3.4306000000000002E-06, 1.8950000000000003E-12, 3.4377E-06
DataValue, 0.36000000000000004, 0.5, 3.4588000000000002E-06, 1.7850000000000002E-12, -3.4465000000000004E-06, 3.4588000000000002E-06, 1.7850000000000002E-12, 3.4465000000000004E-06
DataValue, 0.37, 0.5, 3.4937000000000005E-06, 1.675E-12, -3.4869000000000004E-06, 3.4937000000000005E-06, 1.675E-12, 3.4869000000000004E-06
DataValue, 0.38, 0.5, 3.5064000000000004E-06, 1.6050000000000001E-12, -3.5071000000000003E-06, 3.5064000000000004E-06, 1.6050000000000001E-12, 3.5071000000000003E-06
DataValue, 0.39, 0.5, 3.5339E-06, 2.0750000000000003E-12, -3.5359000000000003E-06, 3.5339E-06, 2.0750000000000003E-12, 3.5359000000000003E-06
DataValue, 0.4, 0.5, 3.5827000000000004E-06, 1.535E-12, -3.5984000000000006E-06, 3.5827000000000004E-06, 1.535E-12, 3.5984000000000006E-06
DataValue, 0.41000000000000003, 0.5, 3.6266000000000006E-06, 1.5950000000000002E-12, -3.6277000000000004E-06, 3.6266000000000006E-06, 1.5950000000000002E-12, 3.6277000000000004E-06
DataValue, 0.42000000000000004, 0.5, 3.6519000000000006E-06, 1.985E-12, -3.6280000000000002E-06, 3.6519000000000006E-06, 1.985E-12, 3.6280000000000002E-06
DataValue, 0.43, 0.5, 3.6538000000000005E-06, 1.6950000000000002E-12, -3.6407000000000006E-06, 3.6538000000000005E-06, 1.6950000000000002E-12, 3.6407000000000006E-06
DataValue, 0.44, 0.5, 3.6543000000000003E-06, 1.625E-12, -3.6325000000000004E-06, 3.6543000000000003E-06, 1.625E-12, 3.6325000000000004E-06
DataValue, 0.45, 0.5, 3.6855000000000005E-06, 1.485E-12, -3.678E-06, 3.6855000000000005E-06, 1.485E-12, 3.678E-06
DataValue, 0.46, 0.5, 3.6800000000000003E-06, 1.7950000000000001E-12, -3.6819000000000003E-06, 3.6800000000000003E-06, 1.7950000000000001E-12, 3.6819000000000003E-06
DataValue, 0.47000000000000003, 0.5, 3.7376000000000004E-06, 1.625E-12, -3.7327000000000003E-06, 3.7376000000000004E-06, 1.625E-12, 3.7327000000000003E-06
DataValue, 0.48000000000000004, 0.5, 3.7313E-06, 1.7750000000000002E-12, -3.7139000000000006E-06, 3.7313E-06, 1.7750000000000002E-12, 3.7139000000000006E-06
DataValue, 0.49000000000000005, 0.5, 3.7641000000000005E-06, 1.5550000000000001E-12, -3.7681000000000004E-06, 3.7641000000000005E-06, 1.5550000000000001E-12, 3.7681000000000004E-06
DataValue, 0.5, 0.5, 3.8092000000000003E-06, 1.835E-12, -3.8233E-06, 3.8092000000000003E-06, 1.835E-12, 3.8233E-06
DataValue, 0.51, 0.5, 3.8425E-06, 1.9950000000000003E-12, -3.8234000000000005E-06, 3.8425E-06, 1.9950000000000003E-12, 3.8234000000000005E-06
DataValue, 0.52, 0.5, 3.8652000000000007E-06, 1.9450000000000003E-12, -3.8488E-06, 3.8652000000000007E-06, 1.9450000000000003E-12, 3.8488E-06
DataValue, 0.53, 0.5, 3.8634E-06, 1.9450000000000003E-12, -3.8495E-06, 3.8634E-06, 1.9450000000000003E-12, 3.8495E-06
DataValue, 0.54, 0.5, 3.8956000000000004E-06, 1.875E-12, -3.8664000000000008E-06, 3.8956000000000004E-06, 1.875E-12, 3.8664000000000008E-06
DataValue, 0.55, 0.5, 3.8952E-06, 2.115E-12, -3.8931E-06, 3.8952E-06, 2.115E-12, 3.8931E-06
DataValue, 0.56, 0.5, 3.9261E-06, 1.575E-12, -3.9186E-06, 3.9261E-06, 1.575E-12, 3.9186E-06
DataValue, 0.57000000000000006, 0.5, 3.9150000000000006E-06, 1.8450000000000003E-12, -3.9495E-06, 3.9150000000000006E-06, 1.8450000000000003E-12, 3.9495E-06
DataValue, 0.58000000000000007, 0.5, 3.979E-06, 1.5450000000000002E-12, -3.9667000000000005E-06, 3.979E-06, 1.5450000000000002E-12, 3.9667000000000005E-06
DataValue, 0.59000000000000008, 0.5, 3.9883E-06, 1.4650000000000001E-12, -3.9862E-06, 3.9883E-06, 1.4650000000000001E-12, 3.9862E-06
DataValue, 0.6, 0.5, 4.0073000000000006E-06, 1.7750000000000002E-12, -3.9961000000000006E-06, 4.0073000000000006E-06, 1.7750000000000002E-12, 3.9961000000000006E-06
DataValue, 0.61, 0.5, 4.0043000000000008E-06, 1.875E-12, -3.9983E-06, 4.0043000000000008E-06, 1.875E-12, 3.9983E-06
DataValue, 0.62, 0.5, 4.0012000000000008E-06, 1.475E-12, -4.023E-06, 4.0012000000000008E-06, 1.475E-12, 4.023E-06
DataValue, 0.63, 0.5, 4.045E-06, 1.835E-12, -4.0288E-06, 4.045E-06, 1.835E-12, 4.0288E-06
DataValue, 0.64, 0.5, 4.0415E-06, 1.935E-12, -4.0941E-06, 4.0415E-06, 1.935E-12, 4.0941E-06
DataValue, 0.65, 0.5, 4.0627E-06, 1.6550000000000001E-12, -4.0947000000000008E-06, 4.0627E-06, 1.6550000000000001E-12, 4.0947000000000008E-06
DataValue, 0.66, 0.5, 4.0815000000000006E-06, 1.835E-12, -4.0801E-06, 4.0815000000000006E-06, 1.835E-12, 4.0801E-06
DataValue, 0.67, 0.5, 4.0972E-06, 1.855E-12, -4.1215E-06, 4.0972E-06, 1.855E-12, 4.1215E-06
DataValue, 0.68, 0.5, 4.1115E-06, 1.755E-12, -4.0962000000000007E-06, 4.1115E-06, 1.755E-12, 4.0962000000000007E-06
DataValue, 0.69000000000000006, 0.5, 4.1387000000000007E-06, 1.5150000000000001E-12, -4.1015000000000005E-06, 4.1387000000000007E-06, 1.5150000000000001E-12, 4.1015000000000005E-06
DataValue, 0.70000000000000007, 0.5, 4.1328000000000005E-06, 1.5050000000000002E-12, -4.1607000000000007E-06, 4.1328000000000005E-06, 1.5050000000000002E-12, 4.1607000000000007E-06
DataValue, 0.71000000000000008, 0.5, 4.1466E-06, 2.335E-12, -4.1648E-06, 4.1466E-06, 2.335E-12, 4.1648E-06
DataValue, 0.72000000000000008, 0.5, 4.1997000000000006E-06, 1.6050000000000001E-12, -4.1705E-06, 4.1997000000000006E-06, 1.6050000000000001E-12, 4.1705E-06
DataValue, 0.73, 0.5, 4.1836E-06, 1.7950000000000001E-12, -4.1562E-06, 4.1836E-06, 1.7950000000000001E-12, 4.1562E-06
DataValue, 0.74, 0.5, 4.1971E-06, 1.6450000000000002E-12, -4.2113000000000007E-06, 4.1971E-06, 1.6450000000000002E-12, 4.2113000000000007E-06
DataValue, 0.75, 0.5, 4.2193E-06, 1.9150000000000002E-12, -4.2341000000000007E-06, 4.2193E-06, 1.9150000000000002E-12, 4.2341000000000007E-06
DataValue, 0.76, 0.5, 4.2274E-06, 1.9150000000000002E-12, -4.2255000000000005E-06, 4.2274E-06, 1.9150000000000002E-12, 4.2255000000000005E-06
DataValue, 0.77, 0.5, 4.2336000000000004E-06, 1.675E-12, -4.2311E-06, 4.2336000000000004E-06, 1.675E-12, 4.2311E-06
DataValue, 0.78, 0.5, 4.2694E-06, 1.675E-12, -4.2611000000000006E-06, 4.2694E-06, 1.675E-12, 4.2611000000000006E-06
DataValue, 0.79, 0.5, 4.2542000000000007E-06, 1.6950000000000002E-12, -4.2849E-06, 4.2542000000000007E-06, 1.6950000000000002E-12, 4.2849E-06
DataValue, 0.8, 0.5, 4.2592000000000007E-06, 1.535E-12, -4.2451E-06, 4.2592000000000007E-06, 1.535E-12, 4.2451E-06
DataValue, 0.81, 0.5, 4.2628E-06, 1.755E-12, -4.2876E-06, 4.2628E-06, 1.755E-12, 4.2876E-06
DataValue, 0.82000000000000006, 0.5, 4.2892E-06, 1.7750000000000002E-12, -4.2828000000000007E-06, 4.2892E-06, 1.7750000000000002E-12, 4.2828000000000007E-06
DataValue, 0.83000000000000007, 0.5, 4.2661000000000005E-06, 1.485E-12, -4.2835000000000006E-06, 4.2661000000000005E-06, 1.485E-12, 4.2835000000000006E-06
DataValue, 0.84000000000000008, 0.5, 4.3119E-06, 1.6450000000000002E-12, -4.2801000000000007E-06, 4.3119E-06, 1.6450000000000002E-12, 4.2801000000000007E-06
DataValue, 0.85000000000000009, 0.5, 4.2888E-06, 1.9950000000000003E-12, -4.2957E-06, 4.2888E-06, 1.9950000000000003E-12, 4.2957E-06
DataValue, 0.86, 0.5, 4.3101000000000005E-06, 2.035E-12, -4.2912000000000005E-06, 4.3101000000000005E-06, 2.035E-12, 4.2912000000000005E-06
DataValue, 0.87, 0.5, 4.2825E-06, 1.525E-12, -4.3251E-06, 4.2825E-06, 1.525E-12, 4.3251E-06
DataValue, 0.88, 0.5, 4.3394E-06, 1.625E-12, -4.3284000000000008E-06, 4.3394E-06, 1.625E-12, 4.3284000000000008E-06
DataValue, 0.89, 0.5, 4.3418000000000005E-06, 2.015E-12, -4.3716000000000006E-06, 4.3418000000000005E-06, 2.015E-12, 4.3716000000000006E-06
DataValue, 0.9, 0.5, 4.3317E-06, 1.9950000000000003E-12, -4.3512000000000008E-06, 4.3317E-06, 1.9950000000000003E-12, 4.3512000000000008E-06
DataValue, 0.91, 0.5, 4.3650000000000006E-06, 1.6550000000000001E-12, -4.3397E-06, 4.3650000000000006E-06, 1.6550000000000001E-12, 4.3397E-06
DataValue, 0.92, 0.5, 4.3676E-06, 1.7250000000000002E-12, -4.3658000000000006E-06, 4.3676E-06, 1.7250000000000002E-12, 4.3658000000000006E-06
DataValue, 0.93, 0.5, 4.3737E-06, 2.0250000000000004E-12, -4.3681000000000006E-06, 4.3737E-06, 2.0250000000000004E-12, 4.3681000000000006E-06
