
SetupTitle, IdVd_Vg_par
PrimitiveTest, I/V Sweep
TestParameter, Context.MainFrame, B1500A
TestParameter, Channel.UnitType, SMU, SMU, SMU
TestParameter, Channel.Unit, SMU3:HR, SMU2:HR, SMU1:HR
TestParameter, Channel.IName, Id, Ig, Is
TestParameter, Channel.VName, Vd, Vg, Vs
TestParameter, Channel.Mode, V, V, V
TestParameter, Channel.Func, VAR1, VAR2, CONST
TestParameter, Channel.Index, 
TestParameter, Channel.Time, 
TestParameter, Measurement.Port.Unit, SMU3:HR, SMU2:HR, SMU1:HR
TestParameter, Measurement.Port.SeriesResistor, NONE, NONE, NONE
TestParameter, Measurement.Port.Filter, ON, ON, ON
TestParameter, Measurement.Port.OutputVoltageComparison, 0, 0, 0
TestParameter, Measurement.Primary.Locus, Double
TestParameter, Measurement.Primary.Scale, LINEAR
TestParameter, Measurement.Primary.Start, 0
TestParameter, Measurement.Primary.Stop, 1
TestParameter, Measurement.Primary.Step, 0.01
TestParameter, Measurement.Primary.Compliance, 0.01
TestParameter, Measurement.Primary.PowerCompliance, 0
TestParameter, Measurement.Aborting.Condition, CONTINUE AT ANY
TestParameter, Measurement.PostOutput.Value, START
TestParameter, Measurement.PostOutput.Retention, OFF
TestParameter, Measurement.Secondary.Start, 0
TestParameter, Measurement.Secondary.Count, 5
TestParameter, Measurement.Secondary.Step, 0.5
TestParameter, Measurement.Secondary.Compliance, 0.01
TestParameter, Measurement.Secondary.PowerCompliance, 0
TestParameter, Measurement.Bias.Source, 0, 0, 0
TestParameter, Measurement.Bias.Compliance, 0.01, 0.01, 0.01
TestParameter, Measurement.Monitor.Unit, SMU3:HR, SMU2:HR, SMU1:HR
TestParameter, Measurement.Monitor.Adc, HR ADC, HR ADC, HR ADC
TestParameter, Measurement.Monitor.Measurement, Compliance Side, Compliance Side, Compliance Side
TestParameter, Measurement.Monitor.RangingMode, LIMITED, LIMITED, LIMITED
TestParameter, Measurement.Monitor.RangeBoundary, 1nA, 1nA, 1nA
TestParameter, Measurement.Monitor.RangeRating, BY FULL RANGE, BY FULL RANGE, BY FULL RANGE
TestParameter, Measurement.Monitor.RangeRatingCoeff, 50, 50, 50
TestParameter, Measurement.Timing.Hold, 0
TestParameter, Measurement.Timing.Delay, 0
TestParameter, Measurement.Adc.HighSpeed.Mode, AUTO
TestParameter, Measurement.Adc.HighSpeed.Coeff, 1
TestParameter, Measurement.Adc.HighResolution.AutoZero, OFF
TestParameter, Measurement.Adc.HighResolution.Mode, AUTO
TestParameter, Measurement.Adc.HighResolution.Coeff, 6
TestParameter, Measurement.WaitTime.Source.Coeff, 1
TestParameter, Measurement.WaitTime.Source.Offset, 0
TestParameter, Measurement.WaitTime.Monitor.Coeff, 1
TestParameter, Measurement.WaitTime.Monitor.Offset, 0
TestParameter, Function.User.Name, absId, absIg, absIs
TestParameter, Function.User.Unit, A, A, A
TestParameter, Function.User.Definition, abs(Id), abs(Ig), abs(Is)
TestParameter, Output.Graph.Enabled, true
TestParameter, Output.Graph.AutoScaling, false
TestParameter, Output.Graph.XAxis.Data, Vd
TestParameter, Output.Graph.XAxis.Scale, Linear
TestParameter, Output.Graph.XAxis.Left, 0
TestParameter, Output.Graph.XAxis.Right, 2
TestParameter, Output.Graph.XAxis.RunTimeAutoScale, false
TestParameter, Output.Graph.YAxis.Data, absId, absIs
TestParameter, Output.Graph.YAxis.Scale, Linear, Linear
TestParameter, Output.Graph.YAxis.Bottom, 1E-15, 1E-15
TestParameter, Output.Graph.YAxis.Top, 0.001, 0.001
TestParameter, Output.Graph.YAxis.Group, , 
TestParameter, Output.Graph.YAxis.RunTimeAutoScale, true, true
TestParameter, Output.List.Data, Vg, Vd, Id, Is, Ig, absId, absIs, absIg
TestParameter, AutoAnalysis.Interpolation, false
TestParameter, AutoAnalysis.Var2StepCount, 1
TestParameter, AutoAnalysis.Var2StepScript, 
TestParameter, AutoAnalysis.Line1.Enabled, false
TestParameter, AutoAnalysis.Line1.Type, 1
TestParameter, AutoAnalysis.Line1.Fix, True
TestParameter, AutoAnalysis.Line1.YAxis, 0
TestParameter, AutoAnalysis.Line1.Point1.Type, 0
TestParameter, AutoAnalysis.Line1.Point1.XY.X, 
TestParameter, AutoAnalysis.Line1.Point1.XY.Y, 
TestParameter, AutoAnalysis.Line1.Point1.Data.Var, 
TestParameter, AutoAnalysis.Line1.Point1.Data.Condition, 
TestParameter, AutoAnalysis.Line1.Point1.Data.Start, false
TestParameter, AutoAnalysis.Line1.Point1.Data.StartVar, 
TestParameter, AutoAnalysis.Line1.Point1.Data.StartCondition, 
TestParameter, AutoAnalysis.Line1.Point2.Type, 0
TestParameter, AutoAnalysis.Line1.Point2.XY.X, 
TestParameter, AutoAnalysis.Line1.Point2.XY.Y, 
TestParameter, AutoAnalysis.Line1.Point2.Data.Var, 
TestParameter, AutoAnalysis.Line1.Point2.Data.Condition, 
TestParameter, AutoAnalysis.Line1.Point2.Data.Start, false
TestParameter, AutoAnalysis.Line1.Point2.Data.StartVar, 
TestParameter, AutoAnalysis.Line1.Point2.Data.StartCondition, 
TestParameter, AutoAnalysis.Line1.GradientExpr, 0
TestParameter, AutoAnalysis.Line2.Enabled, false
TestParameter, AutoAnalysis.Line2.Type, 1
TestParameter, AutoAnalysis.Line2.Fix, True
TestParameter, AutoAnalysis.Line2.YAxis, 0
TestParameter, AutoAnalysis.Line2.Point1.Type, 0
TestParameter, AutoAnalysis.Line2.Point1.XY.X, 
TestParameter, AutoAnalysis.Line2.Point1.XY.Y, 
TestParameter, AutoAnalysis.Line2.Point1.Data.Var, 
TestParameter, AutoAnalysis.Line2.Point1.Data.Condition, 
TestParameter, AutoAnalysis.Line2.Point1.Data.Start, false
TestParameter, AutoAnalysis.Line2.Point1.Data.StartVar, 
TestParameter, AutoAnalysis.Line2.Point1.Data.StartCondition, 
TestParameter, AutoAnalysis.Line2.Point2.Type, 0
TestParameter, AutoAnalysis.Line2.Point2.XY.X, 
TestParameter, AutoAnalysis.Line2.Point2.XY.Y, 
TestParameter, AutoAnalysis.Line2.Point2.Data.Var, 
TestParameter, AutoAnalysis.Line2.Point2.Data.Condition, 
TestParameter, AutoAnalysis.Line2.Point2.Data.Start, false
TestParameter, AutoAnalysis.Line2.Point2.Data.StartVar, 
TestParameter, AutoAnalysis.Line2.Point2.Data.StartCondition, 
TestParameter, AutoAnalysis.Line2.GradientExpr, 0
TestParameter, AutoAnalysis.Marker.Enabled, false
TestParameter, AutoAnalysis.Marker.Data.Var, 
TestParameter, AutoAnalysis.Marker.Data.Condition, 
TestParameter, AutoAnalysis.Marker.Data.Start, false
TestParameter, AutoAnalysis.Marker.Data.StartVar, 
TestParameter, AutoAnalysis.Marker.Data.StartCondition, 
MetaData, TestRecord.EntryPoint, true
MetaData, TestRecord.RecordTime, 06/03/2025 14:46:14
MetaData, TestRecord.TestTarget, R[5]_D[6]_L[80]
MetaData, TestRecord.IterationIndex, 1
MetaData, TestRecord.Preservation, true
MetaData, TestRecord.Flag, !
MetaData, TestRecord.Remarks, 
MetaData, TestRecord.LinkKey, c67fee3b-54c7-4cd3-9b7c-8e67deeceae1
MetaData, TestRecord.Parameters, 
Dimension1, 202, 202, 202, 202, 202, 202, 202, 202
Dimension2, 5, 5, 5, 5, 5, 5, 5, 5
DataName, Vd, Vg, Id, Ig, Is, absId, absIg, absIs
DataValue, 0, 0, 3.8917E-11, 2.4750000000000003E-12, -5.216E-12, 3.8917E-11, 2.4750000000000003E-12, 5.216E-12
DataValue, 0.01, 0, 4.79967E-10, 1.715E-12, -5.0735600000000006E-10, 4.79967E-10, 1.715E-12, 5.0735600000000006E-10
DataValue, 0.02, 0, 8.26517E-10, 1.9450000000000003E-12, -8.6575600000000009E-10, 8.26517E-10, 1.9450000000000003E-12, 8.6575600000000009E-10
DataValue, 0.030000000000000002, 0, 1.21027E-09, 2.565E-12, -1.13564E-09, 1.21027E-09, 2.565E-12, 1.13564E-09
DataValue, 0.04, 0, 1.41517E-09, 2.1950000000000002E-12, -1.33214E-09, 1.41517E-09, 2.1950000000000002E-12, 1.33214E-09
DataValue, 0.05, 0, 1.54317E-09, 1.715E-12, -1.52774E-09, 1.54317E-09, 1.715E-12, 1.52774E-09
DataValue, 0.060000000000000005, 0, 1.61617E-09, 1.675E-12, -1.62194E-09, 1.61617E-09, 1.675E-12, 1.62194E-09
DataValue, 0.07, 0, 1.75317E-09, 1.7750000000000002E-12, -1.81254E-09, 1.75317E-09, 1.7750000000000002E-12, 1.81254E-09
DataValue, 0.08, 0, 1.89217E-09, 2.6250000000000002E-12, -1.89434E-09, 1.89217E-09, 2.6250000000000002E-12, 1.89434E-09
DataValue, 0.090000000000000011, 0, 1.97707E-09, 2.9050000000000002E-12, -1.95464E-09, 1.97707E-09, 2.9050000000000002E-12, 1.95464E-09
DataValue, 0.1, 0, 2.07727E-09, 2.465E-12, -1.98524E-09, 2.07727E-09, 2.465E-12, 1.98524E-09
DataValue, 0.11, 0, 2.03097E-09, 1.6950000000000002E-12, -2.03614E-09, 2.03097E-09, 1.6950000000000002E-12, 2.03614E-09
DataValue, 0.12000000000000001, 0, 2.06407E-09, 1.6950000000000002E-12, -2.13374E-09, 2.06407E-09, 1.6950000000000002E-12, 2.13374E-09
DataValue, 0.13, 0, 2.06757E-09, 2.135E-12, -2.09824E-09, 2.06757E-09, 2.135E-12, 2.09824E-09
DataValue, 0.14, 0, 2.15367E-09, 2.8050000000000003E-12, -2.10334E-09, 2.15367E-09, 2.8050000000000003E-12, 2.10334E-09
DataValue, 0.15, 0, 2.19317E-09, 2.3450000000000002E-12, -2.16334E-09, 2.19317E-09, 2.3450000000000002E-12, 2.16334E-09
DataValue, 0.16, 0, 2.10697E-09, 1.9450000000000003E-12, -2.06974E-09, 2.10697E-09, 1.9450000000000003E-12, 2.06974E-09
DataValue, 0.17, 0, 2.22617E-09, 1.6950000000000002E-12, -2.19494E-09, 2.22617E-09, 1.6950000000000002E-12, 2.19494E-09
DataValue, 0.18000000000000002, 0, 2.24797E-09, 1.855E-12, -2.28554E-09, 2.24797E-09, 1.855E-12, 2.28554E-09
DataValue, 0.19, 0, 2.2255699999999998E-09, 2.825E-12, -2.19444E-09, 2.2255699999999998E-09, 2.825E-12, 2.19444E-09
DataValue, 0.2, 0, 2.27257E-09, 2.8850000000000003E-12, -2.21124E-09, 2.27257E-09, 2.8850000000000003E-12, 2.21124E-09
DataValue, 0.21000000000000002, 0, 2.34127E-09, 2.315E-12, -2.28914E-09, 2.34127E-09, 2.315E-12, 2.28914E-09
DataValue, 0.22, 0, 2.37687E-09, 1.6450000000000002E-12, -2.22154E-09, 2.37687E-09, 1.6450000000000002E-12, 2.22154E-09
DataValue, 0.23, 0, 2.25647E-09, 1.985E-12, -2.31654E-09, 2.25647E-09, 1.985E-12, 2.31654E-09
DataValue, 0.24000000000000002, 0, 2.35357E-09, 1.905E-12, -2.49574E-09, 2.35357E-09, 1.905E-12, 2.49574E-09
DataValue, 0.25, 0, 2.41897E-09, 2.435E-12, -2.47834E-09, 2.41897E-09, 2.435E-12, 2.47834E-09
DataValue, 0.26, 0, 2.41897E-09, 2.7250000000000002E-12, -2.34054E-09, 2.41897E-09, 2.7250000000000002E-12, 2.34054E-09
DataValue, 0.27, 0, 2.26747E-09, 2.155E-12, -2.38564E-09, 2.26747E-09, 2.155E-12, 2.38564E-09
DataValue, 0.28, 0, 2.33967E-09, 1.625E-12, -2.35704E-09, 2.33967E-09, 1.625E-12, 2.35704E-09
DataValue, 0.29000000000000004, 0, 2.35667E-09, 1.885E-12, -2.40344E-09, 2.35667E-09, 1.885E-12, 2.40344E-09
DataValue, 0.3, 0, 2.48637E-09, 2.1450000000000003E-12, -2.49184E-09, 2.48637E-09, 2.1450000000000003E-12, 2.49184E-09
DataValue, 0.31, 0, 2.46017E-09, 2.7350000000000004E-12, -2.43404E-09, 2.46017E-09, 2.7350000000000004E-12, 2.43404E-09
DataValue, 0.32, 0, 2.51197E-09, 2.435E-12, -2.47974E-09, 2.51197E-09, 2.435E-12, 2.47974E-09
DataValue, 0.33, 0, 2.46087E-09, 2.435E-12, -2.50184E-09, 2.46087E-09, 2.435E-12, 2.50184E-09
DataValue, 0.34, 0, 2.4736699999999998E-09, 1.4950000000000002E-12, -2.47934E-09, 2.4736699999999998E-09, 1.4950000000000002E-12, 2.47934E-09
DataValue, 0.35000000000000003, 0, 2.55367E-09, 2.235E-12, -2.56494E-09, 2.55367E-09, 2.235E-12, 2.56494E-09
DataValue, 0.36000000000000004, 0, 2.43897E-09, 2.465E-12, -2.37824E-09, 2.43897E-09, 2.465E-12, 2.37824E-09
DataValue, 0.37, 0, 2.59017E-09, 2.7050000000000003E-12, -2.55364E-09, 2.59017E-09, 2.7050000000000003E-12, 2.55364E-09
DataValue, 0.38, 0, 2.58567E-09, 2.445E-12, -2.62374E-09, 2.58567E-09, 2.445E-12, 2.62374E-09
DataValue, 0.39, 0, 2.51057E-09, 1.715E-12, -2.48784E-09, 2.51057E-09, 1.715E-12, 2.48784E-09
DataValue, 0.4, 0, 2.55657E-09, 1.4150000000000001E-12, -2.46284E-09, 2.55657E-09, 1.4150000000000001E-12, 2.46284E-09
DataValue, 0.41000000000000003, 0, 2.51417E-09, 2.0750000000000003E-12, -2.53514E-09, 2.51417E-09, 2.0750000000000003E-12, 2.53514E-09
DataValue, 0.42000000000000004, 0, 2.50007E-09, 2.6050000000000003E-12, -2.50864E-09, 2.50007E-09, 2.6050000000000003E-12, 2.50864E-09
DataValue, 0.43, 0, 2.52047E-09, 3.1450000000000004E-12, -2.47034E-09, 2.52047E-09, 3.1450000000000004E-12, 2.47034E-09
DataValue, 0.44, 0, 2.65187E-09, 1.9450000000000003E-12, -2.67234E-09, 2.65187E-09, 1.9450000000000003E-12, 2.67234E-09
DataValue, 0.45, 0, 2.68317E-09, 1.7850000000000002E-12, -2.6423399999999998E-09, 2.68317E-09, 1.7850000000000002E-12, 2.6423399999999998E-09
DataValue, 0.46, 0, 2.66937E-09, 1.765E-12, -2.59334E-09, 2.66937E-09, 1.765E-12, 2.59334E-09
DataValue, 0.47000000000000003, 0, 2.57507E-09, 2.115E-12, -2.60964E-09, 2.57507E-09, 2.115E-12, 2.60964E-09
DataValue, 0.48000000000000004, 0, 2.60647E-09, 2.665E-12, -2.55764E-09, 2.60647E-09, 2.665E-12, 2.55764E-09
DataValue, 0.49000000000000005, 0, 2.51327E-09, 2.5750000000000002E-12, -2.46974E-09, 2.51327E-09, 2.5750000000000002E-12, 2.46974E-09
DataValue, 0.5, 0, 2.61087E-09, 2.0750000000000003E-12, -2.64124E-09, 2.61087E-09, 2.0750000000000003E-12, 2.64124E-09
DataValue, 0.51, 0, 2.75807E-09, 1.7450000000000001E-12, -2.68104E-09, 2.75807E-09, 1.7450000000000001E-12, 2.68104E-09
DataValue, 0.52, 0, 2.60497E-09, 2.105E-12, -2.63474E-09, 2.60497E-09, 2.105E-12, 2.63474E-09
DataValue, 0.53, 0, 2.52387E-09, 2.595E-12, -2.69634E-09, 2.52387E-09, 2.595E-12, 2.69634E-09
DataValue, 0.54, 0, 2.73257E-09, 2.8550000000000003E-12, -2.74774E-09, 2.73257E-09, 2.8550000000000003E-12, 2.74774E-09
DataValue, 0.55, 0, 2.69847E-09, 2.235E-12, -2.63704E-09, 2.69847E-09, 2.235E-12, 2.63704E-09
DataValue, 0.56, 0, 2.83007E-09, 1.625E-12, -2.79264E-09, 2.83007E-09, 1.625E-12, 2.79264E-09
DataValue, 0.57000000000000006, 0, 2.67297E-09, 1.5550000000000001E-12, -2.60754E-09, 2.67297E-09, 1.5550000000000001E-12, 2.60754E-09
DataValue, 0.58000000000000007, 0, 2.63437E-09, 2.535E-12, -2.80534E-09, 2.63437E-09, 2.535E-12, 2.80534E-09
DataValue, 0.59000000000000008, 0, 2.72387E-09, 2.8350000000000003E-12, -2.65194E-09, 2.72387E-09, 2.8350000000000003E-12, 2.65194E-09
DataValue, 0.6, 0, 2.80987E-09, 3.0150000000000004E-12, -2.81914E-09, 2.80987E-09, 3.0150000000000004E-12, 2.81914E-09
DataValue, 0.61, 0, 2.78627E-09, 2.105E-12, -2.75824E-09, 2.78627E-09, 2.105E-12, 2.75824E-09
DataValue, 0.62, 0, 2.83827E-09, 1.7750000000000002E-12, -2.71254E-09, 2.83827E-09, 1.7750000000000002E-12, 2.71254E-09
DataValue, 0.63, 0, 2.67907E-09, 1.875E-12, -2.66954E-09, 2.67907E-09, 1.875E-12, 2.66954E-09
DataValue, 0.64, 0, 2.80617E-09, 2.645E-12, -2.87954E-09, 2.80617E-09, 2.645E-12, 2.87954E-09
DataValue, 0.65, 0, 2.80997E-09, 2.795E-12, -2.86604E-09, 2.80997E-09, 2.795E-12, 2.86604E-09
DataValue, 0.66, 0, 2.89617E-09, 2.445E-12, -2.81714E-09, 2.89617E-09, 2.445E-12, 2.81714E-09
DataValue, 0.67, 0, 2.79877E-09, 1.6850000000000002E-12, -2.73334E-09, 2.79877E-09, 1.6850000000000002E-12, 2.73334E-09
DataValue, 0.68, 0, 2.77477E-09, 1.8950000000000003E-12, -2.76454E-09, 2.77477E-09, 1.8950000000000003E-12, 2.76454E-09
DataValue, 0.69000000000000006, 0, 2.83487E-09, 2.4550000000000003E-12, -2.79184E-09, 2.83487E-09, 2.4550000000000003E-12, 2.79184E-09
DataValue, 0.70000000000000007, 0, 2.78927E-09, 2.795E-12, -2.88484E-09, 2.78927E-09, 2.795E-12, 2.88484E-09
DataValue, 0.71000000000000008, 0, 2.90907E-09, 2.7350000000000004E-12, -2.92694E-09, 2.90907E-09, 2.7350000000000004E-12, 2.92694E-09
DataValue, 0.72000000000000008, 0, 3.00267E-09, 1.975E-12, -2.79084E-09, 3.00267E-09, 1.975E-12, 2.79084E-09
DataValue, 0.73, 0, 2.86977E-09, 1.855E-12, -2.83484E-09, 2.86977E-09, 1.855E-12, 2.83484E-09
DataValue, 0.74, 0, 2.78377E-09, 1.755E-12, -2.89774E-09, 2.78377E-09, 1.755E-12, 2.89774E-09
DataValue, 0.75, 0, 2.96597E-09, 2.235E-12, -2.95484E-09, 2.96597E-09, 2.235E-12, 2.95484E-09
DataValue, 0.76, 0, 3.13457E-09, 2.8050000000000003E-12, -2.92454E-09, 3.13457E-09, 2.8050000000000003E-12, 2.92454E-09
DataValue, 0.77, 0, 3.23327E-09, 2.9050000000000002E-12, -3.12974E-09, 3.23327E-09, 2.9050000000000002E-12, 3.12974E-09
DataValue, 0.78, 0, 3.09297E-09, 2.0250000000000004E-12, -3.19934E-09, 3.09297E-09, 2.0250000000000004E-12, 3.19934E-09
DataValue, 0.79, 0, 3.19577E-09, 1.6350000000000002E-12, -3.33254E-09, 3.19577E-09, 1.6350000000000002E-12, 3.33254E-09
DataValue, 0.8, 0, 3.11037E-09, 2.005E-12, -3.17974E-09, 3.11037E-09, 2.005E-12, 3.17974E-09
DataValue, 0.81, 0, 3.06427E-09, 2.395E-12, -3.07094E-09, 3.06427E-09, 2.395E-12, 3.07094E-09
DataValue, 0.82000000000000006, 0, 3.19777E-09, 2.9350000000000003E-12, -3.21364E-09, 3.19777E-09, 2.9350000000000003E-12, 3.21364E-09
DataValue, 0.83000000000000007, 0, 3.27517E-09, 2.845E-12, -3.21884E-09, 3.27517E-09, 2.845E-12, 3.21884E-09
DataValue, 0.84000000000000008, 0, 3.24247E-09, 1.7850000000000002E-12, -3.28074E-09, 3.24247E-09, 1.7850000000000002E-12, 3.28074E-09
DataValue, 0.85000000000000009, 0, 3.13077E-09, 1.1350000000000001E-12, -3.28404E-09, 3.13077E-09, 1.1350000000000001E-12, 3.28404E-09
DataValue, 0.86, 0, 3.27897E-09, 1.835E-12, -3.38114E-09, 3.27897E-09, 1.835E-12, 3.38114E-09
DataValue, 0.87, 0, 3.25357E-09, 2.395E-12, -3.36354E-09, 3.25357E-09, 2.395E-12, 3.36354E-09
DataValue, 0.88, 0, 3.31627E-09, 2.395E-12, -3.35574E-09, 3.31627E-09, 2.395E-12, 3.35574E-09
DataValue, 0.89, 0, 3.36427E-09, 1.9450000000000003E-12, -3.29454E-09, 3.36427E-09, 1.9450000000000003E-12, 3.29454E-09
DataValue, 0.9, 0, 3.11107E-09, 1.7950000000000001E-12, -3.06104E-09, 3.11107E-09, 1.7950000000000001E-12, 3.06104E-09
DataValue, 0.91, 0, 3.12107E-09, 1.6850000000000002E-12, -3.33784E-09, 3.12107E-09, 1.6850000000000002E-12, 3.33784E-09
DataValue, 0.92, 0, 3.06707E-09, 2.035E-12, -3.06844E-09, 3.06707E-09, 2.035E-12, 3.06844E-09
DataValue, 0.93, 0, 3.39237E-09, 2.7550000000000003E-12, -3.26734E-09, 3.39237E-09, 2.7550000000000003E-12, 3.26734E-09
DataValue, 0.94000000000000006, 0, 3.29197E-09, 2.5050000000000003E-12, -3.26274E-09, 3.29197E-09, 2.5050000000000003E-12, 3.26274E-09
DataValue, 0.95000000000000007, 0, 3.40817E-09, 1.815E-12, -3.42964E-09, 3.40817E-09, 1.815E-12, 3.42964E-09
DataValue, 0.96000000000000008, 0, 3.30747E-09, 1.185E-12, -3.34264E-09, 3.30747E-09, 1.185E-12, 3.34264E-09
DataValue, 0.97000000000000008, 0, 3.35807E-09, 2.0250000000000004E-12, -3.49274E-09, 3.35807E-09, 2.0250000000000004E-12, 3.49274E-09
DataValue, 0.98000000000000009, 0, 3.36077E-09, 2.6750000000000002E-12, -3.47084E-09, 3.36077E-09, 2.6750000000000002E-12, 3.47084E-09
DataValue, 0.9900000000000001, 0, 3.39797E-09, 2.5850000000000004E-12, -3.37564E-09, 3.39797E-09, 2.5850000000000004E-12, 3.37564E-09
DataValue, 1, 0, 3.24137E-09, 2.155E-12, -3.13964E-09, 3.24137E-09, 2.155E-12, 3.13964E-09
DataValue, 1, 0, 3.20667E-09, 2.795E-12, -3.19454E-09, 3.20667E-09, 2.795E-12, 3.19454E-09
DataValue, 0.9900000000000001, 0, 3.47467E-09, 2.9650000000000004E-12, -3.39484E-09, 3.47467E-09, 2.9650000000000004E-12, 3.39484E-09
DataValue, 0.98000000000000009, 0, 3.45167E-09, 1.875E-12, -3.44944E-09, 3.45167E-09, 1.875E-12, 3.44944E-09
DataValue, 0.97000000000000008, 0, 3.34627E-09, 1.245E-12, -3.34244E-09, 3.34627E-09, 1.245E-12, 3.34244E-09
DataValue, 0.96000000000000008, 0, 3.18507E-09, 1.6350000000000002E-12, -3.38694E-09, 3.18507E-09, 1.6350000000000002E-12, 3.38694E-09
DataValue, 0.95000000000000007, 0, 3.30907E-09, 2.005E-12, -3.31054E-09, 3.30907E-09, 2.005E-12, 3.31054E-09
DataValue, 0.94000000000000006, 0, 3.23777E-09, 2.9650000000000004E-12, -3.16104E-09, 3.23777E-09, 2.9650000000000004E-12, 3.16104E-09
DataValue, 0.93, 0, 3.17177E-09, 2.315E-12, -3.26404E-09, 3.17177E-09, 2.315E-12, 3.26404E-09
DataValue, 0.92, 0, 3.22567E-09, 1.6450000000000002E-12, -3.29724E-09, 3.22567E-09, 1.6450000000000002E-12, 3.29724E-09
DataValue, 0.91, 0, 3.17197E-09, 1.255E-12, -3.17824E-09, 3.17197E-09, 1.255E-12, 3.17824E-09
DataValue, 0.9, 0, 3.06037E-09, 2.135E-12, -3.13654E-09, 3.06037E-09, 2.135E-12, 3.13654E-09
DataValue, 0.89, 0, 3.09917E-09, 2.595E-12, -3.16564E-09, 3.09917E-09, 2.595E-12, 3.16564E-09
DataValue, 0.88, 0, 3.23467E-09, 2.775E-12, -3.32644E-09, 3.23467E-09, 2.775E-12, 3.32644E-09
DataValue, 0.87, 0, 3.15017E-09, 2.105E-12, -3.06594E-09, 3.15017E-09, 2.105E-12, 3.06594E-09
DataValue, 0.86, 0, 3.10887E-09, 2.015E-12, -3.16274E-09, 3.10887E-09, 2.015E-12, 3.16274E-09
