
SetupTitle, IdVd_Vg_par
PrimitiveTest, I/V Sweep
TestParameter, Context.MainFrame, B1500A
TestParameter, Channel.UnitType, SMU, SMU, SMU
TestParameter, Channel.Unit, SMU3:HR, SMU2:HR, SMU1:HR
TestParameter, Channel.IName, Id, Ig, Is
TestParameter, Channel.VName, Vd, Vg, Vs
TestParameter, Channel.Mode, V, V, V
TestParameter, Channel.Func, VAR1, VAR2, CONST
TestParameter, Channel.Index, 
TestParameter, Channel.Time, 
TestParameter, Measurement.Port.Unit, SMU3:HR, SMU2:HR, SMU1:HR
TestParameter, Measurement.Port.SeriesResistor, NONE, NONE, NONE
TestParameter, Measurement.Port.Filter, ON, ON, ON
TestParameter, Measurement.Port.OutputVoltageComparison, 0, 0, 0
TestParameter, Measurement.Primary.Locus, Double
TestParameter, Measurement.Primary.Scale, LINEAR
TestParameter, Measurement.Primary.Start, 0
TestParameter, Measurement.Primary.Stop, 1
TestParameter, Measurement.Primary.Step, 0.01
TestParameter, Measurement.Primary.Compliance, 0.01
TestParameter, Measurement.Primary.PowerCompliance, 0
TestParameter, Measurement.Aborting.Condition, CONTINUE AT ANY
TestParameter, Measurement.PostOutput.Value, START
TestParameter, Measurement.PostOutput.Retention, OFF
TestParameter, Measurement.Secondary.Start, 0
TestParameter, Measurement.Secondary.Count, 5
TestParameter, Measurement.Secondary.Step, 0.5
TestParameter, Measurement.Secondary.Compliance, 0.01
TestParameter, Measurement.Secondary.PowerCompliance, 0
TestParameter, Measurement.Bias.Source, 0, 0, 0
TestParameter, Measurement.Bias.Compliance, 0.01, 0.01, 0.01
TestParameter, Measurement.Monitor.Unit, SMU3:HR, SMU2:HR, SMU1:HR
TestParameter, Measurement.Monitor.Adc, HR ADC, HR ADC, HR ADC
TestParameter, Measurement.Monitor.Measurement, Compliance Side, Compliance Side, Compliance Side
TestParameter, Measurement.Monitor.RangingMode, LIMITED, LIMITED, LIMITED
TestParameter, Measurement.Monitor.RangeBoundary, 1nA, 1nA, 1nA
TestParameter, Measurement.Monitor.RangeRating, BY FULL RANGE, BY FULL RANGE, BY FULL RANGE
TestParameter, Measurement.Monitor.RangeRatingCoeff, 50, 50, 50
TestParameter, Measurement.Timing.Hold, 0
TestParameter, Measurement.Timing.Delay, 0
TestParameter, Measurement.Adc.HighSpeed.Mode, AUTO
TestParameter, Measurement.Adc.HighSpeed.Coeff, 1
TestParameter, Measurement.Adc.HighResolution.AutoZero, OFF
TestParameter, Measurement.Adc.HighResolution.Mode, AUTO
TestParameter, Measurement.Adc.HighResolution.Coeff, 6
TestParameter, Measurement.WaitTime.Source.Coeff, 1
TestParameter, Measurement.WaitTime.Source.Offset, 0
TestParameter, Measurement.WaitTime.Monitor.Coeff, 1
TestParameter, Measurement.WaitTime.Monitor.Offset, 0
TestParameter, Function.User.Name, absId, absIg, absIs
TestParameter, Function.User.Unit, A, A, A
TestParameter, Function.User.Definition, abs(Id), abs(Ig), abs(Is)
TestParameter, Output.Graph.Enabled, true
TestParameter, Output.Graph.AutoScaling, false
TestParameter, Output.Graph.XAxis.Data, Vd
TestParameter, Output.Graph.XAxis.Scale, Linear
TestParameter, Output.Graph.XAxis.Left, 0
TestParameter, Output.Graph.XAxis.Right, 2
TestParameter, Output.Graph.XAxis.RunTimeAutoScale, false
TestParameter, Output.Graph.YAxis.Data, absId, absIs
TestParameter, Output.Graph.YAxis.Scale, Linear, Linear
TestParameter, Output.Graph.YAxis.Bottom, 1E-15, 1E-15
TestParameter, Output.Graph.YAxis.Top, 0.001, 0.001
TestParameter, Output.Graph.YAxis.Group, , 
TestParameter, Output.Graph.YAxis.RunTimeAutoScale, true, true
TestParameter, Output.List.Data, Vg, Vd, Id, Is, Ig, absId, absIs, absIg
TestParameter, AutoAnalysis.Interpolation, false
TestParameter, AutoAnalysis.Var2StepCount, 1
TestParameter, AutoAnalysis.Var2StepScript, 
TestParameter, AutoAnalysis.Line1.Enabled, false
TestParameter, AutoAnalysis.Line1.Type, 1
TestParameter, AutoAnalysis.Line1.Fix, True
TestParameter, AutoAnalysis.Line1.YAxis, 0
TestParameter, AutoAnalysis.Line1.Point1.Type, 0
TestParameter, AutoAnalysis.Line1.Point1.XY.X, 
TestParameter, AutoAnalysis.Line1.Point1.XY.Y, 
TestParameter, AutoAnalysis.Line1.Point1.Data.Var, 
TestParameter, AutoAnalysis.Line1.Point1.Data.Condition, 
TestParameter, AutoAnalysis.Line1.Point1.Data.Start, false
TestParameter, AutoAnalysis.Line1.Point1.Data.StartVar, 
TestParameter, AutoAnalysis.Line1.Point1.Data.StartCondition, 
TestParameter, AutoAnalysis.Line1.Point2.Type, 0
TestParameter, AutoAnalysis.Line1.Point2.XY.X, 
TestParameter, AutoAnalysis.Line1.Point2.XY.Y, 
TestParameter, AutoAnalysis.Line1.Point2.Data.Var, 
TestParameter, AutoAnalysis.Line1.Point2.Data.Condition, 
TestParameter, AutoAnalysis.Line1.Point2.Data.Start, false
TestParameter, AutoAnalysis.Line1.Point2.Data.StartVar, 
TestParameter, AutoAnalysis.Line1.Point2.Data.StartCondition, 
TestParameter, AutoAnalysis.Line1.GradientExpr, 0
TestParameter, AutoAnalysis.Line2.Enabled, false
TestParameter, AutoAnalysis.Line2.Type, 1
TestParameter, AutoAnalysis.Line2.Fix, True
TestParameter, AutoAnalysis.Line2.YAxis, 0
TestParameter, AutoAnalysis.Line2.Point1.Type, 0
TestParameter, AutoAnalysis.Line2.Point1.XY.X, 
TestParameter, AutoAnalysis.Line2.Point1.XY.Y, 
TestParameter, AutoAnalysis.Line2.Point1.Data.Var, 
TestParameter, AutoAnalysis.Line2.Point1.Data.Condition, 
TestParameter, AutoAnalysis.Line2.Point1.Data.Start, false
TestParameter, AutoAnalysis.Line2.Point1.Data.StartVar, 
TestParameter, AutoAnalysis.Line2.Point1.Data.StartCondition, 
TestParameter, AutoAnalysis.Line2.Point2.Type, 0
TestParameter, AutoAnalysis.Line2.Point2.XY.X, 
TestParameter, AutoAnalysis.Line2.Point2.XY.Y, 
TestParameter, AutoAnalysis.Line2.Point2.Data.Var, 
TestParameter, AutoAnalysis.Line2.Point2.Data.Condition, 
TestParameter, AutoAnalysis.Line2.Point2.Data.Start, false
TestParameter, AutoAnalysis.Line2.Point2.Data.StartVar, 
TestParameter, AutoAnalysis.Line2.Point2.Data.StartCondition, 
TestParameter, AutoAnalysis.Line2.GradientExpr, 0
TestParameter, AutoAnalysis.Marker.Enabled, false
TestParameter, AutoAnalysis.Marker.Data.Var, 
TestParameter, AutoAnalysis.Marker.Data.Condition, 
TestParameter, AutoAnalysis.Marker.Data.Start, false
TestParameter, AutoAnalysis.Marker.Data.StartVar, 
TestParameter, AutoAnalysis.Marker.Data.StartCondition, 
MetaData, TestRecord.EntryPoint, true
MetaData, TestRecord.RecordTime, 06/03/2025 13:01:37
MetaData, TestRecord.TestTarget, R[6]_D[6]_L[1000]
MetaData, TestRecord.IterationIndex, 1
MetaData, TestRecord.Preservation, true
MetaData, TestRecord.Flag, !
MetaData, TestRecord.Remarks, 
MetaData, TestRecord.LinkKey, 70e0c431-7bcd-4998-ae72-6526c415e1cb
MetaData, TestRecord.Parameters, 
Dimension1, 202, 202, 202, 202, 202, 202, 202, 202
Dimension2, 5, 5, 5, 5, 5, 5, 5, 5
DataName, Vd, Vg, Id, Ig, Is, absId, absIg, absIs
DataValue, 0, 0, -1.1000000000000001E-13, -2.1700000000000002E-12, -1.5700000000000002E-12, 1.1000000000000001E-13, 2.1700000000000002E-12, 1.5700000000000002E-12
DataValue, 0.01, 0, 1.2000000000000002E-13, -2.39E-12, -1.8400000000000002E-12, 1.2000000000000002E-13, 2.39E-12, 1.8400000000000002E-12
DataValue, 0.02, 0, 3.9000000000000005E-13, -2.09E-12, -1.17E-12, 3.9000000000000005E-13, 2.09E-12, 1.17E-12
DataValue, 0.030000000000000002, 0, 2.4000000000000004E-13, -2.36E-12, -1.64E-12, 2.4000000000000004E-13, 2.36E-12, 1.64E-12
DataValue, 0.04, 0, 6.0000000000000009E-14, -2.26E-12, -1.95E-12, 6.0000000000000009E-14, 2.26E-12, 1.95E-12
DataValue, 0.05, 0, 3.8000000000000005E-13, -2.1700000000000002E-12, -1.9200000000000003E-12, 3.8000000000000005E-13, 2.1700000000000002E-12, 1.9200000000000003E-12
DataValue, 0.060000000000000005, 0, 3.0000000000000003E-13, -2.6000000000000002E-12, -1.9400000000000002E-12, 3.0000000000000003E-13, 2.6000000000000002E-12, 1.9400000000000002E-12
DataValue, 0.07, 0, 5.1E-13, -2.49E-12, -1.73E-12, 5.1E-13, 2.49E-12, 1.73E-12
DataValue, 0.08, 0, 5.5000000000000008E-13, -2.2200000000000002E-12, -1.45E-12, 5.5000000000000008E-13, 2.2200000000000002E-12, 1.45E-12
DataValue, 0.090000000000000011, 0, 5.4E-13, -2.34E-12, -1.6700000000000002E-12, 5.4E-13, 2.34E-12, 1.6700000000000002E-12
DataValue, 0.1, 0, 4.2000000000000003E-13, -2.37E-12, -1.73E-12, 4.2000000000000003E-13, 2.37E-12, 1.73E-12
DataValue, 0.11, 0, 3.5E-13, -2.6500000000000002E-12, -1.7100000000000002E-12, 3.5E-13, 2.6500000000000002E-12, 1.7100000000000002E-12
DataValue, 0.12000000000000001, 0, 5.9E-13, -2.4000000000000003E-12, -1.65E-12, 5.9E-13, 2.4000000000000003E-12, 1.65E-12
DataValue, 0.13, 0, 3.7000000000000004E-13, -2.2500000000000003E-12, -1.6700000000000002E-12, 3.7000000000000004E-13, 2.2500000000000003E-12, 1.6700000000000002E-12
DataValue, 0.14, 0, 7.4000000000000008E-13, -2.42E-12, -1.55E-12, 7.4000000000000008E-13, 2.42E-12, 1.55E-12
DataValue, 0.15, 0, 8.0000000000000013E-14, -2.4800000000000003E-12, -1.93E-12, 8.0000000000000013E-14, 2.4800000000000003E-12, 1.93E-12
DataValue, 0.16, 0, 2.0000000000000003E-14, -2.5600000000000004E-12, -1.79E-12, 2.0000000000000003E-14, 2.5600000000000004E-12, 1.79E-12
DataValue, 0.17, 0, 1.2000000000000002E-13, -2.5600000000000004E-12, -1.7000000000000002E-12, 1.2000000000000002E-13, 2.5600000000000004E-12, 1.7000000000000002E-12
DataValue, 0.18000000000000002, 0, 8.300000000000001E-13, -2.62E-12, -1.69E-12, 8.300000000000001E-13, 2.62E-12, 1.69E-12
DataValue, 0.19, 0, 8E-13, -2.4300000000000003E-12, -1.69E-12, 8E-13, 2.4300000000000003E-12, 1.69E-12
DataValue, 0.2, 0, 4.6000000000000006E-13, -2.4800000000000003E-12, -1.6200000000000002E-12, 4.6000000000000006E-13, 2.4800000000000003E-12, 1.6200000000000002E-12
DataValue, 0.21000000000000002, 0, 8.7E-13, -2.44E-12, -2E-12, 8.7E-13, 2.44E-12, 2E-12
DataValue, 0.22, 0, 8.300000000000001E-13, -2.44E-12, -2.06E-12, 8.300000000000001E-13, 2.44E-12, 2.06E-12
DataValue, 0.23, 0, 1.4E-13, -2.6000000000000002E-12, -2.0200000000000003E-12, 1.4E-13, 2.6000000000000002E-12, 2.0200000000000003E-12
DataValue, 0.24000000000000002, 0, 3.9000000000000005E-13, -2.67E-12, -2.0500000000000004E-12, 3.9000000000000005E-13, 2.67E-12, 2.0500000000000004E-12
DataValue, 0.25, 0, 5E-13, -2.19E-12, -1.5200000000000002E-12, 5E-13, 2.19E-12, 1.5200000000000002E-12
DataValue, 0.26, 0, 8.1000000000000008E-13, -2.29E-12, -1.6800000000000001E-12, 8.1000000000000008E-13, 2.29E-12, 1.6800000000000001E-12
DataValue, 0.27, 0, 3.4E-13, -2.29E-12, -1.8200000000000003E-12, 3.4E-13, 2.29E-12, 1.8200000000000003E-12
DataValue, 0.28, 0, 8.0000000000000013E-14, -2.7600000000000004E-12, -1.85E-12, 8.0000000000000013E-14, 2.7600000000000004E-12, 1.85E-12
DataValue, 0.29000000000000004, 0, 2.2000000000000002E-13, -2.34E-12, -1.6300000000000001E-12, 2.2000000000000002E-13, 2.34E-12, 1.6300000000000001E-12
DataValue, 0.3, 0, 7.2000000000000006E-13, -2.44E-12, -1.59E-12, 7.2000000000000006E-13, 2.44E-12, 1.59E-12
DataValue, 0.31, 0, 1.04E-12, -2.46E-12, -1.9700000000000003E-12, 1.04E-12, 2.46E-12, 1.9700000000000003E-12
DataValue, 0.32, 0, 7.7000000000000005E-13, -2.4300000000000003E-12, -1.9200000000000003E-12, 7.7000000000000005E-13, 2.4300000000000003E-12, 1.9200000000000003E-12
DataValue, 0.33, 0, 6.1E-13, -2.03E-12, -2.04E-12, 6.1E-13, 2.03E-12, 2.04E-12
DataValue, 0.34, 0, 5E-13, -2.67E-12, -1.6E-12, 5E-13, 2.67E-12, 1.6E-12
DataValue, 0.35000000000000003, 0, -3.0000000000000005E-14, -2.3500000000000003E-12, -2.16E-12, 3.0000000000000005E-14, 2.3500000000000003E-12, 2.16E-12
DataValue, 0.36000000000000004, 0, 4.1E-13, -2.6600000000000004E-12, -1.91E-12, 4.1E-13, 2.6600000000000004E-12, 1.91E-12
DataValue, 0.37, 0, 7.8000000000000011E-13, -2.5500000000000002E-12, -1.86E-12, 7.8000000000000011E-13, 2.5500000000000002E-12, 1.86E-12
DataValue, 0.38, 0, 6.1E-13, -2.29E-12, -1.6800000000000001E-12, 6.1E-13, 2.29E-12, 1.6800000000000001E-12
DataValue, 0.39, 0, 2.8E-13, -2.3300000000000004E-12, -1.7700000000000001E-12, 2.8E-13, 2.3300000000000004E-12, 1.7700000000000001E-12
DataValue, 0.4, 0, 5.6E-13, -2.2000000000000003E-12, -1.91E-12, 5.6E-13, 2.2000000000000003E-12, 1.91E-12
DataValue, 0.41000000000000003, 0, 0, -2.46E-12, -1.86E-12, 0, 2.46E-12, 1.86E-12
DataValue, 0.42000000000000004, 0, 3.1000000000000004E-13, -2.2500000000000003E-12, -1.79E-12, 3.1000000000000004E-13, 2.2500000000000003E-12, 1.79E-12
DataValue, 0.43, 0, 5.5000000000000008E-13, -2.21E-12, -1.8000000000000002E-12, 5.5000000000000008E-13, 2.21E-12, 1.8000000000000002E-12
DataValue, 0.44, 0, 7.100000000000001E-13, -2.47E-12, -1.6800000000000001E-12, 7.100000000000001E-13, 2.47E-12, 1.6800000000000001E-12
DataValue, 0.45, 0, 5.9E-13, -2.4500000000000003E-12, -1.93E-12, 5.9E-13, 2.4500000000000003E-12, 1.93E-12
DataValue, 0.46, 0, 4.2000000000000003E-13, -2.3300000000000004E-12, -1.98E-12, 4.2000000000000003E-13, 2.3300000000000004E-12, 1.98E-12
DataValue, 0.47000000000000003, 0, 2.6E-13, -2.37E-12, -2.0200000000000003E-12, 2.6E-13, 2.37E-12, 2.0200000000000003E-12
DataValue, 0.48000000000000004, 0, 5.3000000000000006E-13, -2.8100000000000003E-12, -1.91E-12, 5.3000000000000006E-13, 2.8100000000000003E-12, 1.91E-12
DataValue, 0.49000000000000005, 0, 5.3000000000000006E-13, -2.19E-12, -2.01E-12, 5.3000000000000006E-13, 2.19E-12, 2.01E-12
DataValue, 0.5, 0, 8.7E-13, -2.6000000000000002E-12, -1.9900000000000002E-12, 8.7E-13, 2.6000000000000002E-12, 1.9900000000000002E-12
DataValue, 0.51, 0, 7.3E-13, -2.5500000000000002E-12, -1.46E-12, 7.3E-13, 2.5500000000000002E-12, 1.46E-12
DataValue, 0.52, 0, 3.5E-13, -2.44E-12, -1.6300000000000001E-12, 3.5E-13, 2.44E-12, 1.6300000000000001E-12
DataValue, 0.53, 0, 4.8000000000000008E-13, -2.7000000000000002E-12, -1.73E-12, 4.8000000000000008E-13, 2.7000000000000002E-12, 1.73E-12
DataValue, 0.54, 0, 4.5000000000000005E-13, -2.62E-12, -1.7700000000000001E-12, 4.5000000000000005E-13, 2.62E-12, 1.7700000000000001E-12
DataValue, 0.55, 0, 5.1E-13, -2.1500000000000003E-12, -1.93E-12, 5.1E-13, 2.1500000000000003E-12, 1.93E-12
DataValue, 0.56, 0, 4.2000000000000003E-13, -2.4500000000000003E-12, -1.5200000000000002E-12, 4.2000000000000003E-13, 2.4500000000000003E-12, 1.5200000000000002E-12
DataValue, 0.57000000000000006, 0, 8.5000000000000011E-13, -2.36E-12, -1.5600000000000002E-12, 8.5000000000000011E-13, 2.36E-12, 1.5600000000000002E-12
DataValue, 0.58000000000000007, 0, 6.3E-13, -2.34E-12, -1.8400000000000002E-12, 6.3E-13, 2.34E-12, 1.8400000000000002E-12
DataValue, 0.59000000000000008, 0, 5.1E-13, -2.5300000000000003E-12, -1.7700000000000001E-12, 5.1E-13, 2.5300000000000003E-12, 1.7700000000000001E-12
DataValue, 0.6, 0, 3.8000000000000005E-13, -2.34E-12, -2.1500000000000003E-12, 3.8000000000000005E-13, 2.34E-12, 2.1500000000000003E-12
DataValue, 0.61, 0, 1.6000000000000003E-13, -2.64E-12, -1.88E-12, 1.6000000000000003E-13, 2.64E-12, 1.88E-12
DataValue, 0.62, 0, 5.2E-13, -2.47E-12, -1.9700000000000003E-12, 5.2E-13, 2.47E-12, 1.9700000000000003E-12
DataValue, 0.63, 0, 5.4E-13, -2.2200000000000002E-12, -1.8100000000000002E-12, 5.4E-13, 2.2200000000000002E-12, 1.8100000000000002E-12
DataValue, 0.64, 0, 7.8000000000000011E-13, -2.18E-12, -1.86E-12, 7.8000000000000011E-13, 2.18E-12, 1.86E-12
DataValue, 0.65, 0, 1.3E-13, -2.5600000000000004E-12, -1.91E-12, 1.3E-13, 2.5600000000000004E-12, 1.91E-12
DataValue, 0.66, 0, 5.6E-13, -2.3200000000000002E-12, -1.96E-12, 5.6E-13, 2.3200000000000002E-12, 1.96E-12
DataValue, 0.67, 0, 3.7000000000000004E-13, -2.6000000000000002E-12, -1.8400000000000002E-12, 3.7000000000000004E-13, 2.6000000000000002E-12, 1.8400000000000002E-12
DataValue, 0.68, 0, 4.7E-13, -2.29E-12, -1.95E-12, 4.7E-13, 2.29E-12, 1.95E-12
DataValue, 0.69000000000000006, 0, 4.9E-13, -2.19E-12, -1.73E-12, 4.9E-13, 2.19E-12, 1.73E-12
DataValue, 0.70000000000000007, 0, 5.6E-13, -2.23E-12, -1.6700000000000002E-12, 5.6E-13, 2.23E-12, 1.6700000000000002E-12
DataValue, 0.71000000000000008, 0, 6.5000000000000006E-13, -2.5300000000000003E-12, -1.5700000000000002E-12, 6.5000000000000006E-13, 2.5300000000000003E-12, 1.5700000000000002E-12
DataValue, 0.72000000000000008, 0, 7.6000000000000009E-13, -2.57E-12, -1.8000000000000002E-12, 7.6000000000000009E-13, 2.57E-12, 1.8000000000000002E-12
DataValue, 0.73, 0, 6.6E-13, -2.1200000000000003E-12, -1.74E-12, 6.6E-13, 2.1200000000000003E-12, 1.74E-12
DataValue, 0.74, 0, 4.3000000000000004E-13, -2.46E-12, -2.06E-12, 4.3000000000000004E-13, 2.46E-12, 2.06E-12
DataValue, 0.75, 0, 7.6000000000000009E-13, -2.51E-12, -1.8700000000000003E-12, 7.6000000000000009E-13, 2.51E-12, 1.8700000000000003E-12
DataValue, 0.76, 0, 8.2E-13, -2.24E-12, -1.5200000000000002E-12, 8.2E-13, 2.24E-12, 1.5200000000000002E-12
DataValue, 0.77, 0, 4.8000000000000008E-13, -2.4000000000000003E-12, -1.86E-12, 4.8000000000000008E-13, 2.4000000000000003E-12, 1.86E-12
DataValue, 0.78, 0, 1.09E-12, -1.9400000000000002E-12, -1.6800000000000001E-12, 1.09E-12, 1.9400000000000002E-12, 1.6800000000000001E-12
DataValue, 0.79, 0, 5.2E-13, -2.6800000000000003E-12, -1.95E-12, 5.2E-13, 2.6800000000000003E-12, 1.95E-12
DataValue, 0.8, 0, 6.3E-13, -2.41E-12, -1.8900000000000002E-12, 6.3E-13, 2.41E-12, 1.8900000000000002E-12
DataValue, 0.81, 0, 5.8000000000000005E-13, -2.49E-12, -1.8200000000000003E-12, 5.8000000000000005E-13, 2.49E-12, 1.8200000000000003E-12
DataValue, 0.82000000000000006, 0, 6.2000000000000008E-13, -2.5000000000000003E-12, -2.0700000000000003E-12, 6.2000000000000008E-13, 2.5000000000000003E-12, 2.0700000000000003E-12
DataValue, 0.83000000000000007, 0, 1.17E-12, -2.72E-12, -1.7000000000000002E-12, 1.17E-12, 2.72E-12, 1.7000000000000002E-12
DataValue, 0.84000000000000008, 0, 8.4000000000000006E-13, -2.41E-12, -1.7500000000000002E-12, 8.4000000000000006E-13, 2.41E-12, 1.7500000000000002E-12
DataValue, 0.85000000000000009, 0, 6.6E-13, -2.21E-12, -1.98E-12, 6.6E-13, 2.21E-12, 1.98E-12
DataValue, 0.86, 0, 1E-13, -2.21E-12, -1.96E-12, 1E-13, 2.21E-12, 1.96E-12
DataValue, 0.87, 0, 3.8000000000000005E-13, -2.42E-12, -2.03E-12, 3.8000000000000005E-13, 2.42E-12, 2.03E-12
DataValue, 0.88, 0, 9.7000000000000011E-13, -2.24E-12, -2.01E-12, 9.7000000000000011E-13, 2.24E-12, 2.01E-12
DataValue, 0.89, 0, 7E-13, -2.28E-12, -1.96E-12, 7E-13, 2.28E-12, 1.96E-12
DataValue, 0.9, 0, 6.5000000000000006E-13, -2.44E-12, -1.3800000000000002E-12, 6.5000000000000006E-13, 2.44E-12, 1.3800000000000002E-12
DataValue, 0.91, 0, 9.3E-13, -2.2000000000000003E-12, -1.96E-12, 9.3E-13, 2.2000000000000003E-12, 1.96E-12
DataValue, 0.92, 0, 1.4E-13, -2.62E-12, -2.09E-12, 1.4E-13, 2.62E-12, 2.09E-12
DataValue, 0.93, 0, 2.7E-13, -2.3300000000000004E-12, -2.01E-12, 2.7E-13, 2.3300000000000004E-12, 2.01E-12
DataValue, 0.94000000000000006, 0, 2.9000000000000003E-13, -2.26E-12, -1.6300000000000001E-12, 2.9000000000000003E-13, 2.26E-12, 1.6300000000000001E-12
DataValue, 0.95000000000000007, 0, 9.6000000000000015E-13, -2.1200000000000003E-12, -1.6600000000000002E-12, 9.6000000000000015E-13, 2.1200000000000003E-12, 1.6600000000000002E-12
DataValue, 0.96000000000000008, 0, 3.9000000000000005E-13, -2.5300000000000003E-12, -1.4900000000000001E-12, 3.9000000000000005E-13, 2.5300000000000003E-12, 1.4900000000000001E-12
DataValue, 0.97000000000000008, 0, 7.3E-13, -2.3000000000000003E-12, -1.9900000000000002E-12, 7.3E-13, 2.3000000000000003E-12, 1.9900000000000002E-12
DataValue, 0.98000000000000009, 0, 1.1000000000000001E-13, -2.3000000000000003E-12, -1.85E-12, 1.1000000000000001E-13, 2.3000000000000003E-12, 1.85E-12
DataValue, 0.9900000000000001, 0, 2.1000000000000001E-13, -2.4300000000000003E-12, -1.96E-12, 2.1000000000000001E-13, 2.4300000000000003E-12, 1.96E-12
DataValue, 1, 0, 5.9E-13, -2.6800000000000003E-12, -1.8700000000000003E-12, 5.9E-13, 2.6800000000000003E-12, 1.8700000000000003E-12
DataValue, 1, 0, 2E-13, -2.4500000000000003E-12, -1.9E-12, 2E-13, 2.4500000000000003E-12, 1.9E-12
DataValue, 0.9900000000000001, 0, 3.8000000000000005E-13, -2.14E-12, -1.9400000000000002E-12, 3.8000000000000005E-13, 2.14E-12, 1.9400000000000002E-12
