
SetupTitle, IdVd_Vg_par
PrimitiveTest, I/V Sweep
TestParameter, Context.MainFrame, B1500A
TestParameter, Channel.UnitType, SMU, SMU, SMU
TestParameter, Channel.Unit, SMU3:HR, SMU2:HR, SMU1:HR
TestParameter, Channel.IName, Id, Ig, Is
TestParameter, Channel.VName, Vd, Vg, Vs
TestParameter, Channel.Mode, V, V, V
TestParameter, Channel.Func, VAR1, VAR2, CONST
TestParameter, Channel.Index, 
TestParameter, Channel.Time, 
TestParameter, Measurement.Port.Unit, SMU3:HR, SMU2:HR, SMU1:HR
TestParameter, Measurement.Port.SeriesResistor, NONE, NONE, NONE
TestParameter, Measurement.Port.Filter, ON, ON, ON
TestParameter, Measurement.Port.OutputVoltageComparison, 0, 0, 0
TestParameter, Measurement.Primary.Locus, Double
TestParameter, Measurement.Primary.Scale, LINEAR
TestParameter, Measurement.Primary.Start, 0
TestParameter, Measurement.Primary.Stop, 1
TestParameter, Measurement.Primary.Step, 0.01
TestParameter, Measurement.Primary.Compliance, 0.01
TestParameter, Measurement.Primary.PowerCompliance, 0
TestParameter, Measurement.Aborting.Condition, CONTINUE AT ANY
TestParameter, Measurement.PostOutput.Value, START
TestParameter, Measurement.PostOutput.Retention, OFF
TestParameter, Measurement.Secondary.Start, 0
TestParameter, Measurement.Secondary.Count, 5
TestParameter, Measurement.Secondary.Step, 0.5
TestParameter, Measurement.Secondary.Compliance, 0.01
TestParameter, Measurement.Secondary.PowerCompliance, 0
TestParameter, Measurement.Bias.Source, 0, 0, 0
TestParameter, Measurement.Bias.Compliance, 0.01, 0.01, 0.01
TestParameter, Measurement.Monitor.Unit, SMU3:HR, SMU2:HR, SMU1:HR
TestParameter, Measurement.Monitor.Adc, HR ADC, HR ADC, HR ADC
TestParameter, Measurement.Monitor.Measurement, Compliance Side, Compliance Side, Compliance Side
TestParameter, Measurement.Monitor.RangingMode, LIMITED, LIMITED, LIMITED
TestParameter, Measurement.Monitor.RangeBoundary, 1nA, 1nA, 1nA
TestParameter, Measurement.Monitor.RangeRating, BY FULL RANGE, BY FULL RANGE, BY FULL RANGE
TestParameter, Measurement.Monitor.RangeRatingCoeff, 50, 50, 50
TestParameter, Measurement.Timing.Hold, 0
TestParameter, Measurement.Timing.Delay, 0
TestParameter, Measurement.Adc.HighSpeed.Mode, AUTO
TestParameter, Measurement.Adc.HighSpeed.Coeff, 1
TestParameter, Measurement.Adc.HighResolution.AutoZero, OFF
TestParameter, Measurement.Adc.HighResolution.Mode, AUTO
TestParameter, Measurement.Adc.HighResolution.Coeff, 6
TestParameter, Measurement.WaitTime.Source.Coeff, 1
TestParameter, Measurement.WaitTime.Source.Offset, 0
TestParameter, Measurement.WaitTime.Monitor.Coeff, 1
TestParameter, Measurement.WaitTime.Monitor.Offset, 0
TestParameter, Function.User.Name, absId, absIg, absIs
TestParameter, Function.User.Unit, A, A, A
TestParameter, Function.User.Definition, abs(Id), abs(Ig), abs(Is)
TestParameter, Output.Graph.Enabled, true
TestParameter, Output.Graph.AutoScaling, false
TestParameter, Output.Graph.XAxis.Data, Vd
TestParameter, Output.Graph.XAxis.Scale, Linear
TestParameter, Output.Graph.XAxis.Left, 0
TestParameter, Output.Graph.XAxis.Right, 2
TestParameter, Output.Graph.XAxis.RunTimeAutoScale, false
TestParameter, Output.Graph.YAxis.Data, absId, absIs
TestParameter, Output.Graph.YAxis.Scale, Linear, Linear
TestParameter, Output.Graph.YAxis.Bottom, 1E-15, 1E-15
TestParameter, Output.Graph.YAxis.Top, 0.001, 0.001
TestParameter, Output.Graph.YAxis.Group, , 
TestParameter, Output.Graph.YAxis.RunTimeAutoScale, true, true
TestParameter, Output.List.Data, Vg, Vd, Id, Is, Ig, absId, absIs, absIg
TestParameter, AutoAnalysis.Interpolation, false
TestParameter, AutoAnalysis.Var2StepCount, 1
TestParameter, AutoAnalysis.Var2StepScript, 
TestParameter, AutoAnalysis.Line1.Enabled, false
TestParameter, AutoAnalysis.Line1.Type, 1
TestParameter, AutoAnalysis.Line1.Fix, True
TestParameter, AutoAnalysis.Line1.YAxis, 0
TestParameter, AutoAnalysis.Line1.Point1.Type, 0
TestParameter, AutoAnalysis.Line1.Point1.XY.X, 
TestParameter, AutoAnalysis.Line1.Point1.XY.Y, 
TestParameter, AutoAnalysis.Line1.Point1.Data.Var, 
TestParameter, AutoAnalysis.Line1.Point1.Data.Condition, 
TestParameter, AutoAnalysis.Line1.Point1.Data.Start, false
TestParameter, AutoAnalysis.Line1.Point1.Data.StartVar, 
TestParameter, AutoAnalysis.Line1.Point1.Data.StartCondition, 
TestParameter, AutoAnalysis.Line1.Point2.Type, 0
TestParameter, AutoAnalysis.Line1.Point2.XY.X, 
TestParameter, AutoAnalysis.Line1.Point2.XY.Y, 
TestParameter, AutoAnalysis.Line1.Point2.Data.Var, 
TestParameter, AutoAnalysis.Line1.Point2.Data.Condition, 
TestParameter, AutoAnalysis.Line1.Point2.Data.Start, false
TestParameter, AutoAnalysis.Line1.Point2.Data.StartVar, 
TestParameter, AutoAnalysis.Line1.Point2.Data.StartCondition, 
TestParameter, AutoAnalysis.Line1.GradientExpr, 0
TestParameter, AutoAnalysis.Line2.Enabled, false
TestParameter, AutoAnalysis.Line2.Type, 1
TestParameter, AutoAnalysis.Line2.Fix, True
TestParameter, AutoAnalysis.Line2.YAxis, 0
TestParameter, AutoAnalysis.Line2.Point1.Type, 0
TestParameter, AutoAnalysis.Line2.Point1.XY.X, 
TestParameter, AutoAnalysis.Line2.Point1.XY.Y, 
TestParameter, AutoAnalysis.Line2.Point1.Data.Var, 
TestParameter, AutoAnalysis.Line2.Point1.Data.Condition, 
TestParameter, AutoAnalysis.Line2.Point1.Data.Start, false
TestParameter, AutoAnalysis.Line2.Point1.Data.StartVar, 
TestParameter, AutoAnalysis.Line2.Point1.Data.StartCondition, 
TestParameter, AutoAnalysis.Line2.Point2.Type, 0
TestParameter, AutoAnalysis.Line2.Point2.XY.X, 
TestParameter, AutoAnalysis.Line2.Point2.XY.Y, 
TestParameter, AutoAnalysis.Line2.Point2.Data.Var, 
TestParameter, AutoAnalysis.Line2.Point2.Data.Condition, 
TestParameter, AutoAnalysis.Line2.Point2.Data.Start, false
TestParameter, AutoAnalysis.Line2.Point2.Data.StartVar, 
TestParameter, AutoAnalysis.Line2.Point2.Data.StartCondition, 
TestParameter, AutoAnalysis.Line2.GradientExpr, 0
TestParameter, AutoAnalysis.Marker.Enabled, false
TestParameter, AutoAnalysis.Marker.Data.Var, 
TestParameter, AutoAnalysis.Marker.Data.Condition, 
TestParameter, AutoAnalysis.Marker.Data.Start, false
TestParameter, AutoAnalysis.Marker.Data.StartVar, 
TestParameter, AutoAnalysis.Marker.Data.StartCondition, 
MetaData, TestRecord.EntryPoint, true
MetaData, TestRecord.RecordTime, 06/03/2025 14:35:10
MetaData, TestRecord.TestTarget, R[7]_D[6]_L[60]
MetaData, TestRecord.IterationIndex, 1
MetaData, TestRecord.Preservation, true
MetaData, TestRecord.Flag, !
MetaData, TestRecord.Remarks, 
MetaData, TestRecord.LinkKey, 64d03120-adf8-4c7b-a8dc-6b09a916e5b9
MetaData, TestRecord.Parameters, 
Dimension1, 202, 202, 202, 202, 202, 202, 202, 202
Dimension2, 5, 5, 5, 5, 5, 5, 5, 5
DataName, Vd, Vg, Id, Ig, Is, absId, absIg, absIs
DataValue, 0, 0, 7.6157000000000012E-11, 2.3450000000000002E-12, -1.0657600000000001E-10, 7.6157000000000012E-11, 2.3450000000000002E-12, 1.0657600000000001E-10
DataValue, 0.01, 0, 2.59584E-08, 1.8950000000000003E-12, -2.6051199999999997E-08, 2.59584E-08, 1.8950000000000003E-12, 2.6051199999999997E-08
DataValue, 0.02, 0, 4.9871799999999994E-08, 1.905E-12, -4.9144399999999995E-08, 4.9871799999999994E-08, 1.905E-12, 4.9144399999999995E-08
DataValue, 0.030000000000000002, 0, 7.1628399999999993E-08, 2.115E-12, -6.997E-08, 7.1628399999999993E-08, 2.115E-12, 6.997E-08
DataValue, 0.04, 0, 8.84656E-08, 2.435E-12, -8.97322E-08, 8.84656E-08, 2.435E-12, 8.97322E-08
DataValue, 0.05, 0, 1.0475919999999999E-07, 2.155E-12, -1.04938E-07, 1.0475919999999999E-07, 2.155E-12, 1.04938E-07
DataValue, 0.060000000000000005, 0, 1.1804E-07, 2.2750000000000003E-12, -1.2052E-07, 1.1804E-07, 2.2750000000000003E-12, 1.2052E-07
DataValue, 0.07, 0, 1.326E-07, 2.385E-12, -1.3068E-07, 1.326E-07, 2.385E-12, 1.3068E-07
DataValue, 0.08, 0, 1.4494E-07, 2.435E-12, -1.437E-07, 1.4494E-07, 2.435E-12, 1.437E-07
DataValue, 0.090000000000000011, 0, 1.5274E-07, 2.5250000000000002E-12, -1.495E-07, 1.5274E-07, 2.5250000000000002E-12, 1.495E-07
DataValue, 0.1, 0, 1.6036E-07, 2.215E-12, -1.5967999999999999E-07, 1.6036E-07, 2.215E-12, 1.5967999999999999E-07
DataValue, 0.11, 0, 1.7069999999999999E-07, 2.385E-12, -1.7354E-07, 1.7069999999999999E-07, 2.385E-12, 1.7354E-07
DataValue, 0.12000000000000001, 0, 1.8094E-07, 2.415E-12, -1.8196E-07, 1.8094E-07, 2.415E-12, 1.8196E-07
DataValue, 0.13, 0, 1.9102E-07, 2.035E-12, -1.9192E-07, 1.9102E-07, 2.035E-12, 1.9192E-07
DataValue, 0.14, 0, 2.0042E-07, 2.0950000000000003E-12, -1.9994E-07, 2.0042E-07, 2.0950000000000003E-12, 1.9994E-07
DataValue, 0.15, 0, 2.0754E-07, 2.165E-12, -2.0138E-07, 2.0754E-07, 2.165E-12, 2.0138E-07
DataValue, 0.16, 0, 2.129E-07, 2.205E-12, -2.135E-07, 2.129E-07, 2.205E-12, 2.135E-07
DataValue, 0.17, 0, 2.212E-07, 1.9650000000000002E-12, -2.1957999999999999E-07, 2.212E-07, 1.9650000000000002E-12, 2.1957999999999999E-07
DataValue, 0.18000000000000002, 0, 2.3012E-07, 2.395E-12, -2.2724E-07, 2.3012E-07, 2.395E-12, 2.2724E-07
DataValue, 0.19, 0, 2.3412E-07, 2.265E-12, -2.298E-07, 2.3412E-07, 2.265E-12, 2.298E-07
DataValue, 0.2, 0, 2.359E-07, 2.165E-12, -2.4184E-07, 2.359E-07, 2.165E-12, 2.4184E-07
DataValue, 0.21000000000000002, 0, 2.4292E-07, 2.545E-12, -2.3961999999999997E-07, 2.4292E-07, 2.545E-12, 2.3961999999999997E-07
DataValue, 0.22, 0, 2.4508E-07, 2.115E-12, -2.4658E-07, 2.4508E-07, 2.115E-12, 2.4658E-07
DataValue, 0.23, 0, 2.5378E-07, 2.235E-12, -2.5746E-07, 2.5378E-07, 2.235E-12, 2.5746E-07
DataValue, 0.24000000000000002, 0, 2.6324E-07, 2.2750000000000003E-12, -2.5936E-07, 2.6324E-07, 2.2750000000000003E-12, 2.5936E-07
DataValue, 0.25, 0, 2.6308E-07, 2.4250000000000003E-12, -2.6452E-07, 2.6308E-07, 2.4250000000000003E-12, 2.6452E-07
DataValue, 0.26, 0, 2.7238E-07, 2.315E-12, -2.7506E-07, 2.7238E-07, 2.315E-12, 2.7506E-07
DataValue, 0.27, 0, 2.771E-07, 2.1750000000000003E-12, -2.7744E-07, 2.771E-07, 2.1750000000000003E-12, 2.7744E-07
DataValue, 0.28, 0, 2.8204E-07, 2.335E-12, -2.8246E-07, 2.8204E-07, 2.335E-12, 2.8246E-07
DataValue, 0.29000000000000004, 0, 2.8594E-07, 2.235E-12, -2.9058E-07, 2.8594E-07, 2.235E-12, 2.9058E-07
DataValue, 0.3, 0, 2.9498E-07, 2.315E-12, -2.9454E-07, 2.9498E-07, 2.315E-12, 2.9454E-07
DataValue, 0.31, 0, 2.9308E-07, 2.135E-12, -2.9699999999999997E-07, 2.9308E-07, 2.135E-12, 2.9699999999999997E-07
DataValue, 0.32, 0, 3.0284E-07, 1.9650000000000002E-12, -3.0576E-07, 3.0284E-07, 1.9650000000000002E-12, 3.0576E-07
DataValue, 0.33, 0, 3.093E-07, 1.975E-12, -3.1484E-07, 3.093E-07, 1.975E-12, 3.1484E-07
DataValue, 0.34, 0, 3.1416E-07, 2.085E-12, -3.1522E-07, 3.1416E-07, 2.085E-12, 3.1522E-07
DataValue, 0.35000000000000003, 0, 3.1442E-07, 2.065E-12, -3.185E-07, 3.1442E-07, 2.065E-12, 3.185E-07
DataValue, 0.36000000000000004, 0, 3.2785999999999997E-07, 2.435E-12, -3.2066E-07, 3.2785999999999997E-07, 2.435E-12, 3.2066E-07
DataValue, 0.37, 0, 3.278E-07, 2.265E-12, -3.3396E-07, 3.278E-07, 2.265E-12, 3.3396E-07
DataValue, 0.38, 0, 3.3592E-07, 2.105E-12, -3.3709999999999997E-07, 3.3592E-07, 2.105E-12, 3.3709999999999997E-07
DataValue, 0.39, 0, 3.3804E-07, 2.015E-12, -3.3582E-07, 3.3804E-07, 2.015E-12, 3.3582E-07
DataValue, 0.4, 0, 3.3796E-07, 2.5250000000000002E-12, -3.4162E-07, 3.3796E-07, 2.5250000000000002E-12, 3.4162E-07
DataValue, 0.41000000000000003, 0, 3.4662E-07, 2.255E-12, -3.5516E-07, 3.4662E-07, 2.255E-12, 3.5516E-07
DataValue, 0.42000000000000004, 0, 3.5282E-07, 2.085E-12, -3.528E-07, 3.5282E-07, 2.085E-12, 3.528E-07
DataValue, 0.43, 0, 3.5703999999999997E-07, 2.265E-12, -3.5032E-07, 3.5703999999999997E-07, 2.265E-12, 3.5032E-07
DataValue, 0.44, 0, 3.6158E-07, 2.415E-12, -3.5636E-07, 3.6158E-07, 2.415E-12, 3.5636E-07
DataValue, 0.45, 0, 3.6473999999999997E-07, 2.365E-12, -3.657E-07, 3.6473999999999997E-07, 2.365E-12, 3.657E-07
DataValue, 0.46, 0, 3.7298E-07, 2.4050000000000004E-12, -3.7442E-07, 3.7298E-07, 2.4050000000000004E-12, 3.7442E-07
DataValue, 0.47000000000000003, 0, 3.657E-07, 2.235E-12, -3.6935999999999997E-07, 3.657E-07, 2.235E-12, 3.6935999999999997E-07
DataValue, 0.48000000000000004, 0, 3.7302E-07, 2.015E-12, -3.6818E-07, 3.7302E-07, 2.015E-12, 3.6818E-07
DataValue, 0.49000000000000005, 0, 3.7466E-07, 2.615E-12, -3.8134E-07, 3.7466E-07, 2.615E-12, 3.8134E-07
DataValue, 0.5, 0, 3.7392E-07, 1.985E-12, -3.777E-07, 3.7392E-07, 1.985E-12, 3.777E-07
DataValue, 0.51, 0, 3.8023999999999997E-07, 2.255E-12, -3.8016E-07, 3.8023999999999997E-07, 2.255E-12, 3.8016E-07
DataValue, 0.52, 0, 3.8093999999999997E-07, 1.825E-12, -3.8468E-07, 3.8093999999999997E-07, 1.825E-12, 3.8468E-07
DataValue, 0.53, 0, 3.8312E-07, 2.1450000000000003E-12, -3.7966E-07, 3.8312E-07, 2.1450000000000003E-12, 3.7966E-07
DataValue, 0.54, 0, 3.8625999999999997E-07, 1.7850000000000002E-12, -3.8719999999999997E-07, 3.8625999999999997E-07, 1.7850000000000002E-12, 3.8719999999999997E-07
DataValue, 0.55, 0, 3.8502E-07, 2.215E-12, -3.9048E-07, 3.8502E-07, 2.215E-12, 3.9048E-07
DataValue, 0.56, 0, 3.9932E-07, 2.215E-12, -3.9412E-07, 3.9932E-07, 2.215E-12, 3.9412E-07
DataValue, 0.57000000000000006, 0, 3.9338E-07, 2.3050000000000004E-12, -4.0216E-07, 3.9338E-07, 2.3050000000000004E-12, 4.0216E-07
DataValue, 0.58000000000000007, 0, 4.1268E-07, 2.135E-12, -3.9548E-07, 4.1268E-07, 2.135E-12, 3.9548E-07
DataValue, 0.59000000000000008, 0, 4.1384E-07, 2.165E-12, -4.1996E-07, 4.1384E-07, 2.165E-12, 4.1996E-07
DataValue, 0.6, 0, 4.2536E-07, 2.185E-12, -4.1772E-07, 4.2536E-07, 2.185E-12, 4.1772E-07
DataValue, 0.61, 0, 4.1604E-07, 2.565E-12, -4.2246E-07, 4.1604E-07, 2.565E-12, 4.2246E-07
DataValue, 0.62, 0, 4.275E-07, 2.0250000000000004E-12, -4.3E-07, 4.275E-07, 2.0250000000000004E-12, 4.3E-07
DataValue, 0.63, 0, 4.3358E-07, 2.2950000000000002E-12, -4.2827999999999997E-07, 4.3358E-07, 2.2950000000000002E-12, 4.2827999999999997E-07
DataValue, 0.64, 0, 4.4106E-07, 2.155E-12, -4.425E-07, 4.4106E-07, 2.155E-12, 4.425E-07
DataValue, 0.65, 0, 4.419E-07, 2.435E-12, -4.4374E-07, 4.419E-07, 2.435E-12, 4.4374E-07
DataValue, 0.66, 0, 4.5126E-07, 2.4750000000000003E-12, -4.5458E-07, 4.5126E-07, 2.4750000000000003E-12, 4.5458E-07
DataValue, 0.67, 0, 4.6248E-07, 2.3750000000000003E-12, -4.4998E-07, 4.6248E-07, 2.3750000000000003E-12, 4.4998E-07
DataValue, 0.68, 0, 4.552E-07, 2.1950000000000002E-12, -4.5647999999999997E-07, 4.552E-07, 2.1950000000000002E-12, 4.5647999999999997E-07
DataValue, 0.69000000000000006, 0, 4.6408E-07, 2.2250000000000003E-12, -4.5818E-07, 4.6408E-07, 2.2250000000000003E-12, 4.5818E-07
DataValue, 0.70000000000000007, 0, 4.7351999999999997E-07, 2.115E-12, -4.6164E-07, 4.7351999999999997E-07, 2.115E-12, 4.6164E-07
DataValue, 0.71000000000000008, 0, 4.7519999999999997E-07, 1.9650000000000002E-12, -4.6735999999999997E-07, 4.7519999999999997E-07, 1.9650000000000002E-12, 4.6735999999999997E-07
DataValue, 0.72000000000000008, 0, 4.7344E-07, 2.065E-12, -4.6864E-07, 4.7344E-07, 2.065E-12, 4.6864E-07
DataValue, 0.73, 0, 4.7018E-07, 2.4050000000000004E-12, -4.758E-07, 4.7018E-07, 2.4050000000000004E-12, 4.758E-07
DataValue, 0.74, 0, 4.8226E-07, 2.105E-12, -4.9878E-07, 4.8226E-07, 2.105E-12, 4.9878E-07
DataValue, 0.75, 0, 4.8458E-07, 2.255E-12, -4.8954E-07, 4.8458E-07, 2.255E-12, 4.8954E-07
DataValue, 0.76, 0, 4.9598E-07, 2.3550000000000004E-12, -4.9772E-07, 4.9598E-07, 2.3550000000000004E-12, 4.9772E-07
DataValue, 0.77, 0, 5.0364E-07, 2.0950000000000003E-12, -4.9796E-07, 5.0364E-07, 2.0950000000000003E-12, 4.9796E-07
DataValue, 0.78, 0, 5.1508E-07, 2.265E-12, -5.0788E-07, 5.1508E-07, 2.265E-12, 5.0788E-07
DataValue, 0.79, 0, 5.3488E-07, 1.835E-12, -5.1274E-07, 5.3488E-07, 1.835E-12, 5.1274E-07
DataValue, 0.8, 0, 5.2206E-07, 2.285E-12, -5.3164E-07, 5.2206E-07, 2.285E-12, 5.3164E-07
DataValue, 0.81, 0, 5.253E-07, 2.3050000000000004E-12, -5.2366E-07, 5.253E-07, 2.3050000000000004E-12, 5.2366E-07
DataValue, 0.82000000000000006, 0, 5.3133999999999994E-07, 2.5050000000000003E-12, -5.2568E-07, 5.3133999999999994E-07, 2.5050000000000003E-12, 5.2568E-07
DataValue, 0.83000000000000007, 0, 5.3514E-07, 2.2750000000000003E-12, -5.416E-07, 5.3514E-07, 2.2750000000000003E-12, 5.416E-07
DataValue, 0.84000000000000008, 0, 5.4672E-07, 2.0250000000000004E-12, -5.59E-07, 5.4672E-07, 2.0250000000000004E-12, 5.59E-07
DataValue, 0.85000000000000009, 0, 5.5742E-07, 1.8450000000000003E-12, -5.5576E-07, 5.5742E-07, 1.8450000000000003E-12, 5.5576E-07
DataValue, 0.86, 0, 5.5522E-07, 2.4250000000000003E-12, -5.609E-07, 5.5522E-07, 2.4250000000000003E-12, 5.609E-07
DataValue, 0.87, 0, 5.5678E-07, 2.205E-12, -5.5528E-07, 5.5678E-07, 2.205E-12, 5.5528E-07
DataValue, 0.88, 0, 5.5953999999999994E-07, 2.135E-12, -5.4502E-07, 5.5953999999999994E-07, 2.135E-12, 5.4502E-07
DataValue, 0.89, 0, 5.6882E-07, 2.235E-12, -5.6236E-07, 5.6882E-07, 2.235E-12, 5.6236E-07
DataValue, 0.9, 0, 5.6271999999999995E-07, 2.205E-12, -5.5946E-07, 5.6271999999999995E-07, 2.205E-12, 5.5946E-07
DataValue, 0.91, 0, 5.8302E-07, 2.155E-12, -5.674E-07, 5.8302E-07, 2.155E-12, 5.674E-07
DataValue, 0.92, 0, 5.709E-07, 2.545E-12, -5.6538E-07, 5.709E-07, 2.545E-12, 5.6538E-07
DataValue, 0.93, 0, 5.7363999999999994E-07, 2.235E-12, -5.749E-07, 5.7363999999999994E-07, 2.235E-12, 5.749E-07
DataValue, 0.94000000000000006, 0, 5.7886E-07, 2.235E-12, -5.7602E-07, 5.7886E-07, 2.235E-12, 5.7602E-07
DataValue, 0.95000000000000007, 0, 5.9154E-07, 2.285E-12, -5.9221999999999994E-07, 5.9154E-07, 2.285E-12, 5.9221999999999994E-07
DataValue, 0.96000000000000008, 0, 5.8498E-07, 1.8450000000000003E-12, -5.846E-07, 5.8498E-07, 1.8450000000000003E-12, 5.846E-07
DataValue, 0.97000000000000008, 0, 5.8702E-07, 2.3050000000000004E-12, -5.9824E-07, 5.8702E-07, 2.3050000000000004E-12, 5.9824E-07
DataValue, 0.98000000000000009, 0, 6.0126E-07, 2.4050000000000004E-12, -5.9954E-07, 6.0126E-07, 2.4050000000000004E-12, 5.9954E-07
DataValue, 0.9900000000000001, 0, 5.9669999999999994E-07, 2.1250000000000003E-12, -5.8694E-07, 5.9669999999999994E-07, 2.1250000000000003E-12, 5.8694E-07
DataValue, 1, 0, 6.2078E-07, 2.2950000000000002E-12, -6.1302E-07, 6.2078E-07, 2.2950000000000002E-12, 6.1302E-07
DataValue, 1, 0, 6.1308E-07, 2.185E-12, -6.16E-07, 6.1308E-07, 2.185E-12, 6.16E-07
DataValue, 0.9900000000000001, 0, 6.0344E-07, 2.015E-12, -6.2E-07, 6.0344E-07, 2.015E-12, 6.2E-07
DataValue, 0.98000000000000009, 0, 6.1079999999999994E-07, 2.165E-12, -6.1486E-07, 6.1079999999999994E-07, 2.165E-12, 6.1486E-07
DataValue, 0.97000000000000008, 0, 6.0855999999999994E-07, 2.205E-12, -6.2442E-07, 6.0855999999999994E-07, 2.205E-12, 6.2442E-07
DataValue, 0.96000000000000008, 0, 6.077E-07, 2.265E-12, -6.0722E-07, 6.077E-07, 2.265E-12, 6.0722E-07
DataValue, 0.95000000000000007, 0, 6.008E-07, 2.1950000000000002E-12, -5.9028E-07, 6.008E-07, 2.1950000000000002E-12, 5.9028E-07
DataValue, 0.94000000000000006, 0, 5.8742E-07, 2.255E-12, -5.9732E-07, 5.8742E-07, 2.255E-12, 5.9732E-07
DataValue, 0.93, 0, 5.6908E-07, 2.1450000000000003E-12, -5.621E-07, 5.6908E-07, 2.1450000000000003E-12, 5.621E-07
DataValue, 0.92, 0, 5.5169999999999994E-07, 2.565E-12, -5.6215999999999995E-07, 5.5169999999999994E-07, 2.565E-12, 5.6215999999999995E-07
DataValue, 0.91, 0, 5.692E-07, 2.385E-12, -5.642E-07, 5.692E-07, 2.385E-12, 5.642E-07
DataValue, 0.9, 0, 5.6838E-07, 1.8950000000000003E-12, -5.6915999999999994E-07, 5.6838E-07, 1.8950000000000003E-12, 5.6915999999999994E-07
DataValue, 0.89, 0, 5.6604E-07, 2.825E-12, -5.6663999999999994E-07, 5.6604E-07, 2.825E-12, 5.6663999999999994E-07
DataValue, 0.88, 0, 5.5044E-07, 1.9450000000000003E-12, -5.5744E-07, 5.5044E-07, 1.9450000000000003E-12, 5.5744E-07
DataValue, 0.87, 0, 5.6494E-07, 2.155E-12, -5.5296E-07, 5.6494E-07, 2.155E-12, 5.5296E-07
DataValue, 0.86, 0, 5.565E-07, 2.385E-12, -5.5516E-07, 5.565E-07, 2.385E-12, 5.5516E-07
DataValue, 0.85000000000000009, 0, 5.5596E-07, 2.3050000000000004E-12, -5.528E-07, 5.5596E-07, 2.3050000000000004E-12, 5.528E-07
