
SetupTitle, IdVd_Vg_par
PrimitiveTest, I/V Sweep
TestParameter, Context.MainFrame, B1500A
TestParameter, Channel.UnitType, SMU, SMU, SMU
TestParameter, Channel.Unit, SMU3:HR, SMU2:HR, SMU1:HR
TestParameter, Channel.IName, Id, Ig, Is
TestParameter, Channel.VName, Vd, Vg, Vs
TestParameter, Channel.Mode, V, V, V
TestParameter, Channel.Func, VAR1, VAR2, CONST
TestParameter, Channel.Index, 
TestParameter, Channel.Time, 
TestParameter, Measurement.Port.Unit, SMU3:HR, SMU2:HR, SMU1:HR
TestParameter, Measurement.Port.SeriesResistor, NONE, NONE, NONE
TestParameter, Measurement.Port.Filter, ON, ON, ON
TestParameter, Measurement.Port.OutputVoltageComparison, 0, 0, 0
TestParameter, Measurement.Primary.Locus, Double
TestParameter, Measurement.Primary.Scale, LINEAR
TestParameter, Measurement.Primary.Start, 0
TestParameter, Measurement.Primary.Stop, 1
TestParameter, Measurement.Primary.Step, 0.01
TestParameter, Measurement.Primary.Compliance, 0.01
TestParameter, Measurement.Primary.PowerCompliance, 0
TestParameter, Measurement.Aborting.Condition, CONTINUE AT ANY
TestParameter, Measurement.PostOutput.Value, START
TestParameter, Measurement.PostOutput.Retention, OFF
TestParameter, Measurement.Secondary.Start, 0.5
TestParameter, Measurement.Secondary.Count, 7
TestParameter, Measurement.Secondary.Step, 0.25
TestParameter, Measurement.Secondary.Compliance, 0.01
TestParameter, Measurement.Secondary.PowerCompliance, 0
TestParameter, Measurement.Bias.Source, 0, 0.5, 0
TestParameter, Measurement.Bias.Compliance, 0.01, 0.01, 0.01
TestParameter, Measurement.Monitor.Unit, SMU3:HR, SMU2:HR, SMU1:HR
TestParameter, Measurement.Monitor.Adc, HR ADC, HR ADC, HR ADC
TestParameter, Measurement.Monitor.Measurement, Compliance Side, Compliance Side, Compliance Side
TestParameter, Measurement.Monitor.RangingMode, LIMITED, LIMITED, LIMITED
TestParameter, Measurement.Monitor.RangeBoundary, 1nA, 1nA, 1nA
TestParameter, Measurement.Monitor.RangeRating, BY FULL RANGE, BY FULL RANGE, BY FULL RANGE
TestParameter, Measurement.Monitor.RangeRatingCoeff, 50, 50, 50
TestParameter, Measurement.Timing.Hold, 0
TestParameter, Measurement.Timing.Delay, 0
TestParameter, Measurement.Adc.HighSpeed.Mode, AUTO
TestParameter, Measurement.Adc.HighSpeed.Coeff, 1
TestParameter, Measurement.Adc.HighResolution.AutoZero, OFF
TestParameter, Measurement.Adc.HighResolution.Mode, AUTO
TestParameter, Measurement.Adc.HighResolution.Coeff, 6
TestParameter, Measurement.WaitTime.Source.Coeff, 1
TestParameter, Measurement.WaitTime.Source.Offset, 0
TestParameter, Measurement.WaitTime.Monitor.Coeff, 1
TestParameter, Measurement.WaitTime.Monitor.Offset, 0
TestParameter, Function.User.Name, absId, absIg, absIs
TestParameter, Function.User.Unit, A, A, A
TestParameter, Function.User.Definition, abs(Id), abs(Ig), abs(Is)
TestParameter, Output.Graph.Enabled, true
TestParameter, Output.Graph.AutoScaling, false
TestParameter, Output.Graph.XAxis.Data, Vd
TestParameter, Output.Graph.XAxis.Scale, Linear
TestParameter, Output.Graph.XAxis.Left, 0
TestParameter, Output.Graph.XAxis.Right, 2
TestParameter, Output.Graph.XAxis.RunTimeAutoScale, false
TestParameter, Output.Graph.YAxis.Data, absId, absIs
TestParameter, Output.Graph.YAxis.Scale, Linear, Linear
TestParameter, Output.Graph.YAxis.Bottom, 1E-15, 1E-15
TestParameter, Output.Graph.YAxis.Top, 0.001, 0.001
TestParameter, Output.Graph.YAxis.Group, , 
TestParameter, Output.Graph.YAxis.RunTimeAutoScale, true, true
TestParameter, Output.List.Data, Vg, Vd, Id, Is, Ig, absId, absIs, absIg
TestParameter, AutoAnalysis.Interpolation, false
TestParameter, AutoAnalysis.Var2StepCount, 1
TestParameter, AutoAnalysis.Var2StepScript, 
TestParameter, AutoAnalysis.Line1.Enabled, false
TestParameter, AutoAnalysis.Line1.Type, 1
TestParameter, AutoAnalysis.Line1.Fix, True
TestParameter, AutoAnalysis.Line1.YAxis, 0
TestParameter, AutoAnalysis.Line1.Point1.Type, 0
TestParameter, AutoAnalysis.Line1.Point1.XY.X, 
TestParameter, AutoAnalysis.Line1.Point1.XY.Y, 
TestParameter, AutoAnalysis.Line1.Point1.Data.Var, 
TestParameter, AutoAnalysis.Line1.Point1.Data.Condition, 
TestParameter, AutoAnalysis.Line1.Point1.Data.Start, false
TestParameter, AutoAnalysis.Line1.Point1.Data.StartVar, 
TestParameter, AutoAnalysis.Line1.Point1.Data.StartCondition, 
TestParameter, AutoAnalysis.Line1.Point2.Type, 0
TestParameter, AutoAnalysis.Line1.Point2.XY.X, 
TestParameter, AutoAnalysis.Line1.Point2.XY.Y, 
TestParameter, AutoAnalysis.Line1.Point2.Data.Var, 
TestParameter, AutoAnalysis.Line1.Point2.Data.Condition, 
TestParameter, AutoAnalysis.Line1.Point2.Data.Start, false
TestParameter, AutoAnalysis.Line1.Point2.Data.StartVar, 
TestParameter, AutoAnalysis.Line1.Point2.Data.StartCondition, 
TestParameter, AutoAnalysis.Line1.GradientExpr, 0
TestParameter, AutoAnalysis.Line2.Enabled, false
TestParameter, AutoAnalysis.Line2.Type, 1
TestParameter, AutoAnalysis.Line2.Fix, True
TestParameter, AutoAnalysis.Line2.YAxis, 0
TestParameter, AutoAnalysis.Line2.Point1.Type, 0
TestParameter, AutoAnalysis.Line2.Point1.XY.X, 
TestParameter, AutoAnalysis.Line2.Point1.XY.Y, 
TestParameter, AutoAnalysis.Line2.Point1.Data.Var, 
TestParameter, AutoAnalysis.Line2.Point1.Data.Condition, 
TestParameter, AutoAnalysis.Line2.Point1.Data.Start, false
TestParameter, AutoAnalysis.Line2.Point1.Data.StartVar, 
TestParameter, AutoAnalysis.Line2.Point1.Data.StartCondition, 
TestParameter, AutoAnalysis.Line2.Point2.Type, 0
TestParameter, AutoAnalysis.Line2.Point2.XY.X, 
TestParameter, AutoAnalysis.Line2.Point2.XY.Y, 
TestParameter, AutoAnalysis.Line2.Point2.Data.Var, 
TestParameter, AutoAnalysis.Line2.Point2.Data.Condition, 
TestParameter, AutoAnalysis.Line2.Point2.Data.Start, false
TestParameter, AutoAnalysis.Line2.Point2.Data.StartVar, 
TestParameter, AutoAnalysis.Line2.Point2.Data.StartCondition, 
TestParameter, AutoAnalysis.Line2.GradientExpr, 0
TestParameter, AutoAnalysis.Marker.Enabled, false
TestParameter, AutoAnalysis.Marker.Data.Var, 
TestParameter, AutoAnalysis.Marker.Data.Condition, 
TestParameter, AutoAnalysis.Marker.Data.Start, false
TestParameter, AutoAnalysis.Marker.Data.StartVar, 
TestParameter, AutoAnalysis.Marker.Data.StartCondition, 
MetaData, TestRecord.EntryPoint, true
MetaData, TestRecord.RecordTime, 06/03/2025 16:05:59
MetaData, TestRecord.TestTarget, R[5]_D[6]_L[200]
MetaData, TestRecord.IterationIndex, 1
MetaData, TestRecord.Preservation, true
MetaData, TestRecord.Flag, !
MetaData, TestRecord.Remarks, 
MetaData, TestRecord.LinkKey, a9a7c220-f505-44f9-90cf-146589507971
MetaData, TestRecord.Parameters, 
Dimension1, 202, 202, 202, 202, 202, 202, 202, 202
Dimension2, 7, 7, 7, 7, 7, 7, 7, 7
DataName, Vd, Vg, Id, Ig, Is, absId, absIg, absIs
DataValue, 0, 0.5, 3.2247700000000003E-10, 1.475E-12, -4.6566000000000005E-11, 3.2247700000000003E-10, 1.475E-12, 4.6566000000000005E-11
DataValue, 0.01, 0.5, 8.38184E-08, 1.835E-12, -8.41304E-08, 8.38184E-08, 1.835E-12, 8.41304E-08
DataValue, 0.02, 0.5, 1.6272E-07, 1.815E-12, -1.628E-07, 1.6272E-07, 1.815E-12, 1.628E-07
DataValue, 0.030000000000000002, 0.5, 2.3808E-07, 7.95E-13, -2.3742E-07, 2.3808E-07, 7.95E-13, 2.3742E-07
DataValue, 0.04, 0.5, 3.06E-07, 1.875E-12, -3.086E-07, 3.06E-07, 1.875E-12, 3.086E-07
DataValue, 0.05, 0.5, 3.727E-07, 1.255E-12, -3.7234E-07, 3.727E-07, 1.255E-12, 3.7234E-07
DataValue, 0.060000000000000005, 0.5, 4.3579999999999997E-07, 5.0500000000000007E-13, -4.3306E-07, 4.3579999999999997E-07, 5.0500000000000007E-13, 4.3306E-07
DataValue, 0.07, 0.5, 4.9112E-07, 1.8650000000000002E-12, -4.8986E-07, 4.9112E-07, 1.8650000000000002E-12, 4.8986E-07
DataValue, 0.08, 0.5, 5.4508E-07, 1.375E-12, -5.4408E-07, 5.4508E-07, 1.375E-12, 5.4408E-07
DataValue, 0.090000000000000011, 0.5, 5.921E-07, 1.2150000000000002E-12, -5.9298E-07, 5.921E-07, 1.2150000000000002E-12, 5.9298E-07
DataValue, 0.1, 0.5, 6.3842E-07, 1.815E-12, -6.3598E-07, 6.3842E-07, 1.815E-12, 6.3598E-07
DataValue, 0.11, 0.5, 6.7798E-07, 1.4550000000000002E-12, -6.7864E-07, 6.7798E-07, 1.4550000000000002E-12, 6.7864E-07
DataValue, 0.12000000000000001, 0.5, 7.1659999999999994E-07, 6.85E-13, -7.1728E-07, 7.1659999999999994E-07, 6.85E-13, 7.1728E-07
DataValue, 0.13, 0.5, 7.5328E-07, 2.165E-12, -7.5244E-07, 7.5328E-07, 2.165E-12, 7.5244E-07
DataValue, 0.14, 0.5, 7.915E-07, 1.235E-12, -7.9178E-07, 7.915E-07, 1.235E-12, 7.9178E-07
DataValue, 0.15, 0.5, 8.2242E-07, 9.25E-13, -8.1916E-07, 8.2242E-07, 9.25E-13, 8.1916E-07
DataValue, 0.16, 0.5, 8.4451999999999994E-07, 1.975E-12, -8.4678E-07, 8.4451999999999994E-07, 1.975E-12, 8.4678E-07
DataValue, 0.17, 0.5, 8.7756E-07, 1.3150000000000002E-12, -8.7762E-07, 8.7756E-07, 1.3150000000000002E-12, 8.7762E-07
DataValue, 0.18000000000000002, 0.5, 9.0622E-07, 1.185E-12, -9.0336E-07, 9.0622E-07, 1.185E-12, 9.0336E-07
DataValue, 0.19, 0.5, 9.2776E-07, 1.5950000000000002E-12, -9.2771999999999995E-07, 9.2776E-07, 1.5950000000000002E-12, 9.2771999999999995E-07
DataValue, 0.2, 0.5, 9.4668E-07, 1.3250000000000001E-12, -9.442E-07, 9.4668E-07, 1.3250000000000001E-12, 9.442E-07
DataValue, 0.21000000000000002, 0.5, 9.6786E-07, 8.5500000000000009E-13, -9.6534E-07, 9.6786E-07, 8.5500000000000009E-13, 9.6534E-07
DataValue, 0.22, 0.5, 9.8648E-07, 2.065E-12, -9.8238E-07, 9.8648E-07, 2.065E-12, 9.8238E-07
DataValue, 0.23, 0.5, 9.9784E-07, 9.75E-13, -9.9562E-07, 9.9784E-07, 9.75E-13, 9.9562E-07
DataValue, 0.24000000000000002, 0.5, 1.0083E-06, 1.1350000000000001E-12, -1.00882E-06, 1.0083E-06, 1.1350000000000001E-12, 1.00882E-06
DataValue, 0.25, 0.5, 1.0225E-06, 1.675E-12, -1.02654E-06, 1.0225E-06, 1.675E-12, 1.02654E-06
DataValue, 0.26, 0.5, 1.03932E-06, 1.1750000000000001E-12, -1.03978E-06, 1.03932E-06, 1.1750000000000001E-12, 1.03978E-06
DataValue, 0.27, 0.5, 1.05444E-06, 1.675E-12, -1.05208E-06, 1.05444E-06, 1.675E-12, 1.05208E-06
DataValue, 0.28, 0.5, 1.06598E-06, 1.3250000000000001E-12, -1.06162E-06, 1.06598E-06, 1.3250000000000001E-12, 1.06162E-06
DataValue, 0.29000000000000004, 0.5, 1.07152E-06, 6.05E-13, -1.06284E-06, 1.07152E-06, 6.05E-13, 1.06284E-06
DataValue, 0.3, 0.5, 1.07502E-06, 1.7750000000000002E-12, -1.07602E-06, 1.07502E-06, 1.7750000000000002E-12, 1.07602E-06
DataValue, 0.31, 0.5, 1.08286E-06, 5.85E-13, -1.08556E-06, 1.08286E-06, 5.85E-13, 1.08556E-06
DataValue, 0.32, 0.5, 1.08456E-06, 1.0850000000000001E-12, -1.08928E-06, 1.08456E-06, 1.0850000000000001E-12, 1.08928E-06
DataValue, 0.33, 0.5, 1.10168E-06, 1.6050000000000001E-12, -1.0989E-06, 1.10168E-06, 1.6050000000000001E-12, 1.0989E-06
DataValue, 0.34, 0.5, 1.10552E-06, 1.015E-12, -1.1093E-06, 1.10552E-06, 1.015E-12, 1.1093E-06
DataValue, 0.35000000000000003, 0.5, 1.11346E-06, 2.165E-12, -1.1116E-06, 1.11346E-06, 2.165E-12, 1.1116E-06
DataValue, 0.36000000000000004, 0.5, 1.11912E-06, 1.1350000000000001E-12, -1.1132E-06, 1.11912E-06, 1.1350000000000001E-12, 1.1132E-06
DataValue, 0.37, 0.5, 1.11972E-06, 1.2150000000000002E-12, -1.11552E-06, 1.11972E-06, 1.2150000000000002E-12, 1.11552E-06
DataValue, 0.38, 0.5, 1.1304E-06, 2.005E-12, -1.12838E-06, 1.1304E-06, 2.005E-12, 1.12838E-06
DataValue, 0.39, 0.5, 1.1321599999999999E-06, 8.65E-13, -1.13236E-06, 1.1321599999999999E-06, 8.65E-13, 1.13236E-06
DataValue, 0.4, 0.5, 1.13856E-06, 7.6500000000000007E-13, -1.13338E-06, 1.13856E-06, 7.6500000000000007E-13, 1.13338E-06
DataValue, 0.41000000000000003, 0.5, 1.1323E-06, 2.3250000000000003E-12, -1.13288E-06, 1.1323E-06, 2.3250000000000003E-12, 1.13288E-06
DataValue, 0.42000000000000004, 0.5, 1.14044E-06, 1.4050000000000002E-12, -1.14236E-06, 1.14044E-06, 1.4050000000000002E-12, 1.14236E-06
DataValue, 0.43, 0.5, 1.1398999999999999E-06, 7.6500000000000007E-13, -1.13816E-06, 1.1398999999999999E-06, 7.6500000000000007E-13, 1.13816E-06
DataValue, 0.44, 0.5, 1.13986E-06, 1.8950000000000003E-12, -1.14698E-06, 1.13986E-06, 1.8950000000000003E-12, 1.14698E-06
DataValue, 0.45, 0.5, 1.1465000000000002E-06, 2.0450000000000003E-12, -1.14434E-06, 1.1465000000000002E-06, 2.0450000000000003E-12, 1.14434E-06
DataValue, 0.46, 0.5, 1.1428E-06, 1.525E-12, -1.14314E-06, 1.1428E-06, 1.525E-12, 1.14314E-06
DataValue, 0.47000000000000003, 0.5, 1.1488000000000001E-06, 1.0750000000000002E-12, -1.1519E-06, 1.1488000000000001E-06, 1.0750000000000002E-12, 1.1519E-06
DataValue, 0.48000000000000004, 0.5, 1.1494000000000002E-06, 1.525E-12, -1.14898E-06, 1.1494000000000002E-06, 1.525E-12, 1.14898E-06
DataValue, 0.49000000000000005, 0.5, 1.1469000000000002E-06, 1.9950000000000003E-12, -1.15296E-06, 1.1469000000000002E-06, 1.9950000000000003E-12, 1.15296E-06
DataValue, 0.5, 0.5, 1.1609000000000002E-06, 6.35E-13, -1.1586799999999999E-06, 1.1609000000000002E-06, 6.35E-13, 1.1586799999999999E-06
DataValue, 0.51, 0.5, 1.1595E-06, 1.3150000000000002E-12, -1.1611E-06, 1.1595E-06, 1.3150000000000002E-12, 1.1611E-06
DataValue, 0.52, 0.5, 1.1580000000000002E-06, 1.9450000000000003E-12, -1.16284E-06, 1.1580000000000002E-06, 1.9450000000000003E-12, 1.16284E-06
DataValue, 0.53, 0.5, 1.1625E-06, 8.7500000000000011E-13, -1.16084E-06, 1.1625E-06, 8.7500000000000011E-13, 1.16084E-06
DataValue, 0.54, 0.5, 1.1636000000000002E-06, 1.4050000000000002E-12, -1.15958E-06, 1.1636000000000002E-06, 1.4050000000000002E-12, 1.15958E-06
DataValue, 0.55, 0.5, 1.1603000000000001E-06, 2.135E-12, -1.16532E-06, 1.1603000000000001E-06, 2.135E-12, 1.16532E-06
DataValue, 0.56, 0.5, 1.1622E-06, 1.1650000000000002E-12, -1.16748E-06, 1.1622E-06, 1.1650000000000002E-12, 1.16748E-06
DataValue, 0.57000000000000006, 0.5, 1.17E-06, 9.3500000000000016E-13, -1.1663000000000002E-06, 1.17E-06, 9.3500000000000016E-13, 1.1663000000000002E-06
DataValue, 0.58000000000000007, 0.5, 1.1672E-06, 1.6450000000000002E-12, -1.1656000000000001E-06, 1.1672E-06, 1.6450000000000002E-12, 1.1656000000000001E-06
DataValue, 0.59000000000000008, 0.5, 1.1672E-06, 8.8500000000000007E-13, -1.1662000000000002E-06, 1.1672E-06, 8.8500000000000007E-13, 1.1662000000000002E-06
DataValue, 0.6, 0.5, 1.1661000000000002E-06, 1.4950000000000002E-12, -1.1581000000000002E-06, 1.1661000000000002E-06, 1.4950000000000002E-12, 1.1581000000000002E-06
DataValue, 0.61, 0.5, 1.1651E-06, 2.0450000000000003E-12, -1.1723000000000002E-06, 1.1651E-06, 2.0450000000000003E-12, 1.1723000000000002E-06
DataValue, 0.62, 0.5, 1.1740000000000001E-06, 1.295E-12, -1.1691000000000002E-06, 1.1740000000000001E-06, 1.295E-12, 1.1691000000000002E-06
DataValue, 0.63, 0.5, 1.1653E-06, 7.1500000000000008E-13, -1.1701E-06, 1.1653E-06, 7.1500000000000008E-13, 1.1701E-06
DataValue, 0.64, 0.5, 1.173E-06, 1.8450000000000003E-12, -1.1795E-06, 1.173E-06, 1.8450000000000003E-12, 1.1795E-06
DataValue, 0.65, 0.5, 1.1746000000000002E-06, 1.5950000000000002E-12, -1.1746000000000002E-06, 1.1746000000000002E-06, 1.5950000000000002E-12, 1.1746000000000002E-06
DataValue, 0.66, 0.5, 1.1767E-06, 7.05E-13, -1.1713000000000001E-06, 1.1767E-06, 7.05E-13, 1.1713000000000001E-06
DataValue, 0.67, 0.5, 1.1727000000000002E-06, 8.1500000000000006E-13, -1.1733E-06, 1.1727000000000002E-06, 8.1500000000000006E-13, 1.1733E-06
DataValue, 0.68, 0.5, 1.1766E-06, 1.985E-12, -1.1731E-06, 1.1766E-06, 1.985E-12, 1.1731E-06
DataValue, 0.69000000000000006, 0.5, 1.1796000000000001E-06, 1.2250000000000001E-12, -1.1814E-06, 1.1796000000000001E-06, 1.2250000000000001E-12, 1.1814E-06
DataValue, 0.70000000000000007, 0.5, 1.1776000000000002E-06, 5.85E-13, -1.1788E-06, 1.1776000000000002E-06, 5.85E-13, 1.1788E-06
DataValue, 0.71000000000000008, 0.5, 1.1800000000000001E-06, 1.1650000000000002E-12, -1.1766E-06, 1.1800000000000001E-06, 1.1650000000000002E-12, 1.1766E-06
DataValue, 0.72000000000000008, 0.5, 1.1783000000000002E-06, 2.2450000000000002E-12, -1.1764E-06, 1.1783000000000002E-06, 2.2450000000000002E-12, 1.1764E-06
DataValue, 0.73, 0.5, 1.1732E-06, 1.255E-12, -1.1800000000000001E-06, 1.1732E-06, 1.255E-12, 1.1800000000000001E-06
DataValue, 0.74, 0.5, 1.168E-06, 9.950000000000001E-13, -1.1723000000000002E-06, 1.168E-06, 9.950000000000001E-13, 1.1723000000000002E-06
DataValue, 0.75, 0.5, 1.1852E-06, 1.4050000000000002E-12, -1.1817E-06, 1.1852E-06, 1.4050000000000002E-12, 1.1817E-06
DataValue, 0.76, 0.5, 1.1810000000000002E-06, 1.855E-12, -1.1805000000000002E-06, 1.1810000000000002E-06, 1.855E-12, 1.1805000000000002E-06
DataValue, 0.77, 0.5, 1.1767E-06, 9.3500000000000016E-13, -1.1814E-06, 1.1767E-06, 9.3500000000000016E-13, 1.1814E-06
DataValue, 0.78, 0.5, 1.1863000000000002E-06, 5.45E-13, -1.1834000000000002E-06, 1.1863000000000002E-06, 5.45E-13, 1.1834000000000002E-06
DataValue, 0.79, 0.5, 1.1835000000000002E-06, 1.1350000000000001E-12, -1.1884000000000001E-06, 1.1835000000000002E-06, 1.1350000000000001E-12, 1.1884000000000001E-06
DataValue, 0.8, 0.5, 1.1848E-06, 2.085E-12, -1.1863000000000002E-06, 1.1848E-06, 2.085E-12, 1.1863000000000002E-06
DataValue, 0.81, 0.5, 1.1822E-06, 5.5500000000000006E-13, -1.1926E-06, 1.1822E-06, 5.5500000000000006E-13, 1.1926E-06
DataValue, 0.82000000000000006, 0.5, 1.1903E-06, 8.45E-13, -1.193E-06, 1.1903E-06, 8.45E-13, 1.193E-06
DataValue, 0.83000000000000007, 0.5, 1.1912000000000001E-06, 1.7850000000000002E-12, -1.19E-06, 1.1912000000000001E-06, 1.7850000000000002E-12, 1.19E-06
DataValue, 0.84000000000000008, 0.5, 1.1896000000000002E-06, 1.4150000000000001E-12, -1.1916000000000002E-06, 1.1896000000000002E-06, 1.4150000000000001E-12, 1.1916000000000002E-06
DataValue, 0.85000000000000009, 0.5, 1.1974000000000002E-06, 4.35E-13, -1.1843E-06, 1.1974000000000002E-06, 4.35E-13, 1.1843E-06
DataValue, 0.86, 0.5, 1.1911000000000001E-06, 1.675E-12, -1.1920000000000002E-06, 1.1911000000000001E-06, 1.675E-12, 1.1920000000000002E-06
DataValue, 0.87, 0.5, 1.1924000000000002E-06, 1.755E-12, -1.1959E-06, 1.1924000000000002E-06, 1.755E-12, 1.1959E-06
DataValue, 0.88, 0.5, 1.1975000000000002E-06, 5.85E-13, -1.1892000000000002E-06, 1.1975000000000002E-06, 5.85E-13, 1.1892000000000002E-06
DataValue, 0.89, 0.5, 1.1918000000000002E-06, 1.4450000000000002E-12, -1.1927E-06, 1.1918000000000002E-06, 1.4450000000000002E-12, 1.1927E-06
DataValue, 0.9, 0.5, 1.1946000000000002E-06, 1.675E-12, -1.1979000000000002E-06, 1.1946000000000002E-06, 1.675E-12, 1.1979000000000002E-06
DataValue, 0.91, 0.5, 1.1989E-06, 8.45E-13, -1.1951000000000002E-06, 1.1989E-06, 8.45E-13, 1.1951000000000002E-06
DataValue, 0.92, 0.5, 1.1932E-06, 6.55E-13, -1.1935E-06, 1.1932E-06, 6.55E-13, 1.1935E-06
DataValue, 0.93, 0.5, 1.1988E-06, 1.5150000000000001E-12, -1.1998000000000001E-06, 1.1988E-06, 1.5150000000000001E-12, 1.1998000000000001E-06
DataValue, 0.94000000000000006, 0.5, 1.2046E-06, 2.1450000000000003E-12, -1.2046E-06, 1.2046E-06, 2.1450000000000003E-12, 1.2046E-06
DataValue, 0.95000000000000007, 0.5, 1.1981000000000002E-06, 7.25E-13, -1.2016E-06, 1.1981000000000002E-06, 7.25E-13, 1.2016E-06
DataValue, 0.96000000000000008, 0.5, 1.1972000000000002E-06, 9.65E-13, -1.1971000000000002E-06, 1.1972000000000002E-06, 9.65E-13, 1.1971000000000002E-06
DataValue, 0.97000000000000008, 0.5, 1.2038E-06, 1.7750000000000002E-12, -1.1983E-06, 1.2038E-06, 1.7750000000000002E-12, 1.1983E-06
DataValue, 0.98000000000000009, 0.5, 1.2017E-06, 1.675E-12, -1.2051000000000001E-06, 1.2017E-06, 1.675E-12, 1.2051000000000001E-06
DataValue, 0.9900000000000001, 0.5, 1.2055000000000002E-06, 7.05E-13, -1.2024000000000001E-06, 1.2055000000000002E-06, 7.05E-13, 1.2024000000000001E-06
DataValue, 1, 0.5, 1.2052000000000001E-06, 1.0350000000000001E-12, -1.1984E-06, 1.2052000000000001E-06, 1.0350000000000001E-12, 1.1984E-06
DataValue, 1, 0.5, 1.2029000000000002E-06, 2.065E-12, -1.2001000000000002E-06, 1.2029000000000002E-06, 2.065E-12, 1.2001000000000002E-06
DataValue, 0.9900000000000001, 0.5, 1.2097E-06, 1.0750000000000002E-12, -1.2005000000000002E-06, 1.2097E-06, 1.0750000000000002E-12, 1.2005000000000002E-06
DataValue, 0.98000000000000009, 0.5, 1.2038E-06, 4.95E-13, -1.1972000000000002E-06, 1.2038E-06, 4.95E-13, 1.1972000000000002E-06
