
SetupTitle, IdVd_Vg_par
PrimitiveTest, I/V Sweep
TestParameter, Context.MainFrame, B1500A
TestParameter, Channel.UnitType, SMU, SMU, SMU
TestParameter, Channel.Unit, SMU3:HR, SMU2:HR, SMU1:HR
TestParameter, Channel.IName, Id, Ig, Is
TestParameter, Channel.VName, Vd, Vg, Vs
TestParameter, Channel.Mode, V, V, V
TestParameter, Channel.Func, VAR1, VAR2, CONST
TestParameter, Channel.Index, 
TestParameter, Channel.Time, 
TestParameter, Measurement.Port.Unit, SMU3:HR, SMU2:HR, SMU1:HR
TestParameter, Measurement.Port.SeriesResistor, NONE, NONE, NONE
TestParameter, Measurement.Port.Filter, ON, ON, ON
TestParameter, Measurement.Port.OutputVoltageComparison, 0, 0, 0
TestParameter, Measurement.Primary.Locus, Double
TestParameter, Measurement.Primary.Scale, LINEAR
TestParameter, Measurement.Primary.Start, 0
TestParameter, Measurement.Primary.Stop, 1
TestParameter, Measurement.Primary.Step, 0.01
TestParameter, Measurement.Primary.Compliance, 0.01
TestParameter, Measurement.Primary.PowerCompliance, 0
TestParameter, Measurement.Aborting.Condition, CONTINUE AT ANY
TestParameter, Measurement.PostOutput.Value, START
TestParameter, Measurement.PostOutput.Retention, OFF
TestParameter, Measurement.Secondary.Start, 0
TestParameter, Measurement.Secondary.Count, 5
TestParameter, Measurement.Secondary.Step, 0.5
TestParameter, Measurement.Secondary.Compliance, 0.01
TestParameter, Measurement.Secondary.PowerCompliance, 0
TestParameter, Measurement.Bias.Source, 0, 0, 0
TestParameter, Measurement.Bias.Compliance, 0.01, 0.01, 0.01
TestParameter, Measurement.Monitor.Unit, SMU3:HR, SMU2:HR, SMU1:HR
TestParameter, Measurement.Monitor.Adc, HR ADC, HR ADC, HR ADC
TestParameter, Measurement.Monitor.Measurement, Compliance Side, Compliance Side, Compliance Side
TestParameter, Measurement.Monitor.RangingMode, LIMITED, LIMITED, LIMITED
TestParameter, Measurement.Monitor.RangeBoundary, 1nA, 1nA, 1nA
TestParameter, Measurement.Monitor.RangeRating, BY FULL RANGE, BY FULL RANGE, BY FULL RANGE
TestParameter, Measurement.Monitor.RangeRatingCoeff, 50, 50, 50
TestParameter, Measurement.Timing.Hold, 0
TestParameter, Measurement.Timing.Delay, 0
TestParameter, Measurement.Adc.HighSpeed.Mode, AUTO
TestParameter, Measurement.Adc.HighSpeed.Coeff, 1
TestParameter, Measurement.Adc.HighResolution.AutoZero, OFF
TestParameter, Measurement.Adc.HighResolution.Mode, AUTO
TestParameter, Measurement.Adc.HighResolution.Coeff, 6
TestParameter, Measurement.WaitTime.Source.Coeff, 1
TestParameter, Measurement.WaitTime.Source.Offset, 0
TestParameter, Measurement.WaitTime.Monitor.Coeff, 1
TestParameter, Measurement.WaitTime.Monitor.Offset, 0
TestParameter, Function.User.Name, absId, absIg, absIs
TestParameter, Function.User.Unit, A, A, A
TestParameter, Function.User.Definition, abs(Id), abs(Ig), abs(Is)
TestParameter, Output.Graph.Enabled, true
TestParameter, Output.Graph.AutoScaling, false
TestParameter, Output.Graph.XAxis.Data, Vd
TestParameter, Output.Graph.XAxis.Scale, Linear
TestParameter, Output.Graph.XAxis.Left, 0
TestParameter, Output.Graph.XAxis.Right, 2
TestParameter, Output.Graph.XAxis.RunTimeAutoScale, false
TestParameter, Output.Graph.YAxis.Data, absId, absIs
TestParameter, Output.Graph.YAxis.Scale, Linear, Linear
TestParameter, Output.Graph.YAxis.Bottom, 1E-15, 1E-15
TestParameter, Output.Graph.YAxis.Top, 0.001, 0.001
TestParameter, Output.Graph.YAxis.Group, , 
TestParameter, Output.Graph.YAxis.RunTimeAutoScale, true, true
TestParameter, Output.List.Data, Vg, Vd, Id, Is, Ig, absId, absIs, absIg
TestParameter, AutoAnalysis.Interpolation, false
TestParameter, AutoAnalysis.Var2StepCount, 1
TestParameter, AutoAnalysis.Var2StepScript, 
TestParameter, AutoAnalysis.Line1.Enabled, false
TestParameter, AutoAnalysis.Line1.Type, 1
TestParameter, AutoAnalysis.Line1.Fix, True
TestParameter, AutoAnalysis.Line1.YAxis, 0
TestParameter, AutoAnalysis.Line1.Point1.Type, 0
TestParameter, AutoAnalysis.Line1.Point1.XY.X, 
TestParameter, AutoAnalysis.Line1.Point1.XY.Y, 
TestParameter, AutoAnalysis.Line1.Point1.Data.Var, 
TestParameter, AutoAnalysis.Line1.Point1.Data.Condition, 
TestParameter, AutoAnalysis.Line1.Point1.Data.Start, false
TestParameter, AutoAnalysis.Line1.Point1.Data.StartVar, 
TestParameter, AutoAnalysis.Line1.Point1.Data.StartCondition, 
TestParameter, AutoAnalysis.Line1.Point2.Type, 0
TestParameter, AutoAnalysis.Line1.Point2.XY.X, 
TestParameter, AutoAnalysis.Line1.Point2.XY.Y, 
TestParameter, AutoAnalysis.Line1.Point2.Data.Var, 
TestParameter, AutoAnalysis.Line1.Point2.Data.Condition, 
TestParameter, AutoAnalysis.Line1.Point2.Data.Start, false
TestParameter, AutoAnalysis.Line1.Point2.Data.StartVar, 
TestParameter, AutoAnalysis.Line1.Point2.Data.StartCondition, 
TestParameter, AutoAnalysis.Line1.GradientExpr, 0
TestParameter, AutoAnalysis.Line2.Enabled, false
TestParameter, AutoAnalysis.Line2.Type, 1
TestParameter, AutoAnalysis.Line2.Fix, True
TestParameter, AutoAnalysis.Line2.YAxis, 0
TestParameter, AutoAnalysis.Line2.Point1.Type, 0
TestParameter, AutoAnalysis.Line2.Point1.XY.X, 
TestParameter, AutoAnalysis.Line2.Point1.XY.Y, 
TestParameter, AutoAnalysis.Line2.Point1.Data.Var, 
TestParameter, AutoAnalysis.Line2.Point1.Data.Condition, 
TestParameter, AutoAnalysis.Line2.Point1.Data.Start, false
TestParameter, AutoAnalysis.Line2.Point1.Data.StartVar, 
TestParameter, AutoAnalysis.Line2.Point1.Data.StartCondition, 
TestParameter, AutoAnalysis.Line2.Point2.Type, 0
TestParameter, AutoAnalysis.Line2.Point2.XY.X, 
TestParameter, AutoAnalysis.Line2.Point2.XY.Y, 
TestParameter, AutoAnalysis.Line2.Point2.Data.Var, 
TestParameter, AutoAnalysis.Line2.Point2.Data.Condition, 
TestParameter, AutoAnalysis.Line2.Point2.Data.Start, false
TestParameter, AutoAnalysis.Line2.Point2.Data.StartVar, 
TestParameter, AutoAnalysis.Line2.Point2.Data.StartCondition, 
TestParameter, AutoAnalysis.Line2.GradientExpr, 0
TestParameter, AutoAnalysis.Marker.Enabled, false
TestParameter, AutoAnalysis.Marker.Data.Var, 
TestParameter, AutoAnalysis.Marker.Data.Condition, 
TestParameter, AutoAnalysis.Marker.Data.Start, false
TestParameter, AutoAnalysis.Marker.Data.StartVar, 
TestParameter, AutoAnalysis.Marker.Data.StartCondition, 
MetaData, TestRecord.EntryPoint, true
MetaData, TestRecord.RecordTime, 06/03/2025 14:50:52
MetaData, TestRecord.TestTarget, R[6]_D[6]_L[80]
MetaData, TestRecord.IterationIndex, 1
MetaData, TestRecord.Preservation, true
MetaData, TestRecord.Flag, !
MetaData, TestRecord.Remarks, 
MetaData, TestRecord.LinkKey, efa924d9-dee8-4cf3-a95a-b4d23c74d075
MetaData, TestRecord.Parameters, 
Dimension1, 202, 202, 202, 202, 202, 202, 202, 202
Dimension2, 5, 5, 5, 5, 5, 5, 5, 5
DataName, Vd, Vg, Id, Ig, Is, absId, absIg, absIs
DataValue, 0, 0, 7.427E-12, 1.675E-12, -8.8600000000000006E-13, 7.427E-12, 1.675E-12, 8.8600000000000006E-13
DataValue, 0.01, 0, 2.0852700000000003E-10, 2.7550000000000003E-12, -2.37706E-10, 2.0852700000000003E-10, 2.7550000000000003E-12, 2.37706E-10
DataValue, 0.02, 0, 4.3158700000000003E-10, 2.5850000000000004E-12, -4.03296E-10, 4.3158700000000003E-10, 2.5850000000000004E-12, 4.03296E-10
DataValue, 0.030000000000000002, 0, 6.02537E-10, 2.595E-12, -5.44846E-10, 6.02537E-10, 2.595E-12, 5.44846E-10
DataValue, 0.04, 0, 6.60547E-10, 2.065E-12, -6.2435600000000007E-10, 6.60547E-10, 2.065E-12, 6.2435600000000007E-10
DataValue, 0.05, 0, 6.73757E-10, 1.395E-12, -7.0919600000000006E-10, 6.73757E-10, 1.395E-12, 7.0919600000000006E-10
DataValue, 0.060000000000000005, 0, 6.7501700000000009E-10, 1.5150000000000001E-12, -7.4577600000000005E-10, 6.7501700000000009E-10, 1.5150000000000001E-12, 7.4577600000000005E-10
DataValue, 0.07, 0, 7.4577700000000006E-10, 2.3450000000000002E-12, -7.9062600000000006E-10, 7.4577700000000006E-10, 2.3450000000000002E-12, 7.9062600000000006E-10
DataValue, 0.08, 0, 8.2243700000000008E-10, 2.415E-12, -8.05796E-10, 8.2243700000000008E-10, 2.415E-12, 8.05796E-10
DataValue, 0.090000000000000011, 0, 9.0672700000000011E-10, 2.645E-12, -8.65366E-10, 9.0672700000000011E-10, 2.645E-12, 8.65366E-10
DataValue, 0.1, 0, 9.38907E-10, 2.1950000000000002E-12, -9.0479600000000009E-10, 9.38907E-10, 2.1950000000000002E-12, 9.0479600000000009E-10
DataValue, 0.11, 0, 8.6992700000000009E-10, 1.5450000000000002E-12, -8.74246E-10, 8.6992700000000009E-10, 1.5450000000000002E-12, 8.74246E-10
DataValue, 0.12000000000000001, 0, 8.4179700000000011E-10, 1.435E-12, -8.8712600000000009E-10, 8.4179700000000011E-10, 1.435E-12, 8.8712600000000009E-10
DataValue, 0.13, 0, 8.47947E-10, 2.115E-12, -8.958660000000001E-10, 8.47947E-10, 2.115E-12, 8.958660000000001E-10
DataValue, 0.14, 0, 9.0463700000000007E-10, 2.695E-12, -9.1788600000000009E-10, 9.0463700000000007E-10, 2.695E-12, 9.1788600000000009E-10
DataValue, 0.15, 0, 9.6810700000000016E-10, 3.0550000000000002E-12, -9.2565600000000006E-10, 9.6810700000000016E-10, 3.0550000000000002E-12, 9.2565600000000006E-10
DataValue, 0.16, 0, 1.0153970000000001E-09, 2.435E-12, -9.62096E-10, 1.0153970000000001E-09, 2.435E-12, 9.62096E-10
DataValue, 0.17, 0, 1.0160070000000002E-09, 1.7250000000000002E-12, -1.003376E-09, 1.0160070000000002E-09, 1.7250000000000002E-12, 1.003376E-09
DataValue, 0.18000000000000002, 0, 9.3382700000000015E-10, 1.4950000000000002E-12, -9.60966E-10, 9.3382700000000015E-10, 1.4950000000000002E-12, 9.60966E-10
DataValue, 0.19, 0, 8.91737E-10, 2.135E-12, -9.53136E-10, 8.91737E-10, 2.135E-12, 9.53136E-10
DataValue, 0.2, 0, 9.62957E-10, 2.5750000000000002E-12, -9.75726E-10, 9.62957E-10, 2.5750000000000002E-12, 9.75726E-10
DataValue, 0.21000000000000002, 0, 1.014977E-09, 3.025E-12, -1.0019860000000001E-09, 1.014977E-09, 3.025E-12, 1.0019860000000001E-09
DataValue, 0.22, 0, 1.071047E-09, 2.415E-12, -1.0391560000000001E-09, 1.071047E-09, 2.415E-12, 1.0391560000000001E-09
DataValue, 0.23, 0, 1.0362070000000002E-09, 1.615E-12, -1.003536E-09, 1.0362070000000002E-09, 1.615E-12, 1.003536E-09
DataValue, 0.24000000000000002, 0, 9.4843700000000016E-10, 1.435E-12, -9.84056E-10, 9.4843700000000016E-10, 1.435E-12, 9.84056E-10
DataValue, 0.25, 0, 1.005027E-09, 1.6850000000000002E-12, -1.049386E-09, 1.005027E-09, 1.6850000000000002E-12, 1.049386E-09
DataValue, 0.26, 0, 1.0069870000000001E-09, 2.3550000000000004E-12, -1.043946E-09, 1.0069870000000001E-09, 2.3550000000000004E-12, 1.043946E-09
DataValue, 0.27, 0, 1.0938670000000002E-09, 2.9550000000000002E-12, -1.069056E-09, 1.0938670000000002E-09, 2.9550000000000002E-12, 1.069056E-09
DataValue, 0.28, 0, 1.132887E-09, 2.595E-12, -1.077626E-09, 1.132887E-09, 2.595E-12, 1.077626E-09
DataValue, 0.29000000000000004, 0, 1.10197E-09, 1.6550000000000001E-12, -1.085936E-09, 1.10197E-09, 1.6550000000000001E-12, 1.085936E-09
DataValue, 0.3, 0, 1.04047E-09, 1.615E-12, -1.0864260000000001E-09, 1.04047E-09, 1.615E-12, 1.0864260000000001E-09
DataValue, 0.31, 0, 1.00877E-09, 1.6950000000000002E-12, -1.064986E-09, 1.00877E-09, 1.6950000000000002E-12, 1.064986E-09
DataValue, 0.32, 0, 1.06917E-09, 2.5250000000000002E-12, -1.0773860000000001E-09, 1.06917E-09, 2.5250000000000002E-12, 1.0773860000000001E-09
DataValue, 0.33, 0, 1.07887E-09, 2.9650000000000004E-12, -1.064316E-09, 1.07887E-09, 2.9650000000000004E-12, 1.064316E-09
DataValue, 0.34, 0, 1.14637E-09, 2.6050000000000003E-12, -1.0845760000000002E-09, 1.14637E-09, 2.6050000000000003E-12, 1.0845760000000002E-09
DataValue, 0.35000000000000003, 0, 1.11057E-09, 2.2950000000000002E-12, -1.0864560000000002E-09, 1.11057E-09, 2.2950000000000002E-12, 1.0864560000000002E-09
DataValue, 0.36000000000000004, 0, 1.04317E-09, 1.6050000000000001E-12, -1.074026E-09, 1.04317E-09, 1.6050000000000001E-12, 1.074026E-09
DataValue, 0.37, 0, 1.05947E-09, 1.6050000000000001E-12, -1.1290060000000002E-09, 1.05947E-09, 1.6050000000000001E-12, 1.1290060000000002E-09
DataValue, 0.38, 0, 1.08987E-09, 2.515E-12, -1.12854E-09, 1.08987E-09, 2.515E-12, 1.12854E-09
DataValue, 0.39, 0, 1.09047E-09, 1.675E-12, -1.11784E-09, 1.09047E-09, 1.675E-12, 1.11784E-09
DataValue, 0.4, 0, 1.08907E-09, 2.235E-12, -1.11534E-09, 1.08907E-09, 2.235E-12, 1.11534E-09
DataValue, 0.41000000000000003, 0, 1.15757E-09, 2.775E-12, -1.13934E-09, 1.15757E-09, 2.775E-12, 1.13934E-09
DataValue, 0.42000000000000004, 0, 1.18407E-09, 2.235E-12, -1.11284E-09, 1.18407E-09, 2.235E-12, 1.11284E-09
DataValue, 0.43, 0, 1.14317E-09, 1.5950000000000002E-12, -1.15024E-09, 1.14317E-09, 1.5950000000000002E-12, 1.15024E-09
DataValue, 0.44, 0, 1.07247E-09, 1.665E-12, -1.13754E-09, 1.07247E-09, 1.665E-12, 1.13754E-09
DataValue, 0.45, 0, 1.09007E-09, 2.2450000000000002E-12, -1.16134E-09, 1.09007E-09, 2.2450000000000002E-12, 1.16134E-09
DataValue, 0.46, 0, 1.18007E-09, 2.8850000000000003E-12, -1.17064E-09, 1.18007E-09, 2.8850000000000003E-12, 1.17064E-09
DataValue, 0.47000000000000003, 0, 1.21397E-09, 2.485E-12, -1.18014E-09, 1.21397E-09, 2.485E-12, 1.18014E-09
DataValue, 0.48000000000000004, 0, 1.16447E-09, 1.985E-12, -1.14764E-09, 1.16447E-09, 1.985E-12, 1.14764E-09
DataValue, 0.49000000000000005, 0, 1.11037E-09, 1.6350000000000002E-12, -1.15434E-09, 1.11037E-09, 1.6350000000000002E-12, 1.15434E-09
DataValue, 0.5, 0, 1.10487E-09, 2.1750000000000003E-12, -1.16264E-09, 1.10487E-09, 2.1750000000000003E-12, 1.16264E-09
DataValue, 0.51, 0, 1.15587E-09, 2.2750000000000003E-12, -1.18384E-09, 1.15587E-09, 2.2750000000000003E-12, 1.18384E-09
DataValue, 0.52, 0, 1.20097E-09, 2.8550000000000003E-12, -1.18334E-09, 1.20097E-09, 2.8550000000000003E-12, 1.18334E-09
DataValue, 0.53, 0, 1.26607E-09, 2.185E-12, -1.20094E-09, 1.26607E-09, 2.185E-12, 1.20094E-09
DataValue, 0.54, 0, 1.21377E-09, 1.7450000000000001E-12, -1.21324E-09, 1.21377E-09, 1.7450000000000001E-12, 1.21324E-09
DataValue, 0.55, 0, 1.13907E-09, 1.715E-12, -1.18134E-09, 1.13907E-09, 1.715E-12, 1.18134E-09
DataValue, 0.56, 0, 1.18547E-09, 1.9450000000000003E-12, -1.22094E-09, 1.18547E-09, 1.9450000000000003E-12, 1.22094E-09
DataValue, 0.57000000000000006, 0, 1.19027E-09, 2.5250000000000002E-12, -1.21024E-09, 1.19027E-09, 2.5250000000000002E-12, 1.21024E-09
DataValue, 0.58000000000000007, 0, 1.26397E-09, 2.6850000000000004E-12, -1.23114E-09, 1.26397E-09, 2.6850000000000004E-12, 1.23114E-09
DataValue, 0.59000000000000008, 0, 1.26527E-09, 2.205E-12, -1.20584E-09, 1.26527E-09, 2.205E-12, 1.20584E-09
DataValue, 0.6, 0, 1.24877E-09, 1.7050000000000001E-12, -1.24664E-09, 1.24877E-09, 1.7050000000000001E-12, 1.24664E-09
DataValue, 0.61, 0, 1.20157E-09, 1.5150000000000001E-12, -1.25834E-09, 1.20157E-09, 1.5150000000000001E-12, 1.25834E-09
DataValue, 0.62, 0, 1.26347E-09, 2.035E-12, -1.29124E-09, 1.26347E-09, 2.035E-12, 1.29124E-09
DataValue, 0.63, 0, 1.31427E-09, 3.1450000000000004E-12, -1.32244E-09, 1.31427E-09, 3.1450000000000004E-12, 1.32244E-09
DataValue, 0.64, 0, 1.29467E-09, 2.5550000000000003E-12, -1.23234E-09, 1.29467E-09, 2.5550000000000003E-12, 1.23234E-09
DataValue, 0.65, 0, 1.29387E-09, 1.825E-12, -1.25424E-09, 1.29387E-09, 1.825E-12, 1.25424E-09
DataValue, 0.66, 0, 1.19567E-09, 1.425E-12, -1.24884E-09, 1.19567E-09, 1.425E-12, 1.24884E-09
DataValue, 0.67, 0, 1.20027E-09, 1.975E-12, -1.21444E-09, 1.20027E-09, 1.975E-12, 1.21444E-09
DataValue, 0.68, 0, 1.25117E-09, 2.535E-12, -1.26214E-09, 1.25117E-09, 2.535E-12, 1.26214E-09
DataValue, 0.69000000000000006, 0, 1.30427E-09, 2.5750000000000002E-12, -1.27394E-09, 1.30427E-09, 2.5750000000000002E-12, 1.27394E-09
DataValue, 0.70000000000000007, 0, 1.33927E-09, 1.935E-12, -1.27724E-09, 1.33927E-09, 1.935E-12, 1.27724E-09
DataValue, 0.71000000000000008, 0, 1.30877E-09, 2.055E-12, -1.32434E-09, 1.30877E-09, 2.055E-12, 1.32434E-09
DataValue, 0.72000000000000008, 0, 1.22747E-09, 1.4650000000000001E-12, -1.30454E-09, 1.22747E-09, 1.4650000000000001E-12, 1.30454E-09
DataValue, 0.73, 0, 1.26097E-09, 1.9650000000000002E-12, -1.30284E-09, 1.26097E-09, 1.9650000000000002E-12, 1.30284E-09
DataValue, 0.74, 0, 1.33957E-09, 2.8850000000000003E-12, -1.35224E-09, 1.33957E-09, 2.8850000000000003E-12, 1.35224E-09
DataValue, 0.75, 0, 1.41047E-09, 2.7550000000000003E-12, -1.34104E-09, 1.41047E-09, 2.7550000000000003E-12, 1.34104E-09
DataValue, 0.76, 0, 1.39337E-09, 2.115E-12, -1.38574E-09, 1.39337E-09, 2.115E-12, 1.38574E-09
DataValue, 0.77, 0, 1.41277E-09, 1.5050000000000002E-12, -1.40384E-09, 1.41277E-09, 1.5050000000000002E-12, 1.40384E-09
DataValue, 0.78, 0, 1.28537E-09, 1.575E-12, -1.38094E-09, 1.28537E-09, 1.575E-12, 1.38094E-09
DataValue, 0.79, 0, 1.37127E-09, 2.335E-12, -1.36194E-09, 1.37127E-09, 2.335E-12, 1.36194E-09
DataValue, 0.8, 0, 1.44117E-09, 2.765E-12, -1.40564E-09, 1.44117E-09, 2.765E-12, 1.40564E-09
DataValue, 0.81, 0, 1.47767E-09, 2.515E-12, -1.41804E-09, 1.47767E-09, 2.515E-12, 1.41804E-09
DataValue, 0.82000000000000006, 0, 1.41157E-09, 1.835E-12, -1.39284E-09, 1.41157E-09, 1.835E-12, 1.39284E-09
DataValue, 0.83000000000000007, 0, 1.34107E-09, 1.675E-12, -1.37674E-09, 1.34107E-09, 1.675E-12, 1.37674E-09
DataValue, 0.84000000000000008, 0, 1.36067E-09, 2.115E-12, -1.39794E-09, 1.36067E-09, 2.115E-12, 1.39794E-09
DataValue, 0.85000000000000009, 0, 1.39157E-09, 2.7050000000000003E-12, -1.40554E-09, 1.39157E-09, 2.7050000000000003E-12, 1.40554E-09
DataValue, 0.86, 0, 1.44697E-09, 2.6250000000000002E-12, -1.43604E-09, 1.44697E-09, 2.6250000000000002E-12, 1.43604E-09
DataValue, 0.87, 0, 1.44537E-09, 1.7850000000000002E-12, -1.40754E-09, 1.44537E-09, 1.7850000000000002E-12, 1.40754E-09
DataValue, 0.88, 0, 1.43487E-09, 1.4650000000000001E-12, -1.46914E-09, 1.43487E-09, 1.4650000000000001E-12, 1.46914E-09
DataValue, 0.89, 0, 1.40817E-09, 1.9450000000000003E-12, -1.47374E-09, 1.40817E-09, 1.9450000000000003E-12, 1.47374E-09
DataValue, 0.9, 0, 1.44917E-09, 2.215E-12, -1.50074E-09, 1.44917E-09, 2.215E-12, 1.50074E-09
DataValue, 0.91, 0, 1.51827E-09, 2.5750000000000002E-12, -1.46314E-09, 1.51827E-09, 2.5750000000000002E-12, 1.46314E-09
DataValue, 0.92, 0, 1.49717E-09, 2.535E-12, -1.47954E-09, 1.49717E-09, 2.535E-12, 1.47954E-09
DataValue, 0.93, 0, 1.50157E-09, 1.765E-12, -1.51134E-09, 1.50157E-09, 1.765E-12, 1.51134E-09
DataValue, 0.94000000000000006, 0, 1.49657E-09, 1.395E-12, -1.52684E-09, 1.49657E-09, 1.395E-12, 1.52684E-09
DataValue, 0.95000000000000007, 0, 1.40777E-09, 2.3050000000000004E-12, -1.48344E-09, 1.40777E-09, 2.3050000000000004E-12, 1.48344E-09
DataValue, 0.96000000000000008, 0, 1.49617E-09, 2.975E-12, -1.47434E-09, 1.49617E-09, 2.975E-12, 1.47434E-09
DataValue, 0.97000000000000008, 0, 1.54897E-09, 2.3550000000000004E-12, -1.47964E-09, 1.54897E-09, 2.3550000000000004E-12, 1.47964E-09
DataValue, 0.98000000000000009, 0, 1.55147E-09, 2.105E-12, -1.46654E-09, 1.55147E-09, 2.105E-12, 1.46654E-09
DataValue, 0.9900000000000001, 0, 1.50927E-09, 1.4450000000000002E-12, -1.52494E-09, 1.50927E-09, 1.4450000000000002E-12, 1.52494E-09
DataValue, 1, 0, 1.46057E-09, 1.855E-12, -1.52814E-09, 1.46057E-09, 1.855E-12, 1.52814E-09
DataValue, 1, 0, 1.58507E-09, 2.235E-12, -1.54614E-09, 1.58507E-09, 2.235E-12, 1.54614E-09
DataValue, 0.9900000000000001, 0, 1.48487E-09, 1.565E-12, -1.52314E-09, 1.48487E-09, 1.565E-12, 1.52314E-09
DataValue, 0.98000000000000009, 0, 1.46067E-09, 1.8450000000000003E-12, -1.53874E-09, 1.46067E-09, 1.8450000000000003E-12, 1.53874E-09
DataValue, 0.97000000000000008, 0, 1.51477E-09, 2.2950000000000002E-12, -1.51704E-09, 1.51477E-09, 2.2950000000000002E-12, 1.51704E-09
DataValue, 0.96000000000000008, 0, 1.55697E-09, 2.5050000000000003E-12, -1.51304E-09, 1.55697E-09, 2.5050000000000003E-12, 1.51304E-09
DataValue, 0.95000000000000007, 0, 1.52987E-09, 2.5850000000000004E-12, -1.51094E-09, 1.52987E-09, 2.5850000000000004E-12, 1.51094E-09
DataValue, 0.94000000000000006, 0, 1.49067E-09, 2.005E-12, -1.51834E-09, 1.49067E-09, 2.005E-12, 1.51834E-09
DataValue, 0.93, 0, 1.47887E-09, 1.6450000000000002E-12, -1.59374E-09, 1.47887E-09, 1.6450000000000002E-12, 1.59374E-09
