
SetupTitle, IdVd_Vg_par
PrimitiveTest, I/V Sweep
TestParameter, Context.MainFrame, B1500A
TestParameter, Channel.UnitType, SMU, SMU, SMU
TestParameter, Channel.Unit, SMU3:HR, SMU2:HR, SMU1:HR
TestParameter, Channel.IName, Id, Ig, Is
TestParameter, Channel.VName, Vd, Vg, Vs
TestParameter, Channel.Mode, V, V, V
TestParameter, Channel.Func, VAR1, VAR2, CONST
TestParameter, Channel.Index, 
TestParameter, Channel.Time, 
TestParameter, Measurement.Port.Unit, SMU3:HR, SMU2:HR, SMU1:HR
TestParameter, Measurement.Port.SeriesResistor, NONE, NONE, NONE
TestParameter, Measurement.Port.Filter, ON, ON, ON
TestParameter, Measurement.Port.OutputVoltageComparison, 0, 0, 0
TestParameter, Measurement.Primary.Locus, Double
TestParameter, Measurement.Primary.Scale, LINEAR
TestParameter, Measurement.Primary.Start, 0
TestParameter, Measurement.Primary.Stop, 1
TestParameter, Measurement.Primary.Step, 0.01
TestParameter, Measurement.Primary.Compliance, 0.01
TestParameter, Measurement.Primary.PowerCompliance, 0
TestParameter, Measurement.Aborting.Condition, CONTINUE AT ANY
TestParameter, Measurement.PostOutput.Value, START
TestParameter, Measurement.PostOutput.Retention, OFF
TestParameter, Measurement.Secondary.Start, 0.5
TestParameter, Measurement.Secondary.Count, 7
TestParameter, Measurement.Secondary.Step, 0.25
TestParameter, Measurement.Secondary.Compliance, 0.01
TestParameter, Measurement.Secondary.PowerCompliance, 0
TestParameter, Measurement.Bias.Source, 0, 0.5, 0
TestParameter, Measurement.Bias.Compliance, 0.01, 0.01, 0.01
TestParameter, Measurement.Monitor.Unit, SMU3:HR, SMU2:HR, SMU1:HR
TestParameter, Measurement.Monitor.Adc, HR ADC, HR ADC, HR ADC
TestParameter, Measurement.Monitor.Measurement, Compliance Side, Compliance Side, Compliance Side
TestParameter, Measurement.Monitor.RangingMode, LIMITED, LIMITED, LIMITED
TestParameter, Measurement.Monitor.RangeBoundary, 1nA, 1nA, 1nA
TestParameter, Measurement.Monitor.RangeRating, BY FULL RANGE, BY FULL RANGE, BY FULL RANGE
TestParameter, Measurement.Monitor.RangeRatingCoeff, 50, 50, 50
TestParameter, Measurement.Timing.Hold, 0
TestParameter, Measurement.Timing.Delay, 0
TestParameter, Measurement.Adc.HighSpeed.Mode, AUTO
TestParameter, Measurement.Adc.HighSpeed.Coeff, 1
TestParameter, Measurement.Adc.HighResolution.AutoZero, OFF
TestParameter, Measurement.Adc.HighResolution.Mode, AUTO
TestParameter, Measurement.Adc.HighResolution.Coeff, 6
TestParameter, Measurement.WaitTime.Source.Coeff, 1
TestParameter, Measurement.WaitTime.Source.Offset, 0
TestParameter, Measurement.WaitTime.Monitor.Coeff, 1
TestParameter, Measurement.WaitTime.Monitor.Offset, 0
TestParameter, Function.User.Name, absId, absIg, absIs
TestParameter, Function.User.Unit, A, A, A
TestParameter, Function.User.Definition, abs(Id), abs(Ig), abs(Is)
TestParameter, Output.Graph.Enabled, true
TestParameter, Output.Graph.AutoScaling, false
TestParameter, Output.Graph.XAxis.Data, Vd
TestParameter, Output.Graph.XAxis.Scale, Linear
TestParameter, Output.Graph.XAxis.Left, 0
TestParameter, Output.Graph.XAxis.Right, 2
TestParameter, Output.Graph.XAxis.RunTimeAutoScale, false
TestParameter, Output.Graph.YAxis.Data, absId, absIs
TestParameter, Output.Graph.YAxis.Scale, Linear, Linear
TestParameter, Output.Graph.YAxis.Bottom, 1E-15, 1E-15
TestParameter, Output.Graph.YAxis.Top, 0.001, 0.001
TestParameter, Output.Graph.YAxis.Group, , 
TestParameter, Output.Graph.YAxis.RunTimeAutoScale, true, true
TestParameter, Output.List.Data, Vg, Vd, Id, Is, Ig, absId, absIs, absIg
TestParameter, AutoAnalysis.Interpolation, false
TestParameter, AutoAnalysis.Var2StepCount, 1
TestParameter, AutoAnalysis.Var2StepScript, 
TestParameter, AutoAnalysis.Line1.Enabled, false
TestParameter, AutoAnalysis.Line1.Type, 1
TestParameter, AutoAnalysis.Line1.Fix, True
TestParameter, AutoAnalysis.Line1.YAxis, 0
TestParameter, AutoAnalysis.Line1.Point1.Type, 0
TestParameter, AutoAnalysis.Line1.Point1.XY.X, 
TestParameter, AutoAnalysis.Line1.Point1.XY.Y, 
TestParameter, AutoAnalysis.Line1.Point1.Data.Var, 
TestParameter, AutoAnalysis.Line1.Point1.Data.Condition, 
TestParameter, AutoAnalysis.Line1.Point1.Data.Start, false
TestParameter, AutoAnalysis.Line1.Point1.Data.StartVar, 
TestParameter, AutoAnalysis.Line1.Point1.Data.StartCondition, 
TestParameter, AutoAnalysis.Line1.Point2.Type, 0
TestParameter, AutoAnalysis.Line1.Point2.XY.X, 
TestParameter, AutoAnalysis.Line1.Point2.XY.Y, 
TestParameter, AutoAnalysis.Line1.Point2.Data.Var, 
TestParameter, AutoAnalysis.Line1.Point2.Data.Condition, 
TestParameter, AutoAnalysis.Line1.Point2.Data.Start, false
TestParameter, AutoAnalysis.Line1.Point2.Data.StartVar, 
TestParameter, AutoAnalysis.Line1.Point2.Data.StartCondition, 
TestParameter, AutoAnalysis.Line1.GradientExpr, 0
TestParameter, AutoAnalysis.Line2.Enabled, false
TestParameter, AutoAnalysis.Line2.Type, 1
TestParameter, AutoAnalysis.Line2.Fix, True
TestParameter, AutoAnalysis.Line2.YAxis, 0
TestParameter, AutoAnalysis.Line2.Point1.Type, 0
TestParameter, AutoAnalysis.Line2.Point1.XY.X, 
TestParameter, AutoAnalysis.Line2.Point1.XY.Y, 
TestParameter, AutoAnalysis.Line2.Point1.Data.Var, 
TestParameter, AutoAnalysis.Line2.Point1.Data.Condition, 
TestParameter, AutoAnalysis.Line2.Point1.Data.Start, false
TestParameter, AutoAnalysis.Line2.Point1.Data.StartVar, 
TestParameter, AutoAnalysis.Line2.Point1.Data.StartCondition, 
TestParameter, AutoAnalysis.Line2.Point2.Type, 0
TestParameter, AutoAnalysis.Line2.Point2.XY.X, 
TestParameter, AutoAnalysis.Line2.Point2.XY.Y, 
TestParameter, AutoAnalysis.Line2.Point2.Data.Var, 
TestParameter, AutoAnalysis.Line2.Point2.Data.Condition, 
TestParameter, AutoAnalysis.Line2.Point2.Data.Start, false
TestParameter, AutoAnalysis.Line2.Point2.Data.StartVar, 
TestParameter, AutoAnalysis.Line2.Point2.Data.StartCondition, 
TestParameter, AutoAnalysis.Line2.GradientExpr, 0
TestParameter, AutoAnalysis.Marker.Enabled, false
TestParameter, AutoAnalysis.Marker.Data.Var, 
TestParameter, AutoAnalysis.Marker.Data.Condition, 
TestParameter, AutoAnalysis.Marker.Data.Start, false
TestParameter, AutoAnalysis.Marker.Data.StartVar, 
TestParameter, AutoAnalysis.Marker.Data.StartCondition, 
MetaData, TestRecord.EntryPoint, true
MetaData, TestRecord.RecordTime, 06/03/2025 15:02:59
MetaData, TestRecord.TestTarget, R[6]_D[6]_L[100]
MetaData, TestRecord.IterationIndex, 1
MetaData, TestRecord.Preservation, true
MetaData, TestRecord.Flag, !
MetaData, TestRecord.Remarks, 
MetaData, TestRecord.LinkKey, 788f33e5-fbae-412a-b027-284a5073efbd
MetaData, TestRecord.Parameters, 
Dimension1, 202, 202, 202, 202, 202, 202, 202, 202
Dimension2, 7, 7, 7, 7, 7, 7, 7, 7
DataName, Vd, Vg, Id, Ig, Is, absId, absIg, absIs
DataValue, 0, 0.5, 4.4250700000000003E-10, 2.1950000000000002E-12, -4.6148600000000004E-10, 4.4250700000000003E-10, 2.1950000000000002E-12, 4.6148600000000004E-10
DataValue, 0.01, 0.5, 1.6392E-07, 1.985E-12, -1.6352E-07, 1.6392E-07, 1.985E-12, 1.6352E-07
DataValue, 0.02, 0.5, 3.1972E-07, 2.105E-12, -3.194E-07, 3.1972E-07, 2.105E-12, 3.194E-07
DataValue, 0.030000000000000002, 0.5, 4.6231999999999997E-07, 2.035E-12, -4.6454E-07, 4.6231999999999997E-07, 2.035E-12, 4.6454E-07
DataValue, 0.04, 0.5, 5.976E-07, 2.235E-12, -5.9432E-07, 5.976E-07, 2.235E-12, 5.9432E-07
DataValue, 0.05, 0.5, 7.2236E-07, 1.615E-12, -7.2604E-07, 7.2236E-07, 1.615E-12, 7.2604E-07
DataValue, 0.060000000000000005, 0.5, 8.4714E-07, 1.815E-12, -8.4896E-07, 8.4714E-07, 1.815E-12, 8.4896E-07
DataValue, 0.07, 0.5, 9.5686E-07, 2.165E-12, -9.6295999999999988E-07, 9.5686E-07, 2.165E-12, 9.6295999999999988E-07
DataValue, 0.08, 0.5, 1.06778E-06, 1.7250000000000002E-12, -1.07302E-06, 1.06778E-06, 1.7250000000000002E-12, 1.07302E-06
DataValue, 0.090000000000000011, 0.5, 1.1720000000000002E-06, 1.835E-12, -1.1687000000000001E-06, 1.1720000000000002E-06, 1.835E-12, 1.1687000000000001E-06
DataValue, 0.1, 0.5, 1.264E-06, 1.8950000000000003E-12, -1.2637E-06, 1.264E-06, 1.8950000000000003E-12, 1.2637E-06
DataValue, 0.11, 0.5, 1.3564E-06, 2.0950000000000003E-12, -1.3484E-06, 1.3564E-06, 2.0950000000000003E-12, 1.3484E-06
DataValue, 0.12000000000000001, 0.5, 1.4313000000000002E-06, 1.715E-12, -1.4293000000000002E-06, 1.4313000000000002E-06, 1.715E-12, 1.4293000000000002E-06
DataValue, 0.13, 0.5, 1.5068000000000001E-06, 1.825E-12, -1.5035E-06, 1.5068000000000001E-06, 1.825E-12, 1.5035E-06
DataValue, 0.14, 0.5, 1.5818000000000003E-06, 1.755E-12, -1.5699000000000002E-06, 1.5818000000000003E-06, 1.755E-12, 1.5699000000000002E-06
DataValue, 0.15, 0.5, 1.6444E-06, 1.825E-12, -1.6493000000000002E-06, 1.6444E-06, 1.825E-12, 1.6493000000000002E-06
DataValue, 0.16, 0.5, 1.7112000000000002E-06, 2.0250000000000004E-12, -1.7050000000000002E-06, 1.7112000000000002E-06, 2.0250000000000004E-12, 1.7050000000000002E-06
DataValue, 0.17, 0.5, 1.7679000000000003E-06, 2.2250000000000003E-12, -1.7665000000000002E-06, 1.7679000000000003E-06, 2.2250000000000003E-12, 1.7665000000000002E-06
DataValue, 0.18000000000000002, 0.5, 1.8198000000000001E-06, 2.2950000000000002E-12, -1.8167000000000001E-06, 1.8198000000000001E-06, 2.2950000000000002E-12, 1.8167000000000001E-06
DataValue, 0.19, 0.5, 1.8742000000000002E-06, 2.1450000000000003E-12, -1.8694000000000003E-06, 1.8742000000000002E-06, 2.1450000000000003E-12, 1.8694000000000003E-06
DataValue, 0.2, 0.5, 1.9167000000000002E-06, 1.575E-12, -1.9222E-06, 1.9167000000000002E-06, 1.575E-12, 1.9222E-06
DataValue, 0.21000000000000002, 0.5, 1.9864E-06, 1.905E-12, -1.9758E-06, 1.9864E-06, 1.905E-12, 1.9758E-06
DataValue, 0.22, 0.5, 2.0093000000000004E-06, 1.8950000000000003E-12, -2.0153E-06, 2.0093000000000004E-06, 1.8950000000000003E-12, 2.0153E-06
DataValue, 0.23, 0.5, 2.0478E-06, 2.105E-12, -2.0583000000000003E-06, 2.0478E-06, 2.105E-12, 2.0583000000000003E-06
DataValue, 0.24000000000000002, 0.5, 2.0881000000000004E-06, 1.8650000000000002E-12, -2.0726000000000003E-06, 2.0881000000000004E-06, 1.8650000000000002E-12, 2.0726000000000003E-06
DataValue, 0.25, 0.5, 2.1246000000000004E-06, 1.805E-12, -2.1196000000000004E-06, 2.1246000000000004E-06, 1.805E-12, 2.1196000000000004E-06
DataValue, 0.26, 0.5, 2.1432E-06, 1.885E-12, -2.1530000000000004E-06, 2.1432E-06, 1.885E-12, 2.1530000000000004E-06
DataValue, 0.27, 0.5, 2.1815E-06, 2.1450000000000003E-12, -2.1726E-06, 2.1815E-06, 2.1450000000000003E-12, 2.1726E-06
DataValue, 0.28, 0.5, 2.2161000000000003E-06, 1.425E-12, -2.2086000000000003E-06, 2.2161000000000003E-06, 1.425E-12, 2.2086000000000003E-06
DataValue, 0.29000000000000004, 0.5, 2.2363E-06, 1.9150000000000002E-12, -2.2249E-06, 2.2363E-06, 1.9150000000000002E-12, 2.2249E-06
DataValue, 0.3, 0.5, 2.2641E-06, 2.065E-12, -2.268E-06, 2.2641E-06, 2.065E-12, 2.268E-06
DataValue, 0.31, 0.5, 2.2798E-06, 1.8950000000000003E-12, -2.2625000000000004E-06, 2.2798E-06, 1.8950000000000003E-12, 2.2625000000000004E-06
DataValue, 0.32, 0.5, 2.3048000000000004E-06, 2.2950000000000002E-12, -2.2923E-06, 2.3048000000000004E-06, 2.2950000000000002E-12, 2.2923E-06
DataValue, 0.33, 0.5, 2.3054000000000004E-06, 2.2450000000000002E-12, -2.3125000000000003E-06, 2.3054000000000004E-06, 2.2450000000000002E-12, 2.3125000000000003E-06
DataValue, 0.34, 0.5, 2.3362E-06, 1.9950000000000003E-12, -2.3492000000000003E-06, 2.3362E-06, 1.9950000000000003E-12, 2.3492000000000003E-06
DataValue, 0.35000000000000003, 0.5, 2.3699000000000004E-06, 1.975E-12, -2.3644E-06, 2.3699000000000004E-06, 1.975E-12, 2.3644E-06
DataValue, 0.36000000000000004, 0.5, 2.3748E-06, 1.8450000000000003E-12, -2.4049E-06, 2.3748E-06, 1.8450000000000003E-12, 2.4049E-06
DataValue, 0.37, 0.5, 2.4259000000000004E-06, 2.0250000000000004E-12, -2.4164000000000003E-06, 2.4259000000000004E-06, 2.0250000000000004E-12, 2.4164000000000003E-06
DataValue, 0.38, 0.5, 2.4316E-06, 1.955E-12, -2.4329000000000005E-06, 2.4316E-06, 1.955E-12, 2.4329000000000005E-06
DataValue, 0.39, 0.5, 2.4495000000000004E-06, 1.9950000000000003E-12, -2.4478E-06, 2.4495000000000004E-06, 1.9950000000000003E-12, 2.4478E-06
DataValue, 0.4, 0.5, 2.4608000000000002E-06, 1.9450000000000003E-12, -2.4625E-06, 2.4608000000000002E-06, 1.9450000000000003E-12, 2.4625E-06
DataValue, 0.41000000000000003, 0.5, 2.4821000000000003E-06, 2.515E-12, -2.4806000000000004E-06, 2.4821000000000003E-06, 2.515E-12, 2.4806000000000004E-06
DataValue, 0.42000000000000004, 0.5, 2.5038E-06, 1.7350000000000002E-12, -2.5010000000000003E-06, 2.5038E-06, 1.7350000000000002E-12, 2.5010000000000003E-06
DataValue, 0.43, 0.5, 2.5014000000000003E-06, 2.0950000000000003E-12, -2.5178000000000003E-06, 2.5014000000000003E-06, 2.0950000000000003E-12, 2.5178000000000003E-06
DataValue, 0.44, 0.5, 2.5337000000000004E-06, 2.2950000000000002E-12, -2.5212E-06, 2.5337000000000004E-06, 2.2950000000000002E-12, 2.5212E-06
DataValue, 0.45, 0.5, 2.5359E-06, 1.6050000000000001E-12, -2.5302000000000004E-06, 2.5359E-06, 1.6050000000000001E-12, 2.5302000000000004E-06
DataValue, 0.46, 0.5, 2.5510000000000002E-06, 2.3250000000000003E-12, -2.5258000000000004E-06, 2.5510000000000002E-06, 2.3250000000000003E-12, 2.5258000000000004E-06
DataValue, 0.47000000000000003, 0.5, 2.5332E-06, 2.065E-12, -2.5140000000000004E-06, 2.5332E-06, 2.065E-12, 2.5140000000000004E-06
DataValue, 0.48000000000000004, 0.5, 2.5436E-06, 1.9950000000000003E-12, -2.544E-06, 2.5436E-06, 1.9950000000000003E-12, 2.544E-06
DataValue, 0.49000000000000005, 0.5, 2.5549000000000003E-06, 1.905E-12, -2.5469E-06, 2.5549000000000003E-06, 1.905E-12, 2.5469E-06
DataValue, 0.5, 0.5, 2.5637E-06, 2.0450000000000003E-12, -2.5791000000000004E-06, 2.5637E-06, 2.0450000000000003E-12, 2.5791000000000004E-06
DataValue, 0.51, 0.5, 2.5954E-06, 2.0750000000000003E-12, -2.5733000000000004E-06, 2.5954E-06, 2.0750000000000003E-12, 2.5733000000000004E-06
DataValue, 0.52, 0.5, 2.5805E-06, 1.9950000000000003E-12, -2.6019000000000004E-06, 2.5805E-06, 1.9950000000000003E-12, 2.6019000000000004E-06
DataValue, 0.53, 0.5, 2.5965000000000005E-06, 1.825E-12, -2.5880000000000005E-06, 2.5965000000000005E-06, 1.825E-12, 2.5880000000000005E-06
DataValue, 0.54, 0.5, 2.5997000000000003E-06, 1.7050000000000001E-12, -2.6176E-06, 2.5997000000000003E-06, 1.7050000000000001E-12, 2.6176E-06
DataValue, 0.55, 0.5, 2.5997000000000003E-06, 1.8450000000000003E-12, -2.6042000000000004E-06, 2.5997000000000003E-06, 1.8450000000000003E-12, 2.6042000000000004E-06
DataValue, 0.56, 0.5, 2.6241000000000004E-06, 1.905E-12, -2.606E-06, 2.6241000000000004E-06, 1.905E-12, 2.606E-06
DataValue, 0.57000000000000006, 0.5, 2.6206000000000004E-06, 1.855E-12, -2.6248000000000003E-06, 2.6206000000000004E-06, 1.855E-12, 2.6248000000000003E-06
DataValue, 0.58000000000000007, 0.5, 2.6205E-06, 1.925E-12, -2.6187000000000004E-06, 2.6205E-06, 1.925E-12, 2.6187000000000004E-06
DataValue, 0.59000000000000008, 0.5, 2.6183000000000004E-06, 2.1750000000000003E-12, -2.6311E-06, 2.6183000000000004E-06, 2.1750000000000003E-12, 2.6311E-06
DataValue, 0.6, 0.5, 2.6326000000000004E-06, 2.165E-12, -2.6145E-06, 2.6326000000000004E-06, 2.165E-12, 2.6145E-06
DataValue, 0.61, 0.5, 2.6354000000000002E-06, 1.825E-12, -2.6217000000000002E-06, 2.6354000000000002E-06, 1.825E-12, 2.6217000000000002E-06
DataValue, 0.62, 0.5, 2.6540000000000003E-06, 1.715E-12, -2.6349000000000004E-06, 2.6540000000000003E-06, 1.715E-12, 2.6349000000000004E-06
DataValue, 0.63, 0.5, 2.6363E-06, 2.105E-12, -2.6646000000000003E-06, 2.6363E-06, 2.105E-12, 2.6646000000000003E-06
DataValue, 0.64, 0.5, 2.6669000000000002E-06, 1.7850000000000002E-12, -2.6578E-06, 2.6669000000000002E-06, 1.7850000000000002E-12, 2.6578E-06
DataValue, 0.65, 0.5, 2.6809000000000005E-06, 1.565E-12, -2.6764000000000003E-06, 2.6809000000000005E-06, 1.565E-12, 2.6764000000000003E-06
DataValue, 0.66, 0.5, 2.6928000000000003E-06, 2.135E-12, -2.6890000000000004E-06, 2.6928000000000003E-06, 2.135E-12, 2.6890000000000004E-06
DataValue, 0.67, 0.5, 2.6973000000000004E-06, 1.8450000000000003E-12, -2.6892000000000004E-06, 2.6973000000000004E-06, 1.8450000000000003E-12, 2.6892000000000004E-06
DataValue, 0.68, 0.5, 2.6861000000000004E-06, 2.0950000000000003E-12, -2.6961000000000003E-06, 2.6861000000000004E-06, 2.0950000000000003E-12, 2.6961000000000003E-06
DataValue, 0.69000000000000006, 0.5, 2.6895000000000003E-06, 2.005E-12, -2.6945E-06, 2.6895000000000003E-06, 2.005E-12, 2.6945E-06
DataValue, 0.70000000000000007, 0.5, 2.6821E-06, 1.885E-12, -2.6889E-06, 2.6821E-06, 1.885E-12, 2.6889E-06
DataValue, 0.71000000000000008, 0.5, 2.6816000000000003E-06, 1.7950000000000001E-12, -2.7036000000000003E-06, 2.6816000000000003E-06, 1.7950000000000001E-12, 2.7036000000000003E-06
DataValue, 0.72000000000000008, 0.5, 2.7134E-06, 1.9450000000000003E-12, -2.7336000000000004E-06, 2.7134E-06, 1.9450000000000003E-12, 2.7336000000000004E-06
DataValue, 0.73, 0.5, 2.7332000000000004E-06, 2.065E-12, -2.7155E-06, 2.7332000000000004E-06, 2.065E-12, 2.7155E-06
DataValue, 0.74, 0.5, 2.7288000000000005E-06, 1.985E-12, -2.7278000000000004E-06, 2.7288000000000005E-06, 1.985E-12, 2.7278000000000004E-06
DataValue, 0.75, 0.5, 2.7602000000000003E-06, 1.875E-12, -2.7521000000000003E-06, 2.7602000000000003E-06, 1.875E-12, 2.7521000000000003E-06
DataValue, 0.76, 0.5, 2.7655000000000005E-06, 1.8650000000000002E-12, -2.7510000000000004E-06, 2.7655000000000005E-06, 1.8650000000000002E-12, 2.7510000000000004E-06
DataValue, 0.77, 0.5, 2.7638E-06, 2.005E-12, -2.7575000000000003E-06, 2.7638E-06, 2.005E-12, 2.7575000000000003E-06
DataValue, 0.78, 0.5, 2.7637000000000003E-06, 1.715E-12, -2.7704E-06, 2.7637000000000003E-06, 1.715E-12, 2.7704E-06
DataValue, 0.79, 0.5, 2.7526E-06, 1.675E-12, -2.7418E-06, 2.7526E-06, 1.675E-12, 2.7418E-06
DataValue, 0.8, 0.5, 2.7709000000000004E-06, 1.9150000000000002E-12, -2.7770000000000003E-06, 2.7709000000000004E-06, 1.9150000000000002E-12, 2.7770000000000003E-06
DataValue, 0.81, 0.5, 2.7770000000000003E-06, 2.115E-12, -2.7751000000000003E-06, 2.7770000000000003E-06, 2.115E-12, 2.7751000000000003E-06
DataValue, 0.82000000000000006, 0.5, 2.7806E-06, 1.825E-12, -2.7448000000000004E-06, 2.7806E-06, 1.825E-12, 2.7448000000000004E-06
DataValue, 0.83000000000000007, 0.5, 2.7720000000000003E-06, 1.975E-12, -2.7840000000000004E-06, 2.7720000000000003E-06, 1.975E-12, 2.7840000000000004E-06
DataValue, 0.84000000000000008, 0.5, 2.7983000000000004E-06, 2.265E-12, -2.7962000000000004E-06, 2.7983000000000004E-06, 2.265E-12, 2.7962000000000004E-06
DataValue, 0.85000000000000009, 0.5, 2.8087000000000003E-06, 1.9950000000000003E-12, -2.8208E-06, 2.8087000000000003E-06, 1.9950000000000003E-12, 2.8208E-06
DataValue, 0.86, 0.5, 2.8138000000000005E-06, 1.875E-12, -2.7973000000000003E-06, 2.8138000000000005E-06, 1.875E-12, 2.7973000000000003E-06
DataValue, 0.87, 0.5, 2.7964000000000004E-06, 1.9150000000000002E-12, -2.7999E-06, 2.7964000000000004E-06, 1.9150000000000002E-12, 2.7999E-06
DataValue, 0.88, 0.5, 2.821E-06, 1.925E-12, -2.7927000000000004E-06, 2.821E-06, 1.925E-12, 2.7927000000000004E-06
DataValue, 0.89, 0.5, 2.8076000000000004E-06, 1.475E-12, -2.8063E-06, 2.8076000000000004E-06, 1.475E-12, 2.8063E-06
DataValue, 0.9, 0.5, 2.8228000000000003E-06, 1.975E-12, -2.8114000000000003E-06, 2.8228000000000003E-06, 1.975E-12, 2.8114000000000003E-06
DataValue, 0.91, 0.5, 2.8338000000000003E-06, 1.9150000000000002E-12, -2.8223000000000005E-06, 2.8338000000000003E-06, 1.9150000000000002E-12, 2.8223000000000005E-06
DataValue, 0.92, 0.5, 2.8028E-06, 1.665E-12, -2.8361000000000003E-06, 2.8028E-06, 1.665E-12, 2.8361000000000003E-06
DataValue, 0.93, 0.5, 2.8251000000000003E-06, 2.0750000000000003E-12, -2.8252000000000005E-06, 2.8251000000000003E-06, 2.0750000000000003E-12, 2.8252000000000005E-06
DataValue, 0.94000000000000006, 0.5, 2.8191000000000002E-06, 1.875E-12, -2.8389000000000005E-06, 2.8191000000000002E-06, 1.875E-12, 2.8389000000000005E-06
