
SetupTitle, IdVd_Vg_par
PrimitiveTest, I/V Sweep
TestParameter, Context.MainFrame, B1500A
TestParameter, Channel.UnitType, SMU, SMU, SMU
TestParameter, Channel.Unit, SMU3:HR, SMU2:HR, SMU1:HR
TestParameter, Channel.IName, Id, Ig, Is
TestParameter, Channel.VName, Vd, Vg, Vs
TestParameter, Channel.Mode, V, V, V
TestParameter, Channel.Func, VAR1, VAR2, CONST
TestParameter, Channel.Index, 
TestParameter, Channel.Time, 
TestParameter, Measurement.Port.Unit, SMU3:HR, SMU2:HR, SMU1:HR
TestParameter, Measurement.Port.SeriesResistor, NONE, NONE, NONE
TestParameter, Measurement.Port.Filter, ON, ON, ON
TestParameter, Measurement.Port.OutputVoltageComparison, 0, 0, 0
TestParameter, Measurement.Primary.Locus, Double
TestParameter, Measurement.Primary.Scale, LINEAR
TestParameter, Measurement.Primary.Start, 0
TestParameter, Measurement.Primary.Stop, 1
TestParameter, Measurement.Primary.Step, 0.01
TestParameter, Measurement.Primary.Compliance, 0.01
TestParameter, Measurement.Primary.PowerCompliance, 0
TestParameter, Measurement.Aborting.Condition, CONTINUE AT ANY
TestParameter, Measurement.PostOutput.Value, START
TestParameter, Measurement.PostOutput.Retention, OFF
TestParameter, Measurement.Secondary.Start, 0
TestParameter, Measurement.Secondary.Count, 5
TestParameter, Measurement.Secondary.Step, 0.5
TestParameter, Measurement.Secondary.Compliance, 0.01
TestParameter, Measurement.Secondary.PowerCompliance, 0
TestParameter, Measurement.Bias.Source, 0, 0, 0
TestParameter, Measurement.Bias.Compliance, 0.01, 0.01, 0.01
TestParameter, Measurement.Monitor.Unit, SMU3:HR, SMU2:HR, SMU1:HR
TestParameter, Measurement.Monitor.Adc, HR ADC, HR ADC, HR ADC
TestParameter, Measurement.Monitor.Measurement, Compliance Side, Compliance Side, Compliance Side
TestParameter, Measurement.Monitor.RangingMode, LIMITED, LIMITED, LIMITED
TestParameter, Measurement.Monitor.RangeBoundary, 1nA, 1nA, 1nA
TestParameter, Measurement.Monitor.RangeRating, BY FULL RANGE, BY FULL RANGE, BY FULL RANGE
TestParameter, Measurement.Monitor.RangeRatingCoeff, 50, 50, 50
TestParameter, Measurement.Timing.Hold, 0
TestParameter, Measurement.Timing.Delay, 0
TestParameter, Measurement.Adc.HighSpeed.Mode, AUTO
TestParameter, Measurement.Adc.HighSpeed.Coeff, 1
TestParameter, Measurement.Adc.HighResolution.AutoZero, OFF
TestParameter, Measurement.Adc.HighResolution.Mode, AUTO
TestParameter, Measurement.Adc.HighResolution.Coeff, 6
TestParameter, Measurement.WaitTime.Source.Coeff, 1
TestParameter, Measurement.WaitTime.Source.Offset, 0
TestParameter, Measurement.WaitTime.Monitor.Coeff, 1
TestParameter, Measurement.WaitTime.Monitor.Offset, 0
TestParameter, Function.User.Name, absId, absIg, absIs
TestParameter, Function.User.Unit, A, A, A
TestParameter, Function.User.Definition, abs(Id), abs(Ig), abs(Is)
TestParameter, Output.Graph.Enabled, true
TestParameter, Output.Graph.AutoScaling, false
TestParameter, Output.Graph.XAxis.Data, Vd
TestParameter, Output.Graph.XAxis.Scale, Linear
TestParameter, Output.Graph.XAxis.Left, 0
TestParameter, Output.Graph.XAxis.Right, 2
TestParameter, Output.Graph.XAxis.RunTimeAutoScale, false
TestParameter, Output.Graph.YAxis.Data, absId, absIs
TestParameter, Output.Graph.YAxis.Scale, Linear, Linear
TestParameter, Output.Graph.YAxis.Bottom, 1E-15, 1E-15
TestParameter, Output.Graph.YAxis.Top, 0.001, 0.001
TestParameter, Output.Graph.YAxis.Group, , 
TestParameter, Output.Graph.YAxis.RunTimeAutoScale, true, true
TestParameter, Output.List.Data, Vg, Vd, Id, Is, Ig, absId, absIs, absIg
TestParameter, AutoAnalysis.Interpolation, false
TestParameter, AutoAnalysis.Var2StepCount, 1
TestParameter, AutoAnalysis.Var2StepScript, 
TestParameter, AutoAnalysis.Line1.Enabled, false
TestParameter, AutoAnalysis.Line1.Type, 1
TestParameter, AutoAnalysis.Line1.Fix, True
TestParameter, AutoAnalysis.Line1.YAxis, 0
TestParameter, AutoAnalysis.Line1.Point1.Type, 0
TestParameter, AutoAnalysis.Line1.Point1.XY.X, 
TestParameter, AutoAnalysis.Line1.Point1.XY.Y, 
TestParameter, AutoAnalysis.Line1.Point1.Data.Var, 
TestParameter, AutoAnalysis.Line1.Point1.Data.Condition, 
TestParameter, AutoAnalysis.Line1.Point1.Data.Start, false
TestParameter, AutoAnalysis.Line1.Point1.Data.StartVar, 
TestParameter, AutoAnalysis.Line1.Point1.Data.StartCondition, 
TestParameter, AutoAnalysis.Line1.Point2.Type, 0
TestParameter, AutoAnalysis.Line1.Point2.XY.X, 
TestParameter, AutoAnalysis.Line1.Point2.XY.Y, 
TestParameter, AutoAnalysis.Line1.Point2.Data.Var, 
TestParameter, AutoAnalysis.Line1.Point2.Data.Condition, 
TestParameter, AutoAnalysis.Line1.Point2.Data.Start, false
TestParameter, AutoAnalysis.Line1.Point2.Data.StartVar, 
TestParameter, AutoAnalysis.Line1.Point2.Data.StartCondition, 
TestParameter, AutoAnalysis.Line1.GradientExpr, 0
TestParameter, AutoAnalysis.Line2.Enabled, false
TestParameter, AutoAnalysis.Line2.Type, 1
TestParameter, AutoAnalysis.Line2.Fix, True
TestParameter, AutoAnalysis.Line2.YAxis, 0
TestParameter, AutoAnalysis.Line2.Point1.Type, 0
TestParameter, AutoAnalysis.Line2.Point1.XY.X, 
TestParameter, AutoAnalysis.Line2.Point1.XY.Y, 
TestParameter, AutoAnalysis.Line2.Point1.Data.Var, 
TestParameter, AutoAnalysis.Line2.Point1.Data.Condition, 
TestParameter, AutoAnalysis.Line2.Point1.Data.Start, false
TestParameter, AutoAnalysis.Line2.Point1.Data.StartVar, 
TestParameter, AutoAnalysis.Line2.Point1.Data.StartCondition, 
TestParameter, AutoAnalysis.Line2.Point2.Type, 0
TestParameter, AutoAnalysis.Line2.Point2.XY.X, 
TestParameter, AutoAnalysis.Line2.Point2.XY.Y, 
TestParameter, AutoAnalysis.Line2.Point2.Data.Var, 
TestParameter, AutoAnalysis.Line2.Point2.Data.Condition, 
TestParameter, AutoAnalysis.Line2.Point2.Data.Start, false
TestParameter, AutoAnalysis.Line2.Point2.Data.StartVar, 
TestParameter, AutoAnalysis.Line2.Point2.Data.StartCondition, 
TestParameter, AutoAnalysis.Line2.GradientExpr, 0
TestParameter, AutoAnalysis.Marker.Enabled, false
TestParameter, AutoAnalysis.Marker.Data.Var, 
TestParameter, AutoAnalysis.Marker.Data.Condition, 
TestParameter, AutoAnalysis.Marker.Data.Start, false
TestParameter, AutoAnalysis.Marker.Data.StartVar, 
TestParameter, AutoAnalysis.Marker.Data.StartCondition, 
MetaData, TestRecord.EntryPoint, true
MetaData, TestRecord.RecordTime, 06/03/2025 14:20:20
MetaData, TestRecord.TestTarget, R[5]_D[6]_L[60]
MetaData, TestRecord.IterationIndex, 1
MetaData, TestRecord.Preservation, true
MetaData, TestRecord.Flag, !
MetaData, TestRecord.Remarks, 
MetaData, TestRecord.LinkKey, 1906f569-d502-4e66-b5bf-67eb8c63a298
MetaData, TestRecord.Parameters, 
Dimension1, 202, 202, 202, 202, 202, 202, 202, 202
Dimension2, 5, 5, 5, 5, 5, 5, 5, 5
DataName, Vd, Vg, Id, Ig, Is, absId, absIg, absIs
DataValue, 0, 0, -4.13E-13, 1.805E-12, -2.7460000000000002E-12, 4.13E-13, 1.805E-12, 2.7460000000000002E-12
DataValue, 0.01, 0, 1.9884700000000002E-10, 1.815E-12, -1.98726E-10, 1.9884700000000002E-10, 1.815E-12, 1.98726E-10
DataValue, 0.02, 0, 3.4991700000000004E-10, 2.3050000000000004E-12, -3.4724600000000003E-10, 3.4991700000000004E-10, 2.3050000000000004E-12, 3.4724600000000003E-10
DataValue, 0.030000000000000002, 0, 4.5665700000000003E-10, 1.7850000000000002E-12, -4.54666E-10, 4.5665700000000003E-10, 1.7850000000000002E-12, 4.54666E-10
DataValue, 0.04, 0, 5.76897E-10, 2.165E-12, -5.58696E-10, 5.76897E-10, 2.165E-12, 5.58696E-10
DataValue, 0.05, 0, 6.2665700000000006E-10, 1.7750000000000002E-12, -6.199960000000001E-10, 6.2665700000000006E-10, 1.7750000000000002E-12, 6.199960000000001E-10
DataValue, 0.060000000000000005, 0, 6.6851700000000006E-10, 1.5150000000000001E-12, -6.6821600000000006E-10, 6.6851700000000006E-10, 1.5150000000000001E-12, 6.6821600000000006E-10
DataValue, 0.07, 0, 7.3014700000000008E-10, 2.265E-12, -7.13386E-10, 7.3014700000000008E-10, 2.265E-12, 7.13386E-10
DataValue, 0.08, 0, 7.5546700000000005E-10, 1.9450000000000003E-12, -7.499760000000001E-10, 7.5546700000000005E-10, 1.9450000000000003E-12, 7.499760000000001E-10
DataValue, 0.090000000000000011, 0, 7.9761700000000006E-10, 2.1450000000000003E-12, -7.64876E-10, 7.9761700000000006E-10, 2.1450000000000003E-12, 7.64876E-10
DataValue, 0.1, 0, 8.0782700000000007E-10, 2.0750000000000003E-12, -8.1539600000000007E-10, 8.0782700000000007E-10, 2.0750000000000003E-12, 8.1539600000000007E-10
DataValue, 0.11, 0, 8.2232700000000007E-10, 1.755E-12, -8.39136E-10, 8.2232700000000007E-10, 1.755E-12, 8.39136E-10
DataValue, 0.12000000000000001, 0, 8.73957E-10, 2.115E-12, -8.64956E-10, 8.73957E-10, 2.115E-12, 8.64956E-10
DataValue, 0.13, 0, 9.1725700000000007E-10, 1.875E-12, -8.895860000000001E-10, 9.1725700000000007E-10, 1.875E-12, 8.895860000000001E-10
DataValue, 0.14, 0, 9.3218700000000014E-10, 1.765E-12, -9.56346E-10, 9.3218700000000014E-10, 1.765E-12, 9.56346E-10
DataValue, 0.15, 0, 9.76407E-10, 2.1950000000000002E-12, -9.411860000000001E-10, 9.76407E-10, 2.1950000000000002E-12, 9.411860000000001E-10
DataValue, 0.16, 0, 1.0033270000000002E-09, 1.925E-12, -1.0159460000000002E-09, 1.0033270000000002E-09, 1.925E-12, 1.0159460000000002E-09
DataValue, 0.17, 0, 9.9247700000000015E-10, 1.665E-12, -9.99016E-10, 9.9247700000000015E-10, 1.665E-12, 9.99016E-10
DataValue, 0.18000000000000002, 0, 1.054467E-09, 2.015E-12, -1.0610460000000001E-09, 1.054467E-09, 2.015E-12, 1.0610460000000001E-09
DataValue, 0.19, 0, 1.0621470000000002E-09, 1.485E-12, -1.0901460000000002E-09, 1.0621470000000002E-09, 1.485E-12, 1.0901460000000002E-09
DataValue, 0.2, 0, 1.05937E-09, 2.0950000000000003E-12, -1.092546E-09, 1.05937E-09, 2.0950000000000003E-12, 1.092546E-09
DataValue, 0.21000000000000002, 0, 1.04167E-09, 2.2250000000000003E-12, -1.090176E-09, 1.04167E-09, 2.2250000000000003E-12, 1.090176E-09
DataValue, 0.22, 0, 1.09467E-09, 1.875E-12, -1.1097660000000002E-09, 1.09467E-09, 1.875E-12, 1.1097660000000002E-09
DataValue, 0.23, 0, 1.17917E-09, 2.4550000000000003E-12, -1.15824E-09, 1.17917E-09, 2.4550000000000003E-12, 1.15824E-09
DataValue, 0.24000000000000002, 0, 1.14637E-09, 2.115E-12, -1.13874E-09, 1.14637E-09, 2.115E-12, 1.13874E-09
DataValue, 0.25, 0, 1.18377E-09, 2.0450000000000003E-12, -1.20724E-09, 1.18377E-09, 2.0450000000000003E-12, 1.20724E-09
DataValue, 0.26, 0, 1.24377E-09, 1.9450000000000003E-12, -1.23344E-09, 1.24377E-09, 1.9450000000000003E-12, 1.23344E-09
DataValue, 0.27, 0, 1.18617E-09, 1.9450000000000003E-12, -1.22884E-09, 1.18617E-09, 1.9450000000000003E-12, 1.22884E-09
DataValue, 0.28, 0, 1.22687E-09, 2.4550000000000003E-12, -1.28754E-09, 1.22687E-09, 2.4550000000000003E-12, 1.28754E-09
DataValue, 0.29000000000000004, 0, 1.25557E-09, 2.1750000000000003E-12, -1.25454E-09, 1.25557E-09, 2.1750000000000003E-12, 1.25454E-09
DataValue, 0.3, 0, 1.24187E-09, 2.315E-12, -1.27894E-09, 1.24187E-09, 2.315E-12, 1.27894E-09
DataValue, 0.31, 0, 1.28287E-09, 1.905E-12, -1.25124E-09, 1.28287E-09, 1.905E-12, 1.25124E-09
DataValue, 0.32, 0, 1.28257E-09, 2.105E-12, -1.31564E-09, 1.28257E-09, 2.105E-12, 1.31564E-09
DataValue, 0.33, 0, 1.29247E-09, 1.5550000000000001E-12, -1.26574E-09, 1.29247E-09, 1.5550000000000001E-12, 1.26574E-09
DataValue, 0.34, 0, 1.29257E-09, 2.235E-12, -1.30234E-09, 1.29257E-09, 2.235E-12, 1.30234E-09
DataValue, 0.35000000000000003, 0, 1.34157E-09, 2.055E-12, -1.33524E-09, 1.34157E-09, 2.055E-12, 1.33524E-09
DataValue, 0.36000000000000004, 0, 1.33897E-09, 1.825E-12, -1.39334E-09, 1.33897E-09, 1.825E-12, 1.39334E-09
DataValue, 0.37, 0, 1.37207E-09, 1.935E-12, -1.41634E-09, 1.37207E-09, 1.935E-12, 1.41634E-09
DataValue, 0.38, 0, 1.45967E-09, 1.7950000000000001E-12, -1.47154E-09, 1.45967E-09, 1.7950000000000001E-12, 1.47154E-09
DataValue, 0.39, 0, 1.50327E-09, 2.215E-12, -1.46774E-09, 1.50327E-09, 2.215E-12, 1.46774E-09
DataValue, 0.4, 0, 1.49487E-09, 2.315E-12, -1.47804E-09, 1.49487E-09, 2.315E-12, 1.47804E-09
DataValue, 0.41000000000000003, 0, 1.48747E-09, 1.975E-12, -1.56574E-09, 1.48747E-09, 1.975E-12, 1.56574E-09
DataValue, 0.42000000000000004, 0, 1.54747E-09, 1.985E-12, -1.55304E-09, 1.54747E-09, 1.985E-12, 1.55304E-09
DataValue, 0.43, 0, 1.54817E-09, 2.0250000000000004E-12, -1.50484E-09, 1.54817E-09, 2.0250000000000004E-12, 1.50484E-09
DataValue, 0.44, 0, 1.55737E-09, 1.875E-12, -1.59834E-09, 1.55737E-09, 1.875E-12, 1.59834E-09
DataValue, 0.45, 0, 1.65737E-09, 2.185E-12, -1.62564E-09, 1.65737E-09, 2.185E-12, 1.62564E-09
DataValue, 0.46, 0, 1.58547E-09, 1.875E-12, -1.57734E-09, 1.58547E-09, 1.875E-12, 1.57734E-09
DataValue, 0.47000000000000003, 0, 1.51797E-09, 1.955E-12, -1.55714E-09, 1.51797E-09, 1.955E-12, 1.55714E-09
DataValue, 0.48000000000000004, 0, 1.68117E-09, 2.055E-12, -1.62504E-09, 1.68117E-09, 2.055E-12, 1.62504E-09
DataValue, 0.49000000000000005, 0, 1.65677E-09, 2.005E-12, -1.62614E-09, 1.65677E-09, 2.005E-12, 1.62614E-09
DataValue, 0.5, 0, 1.62867E-09, 1.7850000000000002E-12, -1.65354E-09, 1.62867E-09, 1.7850000000000002E-12, 1.65354E-09
DataValue, 0.51, 0, 1.64227E-09, 1.875E-12, -1.70494E-09, 1.64227E-09, 1.875E-12, 1.70494E-09
DataValue, 0.52, 0, 1.72187E-09, 2.185E-12, -1.71344E-09, 1.72187E-09, 2.185E-12, 1.71344E-09
DataValue, 0.53, 0, 1.72027E-09, 2.0750000000000003E-12, -1.74534E-09, 1.72027E-09, 2.0750000000000003E-12, 1.74534E-09
DataValue, 0.54, 0, 1.73757E-09, 2.065E-12, -1.76854E-09, 1.73757E-09, 2.065E-12, 1.76854E-09
DataValue, 0.55, 0, 1.77717E-09, 2.015E-12, -1.79744E-09, 1.77717E-09, 2.015E-12, 1.79744E-09
DataValue, 0.56, 0, 1.76017E-09, 2.0950000000000003E-12, -1.78964E-09, 1.76017E-09, 2.0950000000000003E-12, 1.78964E-09
DataValue, 0.57000000000000006, 0, 1.85147E-09, 2.065E-12, -1.77224E-09, 1.85147E-09, 2.065E-12, 1.77224E-09
DataValue, 0.58000000000000007, 0, 1.83507E-09, 1.9150000000000002E-12, -1.80574E-09, 1.83507E-09, 1.9150000000000002E-12, 1.80574E-09
DataValue, 0.59000000000000008, 0, 1.78937E-09, 2.105E-12, -1.77324E-09, 1.78937E-09, 2.105E-12, 1.77324E-09
DataValue, 0.6, 0, 1.77157E-09, 1.925E-12, -1.71244E-09, 1.77157E-09, 1.925E-12, 1.71244E-09
DataValue, 0.61, 0, 1.80987E-09, 1.7950000000000001E-12, -1.76914E-09, 1.80987E-09, 1.7950000000000001E-12, 1.76914E-09
DataValue, 0.62, 0, 1.84267E-09, 1.8450000000000003E-12, -1.87284E-09, 1.84267E-09, 1.8450000000000003E-12, 1.87284E-09
DataValue, 0.63, 0, 1.87907E-09, 2.055E-12, -1.93194E-09, 1.87907E-09, 2.055E-12, 1.93194E-09
DataValue, 0.64, 0, 1.94347E-09, 1.955E-12, -1.99194E-09, 1.94347E-09, 1.955E-12, 1.99194E-09
DataValue, 0.65, 0, 2.02047E-09, 2.0450000000000003E-12, -2.00074E-09, 2.02047E-09, 2.0450000000000003E-12, 2.00074E-09
DataValue, 0.66, 0, 2.06237E-09, 1.675E-12, -2.02634E-09, 2.06237E-09, 1.675E-12, 2.02634E-09
DataValue, 0.67, 0, 2.00267E-09, 1.6050000000000001E-12, -2.06314E-09, 2.00267E-09, 1.6050000000000001E-12, 2.06314E-09
DataValue, 0.68, 0, 2.07097E-09, 1.975E-12, -2.03474E-09, 2.07097E-09, 1.975E-12, 2.03474E-09
DataValue, 0.69000000000000006, 0, 2.01407E-09, 2.015E-12, -2.02794E-09, 2.01407E-09, 2.015E-12, 2.02794E-09
DataValue, 0.70000000000000007, 0, 2.12397E-09, 2.2450000000000002E-12, -2.10984E-09, 2.12397E-09, 2.2450000000000002E-12, 2.10984E-09
DataValue, 0.71000000000000008, 0, 2.03977E-09, 1.7450000000000001E-12, -2.07714E-09, 2.03977E-09, 1.7450000000000001E-12, 2.07714E-09
DataValue, 0.72000000000000008, 0, 2.04587E-09, 1.935E-12, -2.11934E-09, 2.04587E-09, 1.935E-12, 2.11934E-09
DataValue, 0.73, 0, 2.16867E-09, 2.5250000000000002E-12, -2.17504E-09, 2.16867E-09, 2.5250000000000002E-12, 2.17504E-09
DataValue, 0.74, 0, 2.17937E-09, 2.2950000000000002E-12, -2.12814E-09, 2.17937E-09, 2.2950000000000002E-12, 2.12814E-09
DataValue, 0.75, 0, 2.20587E-09, 2.235E-12, -2.2823399999999998E-09, 2.20587E-09, 2.235E-12, 2.2823399999999998E-09
DataValue, 0.76, 0, 2.20917E-09, 1.7950000000000001E-12, -2.14514E-09, 2.20917E-09, 1.7950000000000001E-12, 2.14514E-09
DataValue, 0.77, 0, 2.28257E-09, 1.985E-12, -2.31774E-09, 2.28257E-09, 1.985E-12, 2.31774E-09
DataValue, 0.78, 0, 2.19857E-09, 2.055E-12, -2.25894E-09, 2.19857E-09, 2.055E-12, 2.25894E-09
DataValue, 0.79, 0, 2.35527E-09, 1.9450000000000003E-12, -2.30494E-09, 2.35527E-09, 1.9450000000000003E-12, 2.30494E-09
DataValue, 0.8, 0, 2.35157E-09, 2.185E-12, -2.41094E-09, 2.35157E-09, 2.185E-12, 2.41094E-09
DataValue, 0.81, 0, 2.38857E-09, 2.065E-12, -2.36464E-09, 2.38857E-09, 2.065E-12, 2.36464E-09
DataValue, 0.82000000000000006, 0, 2.30437E-09, 2.105E-12, -2.35504E-09, 2.30437E-09, 2.105E-12, 2.35504E-09
DataValue, 0.83000000000000007, 0, 2.25897E-09, 1.855E-12, -2.26234E-09, 2.25897E-09, 1.855E-12, 2.26234E-09
DataValue, 0.84000000000000008, 0, 2.35927E-09, 1.7850000000000002E-12, -2.34864E-09, 2.35927E-09, 1.7850000000000002E-12, 2.34864E-09
DataValue, 0.85000000000000009, 0, 2.33637E-09, 1.7750000000000002E-12, -2.27014E-09, 2.33637E-09, 1.7750000000000002E-12, 2.27014E-09
DataValue, 0.86, 0, 2.40327E-09, 2.055E-12, -2.48474E-09, 2.40327E-09, 2.055E-12, 2.48474E-09
DataValue, 0.87, 0, 2.43837E-09, 2.015E-12, -2.41094E-09, 2.43837E-09, 2.015E-12, 2.41094E-09
DataValue, 0.88, 0, 2.62377E-09, 1.7750000000000002E-12, -2.57934E-09, 2.62377E-09, 1.7750000000000002E-12, 2.57934E-09
DataValue, 0.89, 0, 2.63227E-09, 1.925E-12, -2.74134E-09, 2.63227E-09, 1.925E-12, 2.74134E-09
DataValue, 0.9, 0, 2.71347E-09, 1.905E-12, -2.67774E-09, 2.71347E-09, 1.905E-12, 2.67774E-09
DataValue, 0.91, 0, 2.71647E-09, 2.135E-12, -2.66314E-09, 2.71647E-09, 2.135E-12, 2.66314E-09
DataValue, 0.92, 0, 2.88257E-09, 1.905E-12, -2.89624E-09, 2.88257E-09, 1.905E-12, 2.89624E-09
DataValue, 0.93, 0, 2.76777E-09, 2.495E-12, -2.73854E-09, 2.76777E-09, 2.495E-12, 2.73854E-09
DataValue, 0.94000000000000006, 0, 2.79927E-09, 1.7950000000000001E-12, -2.88154E-09, 2.79927E-09, 1.7950000000000001E-12, 2.88154E-09
DataValue, 0.95000000000000007, 0, 2.87527E-09, 1.7050000000000001E-12, -2.97774E-09, 2.87527E-09, 1.7050000000000001E-12, 2.97774E-09
DataValue, 0.96000000000000008, 0, 2.95837E-09, 1.8950000000000003E-12, -2.86454E-09, 2.95837E-09, 1.8950000000000003E-12, 2.86454E-09
DataValue, 0.97000000000000008, 0, 2.98317E-09, 2.005E-12, -3.06604E-09, 2.98317E-09, 2.005E-12, 3.06604E-09
DataValue, 0.98000000000000009, 0, 2.94167E-09, 1.9650000000000002E-12, -2.99464E-09, 2.94167E-09, 1.9650000000000002E-12, 2.99464E-09
DataValue, 0.9900000000000001, 0, 3.08517E-09, 1.7450000000000001E-12, -3.15184E-09, 3.08517E-09, 1.7450000000000001E-12, 3.15184E-09
DataValue, 1, 0, 3.20927E-09, 1.905E-12, -3.2949399999999998E-09, 3.20927E-09, 1.905E-12, 3.2949399999999998E-09
DataValue, 1, 0, 3.25577E-09, 2.065E-12, -3.19454E-09, 3.25577E-09, 2.065E-12, 3.19454E-09
DataValue, 0.9900000000000001, 0, 3.33237E-09, 2.0950000000000003E-12, -3.27624E-09, 3.33237E-09, 2.0950000000000003E-12, 3.27624E-09
DataValue, 0.98000000000000009, 0, 3.07977E-09, 1.925E-12, -3.13054E-09, 3.07977E-09, 1.925E-12, 3.13054E-09
DataValue, 0.97000000000000008, 0, 3.37417E-09, 1.955E-12, -3.41984E-09, 3.37417E-09, 1.955E-12, 3.41984E-09
DataValue, 0.96000000000000008, 0, 3.27387E-09, 2.135E-12, -3.33394E-09, 3.27387E-09, 2.135E-12, 3.33394E-09
DataValue, 0.95000000000000007, 0, 3.33017E-09, 2.3450000000000002E-12, -3.32194E-09, 3.33017E-09, 2.3450000000000002E-12, 3.32194E-09
DataValue, 0.94000000000000006, 0, 3.03067E-09, 2.215E-12, -3.03124E-09, 3.03067E-09, 2.215E-12, 3.03124E-09
DataValue, 0.93, 0, 2.93027E-09, 2.155E-12, -2.94144E-09, 2.93027E-09, 2.155E-12, 2.94144E-09
DataValue, 0.92, 0, 3.16187E-09, 1.835E-12, -3.08974E-09, 3.16187E-09, 1.835E-12, 3.08974E-09
DataValue, 0.91, 0, 3.03657E-09, 1.755E-12, -3.12754E-09, 3.03657E-09, 1.755E-12, 3.12754E-09
DataValue, 0.9, 0, 3.14227E-09, 2.005E-12, -3.04814E-09, 3.14227E-09, 2.005E-12, 3.04814E-09
DataValue, 0.89, 0, 2.88727E-09, 1.955E-12, -2.87834E-09, 2.88727E-09, 1.955E-12, 2.87834E-09
DataValue, 0.88, 0, 2.93777E-09, 2.165E-12, -2.87694E-09, 2.93777E-09, 2.165E-12, 2.87694E-09
