
SetupTitle, IdVd_Vg_par
PrimitiveTest, I/V Sweep
TestParameter, Context.MainFrame, B1500A
TestParameter, Channel.UnitType, SMU, SMU, SMU
TestParameter, Channel.Unit, SMU3:HR, SMU2:HR, SMU1:HR
TestParameter, Channel.IName, Id, Ig, Is
TestParameter, Channel.VName, Vd, Vg, Vs
TestParameter, Channel.Mode, V, V, V
TestParameter, Channel.Func, VAR1, VAR2, CONST
TestParameter, Channel.Index, 
TestParameter, Channel.Time, 
TestParameter, Measurement.Port.Unit, SMU3:HR, SMU2:HR, SMU1:HR
TestParameter, Measurement.Port.SeriesResistor, NONE, NONE, NONE
TestParameter, Measurement.Port.Filter, ON, ON, ON
TestParameter, Measurement.Port.OutputVoltageComparison, 0, 0, 0
TestParameter, Measurement.Primary.Locus, Double
TestParameter, Measurement.Primary.Scale, LINEAR
TestParameter, Measurement.Primary.Start, 0
TestParameter, Measurement.Primary.Stop, 1
TestParameter, Measurement.Primary.Step, 0.01
TestParameter, Measurement.Primary.Compliance, 0.01
TestParameter, Measurement.Primary.PowerCompliance, 0
TestParameter, Measurement.Aborting.Condition, CONTINUE AT ANY
TestParameter, Measurement.PostOutput.Value, START
TestParameter, Measurement.PostOutput.Retention, OFF
TestParameter, Measurement.Secondary.Start, 0.5
TestParameter, Measurement.Secondary.Count, 7
TestParameter, Measurement.Secondary.Step, 0.25
TestParameter, Measurement.Secondary.Compliance, 0.01
TestParameter, Measurement.Secondary.PowerCompliance, 0
TestParameter, Measurement.Bias.Source, 0, 0.5, 0
TestParameter, Measurement.Bias.Compliance, 0.01, 0.01, 0.01
TestParameter, Measurement.Monitor.Unit, SMU3:HR, SMU2:HR, SMU1:HR
TestParameter, Measurement.Monitor.Adc, HR ADC, HR ADC, HR ADC
TestParameter, Measurement.Monitor.Measurement, Compliance Side, Compliance Side, Compliance Side
TestParameter, Measurement.Monitor.RangingMode, LIMITED, LIMITED, LIMITED
TestParameter, Measurement.Monitor.RangeBoundary, 1nA, 1nA, 1nA
TestParameter, Measurement.Monitor.RangeRating, BY FULL RANGE, BY FULL RANGE, BY FULL RANGE
TestParameter, Measurement.Monitor.RangeRatingCoeff, 50, 50, 50
TestParameter, Measurement.Timing.Hold, 0
TestParameter, Measurement.Timing.Delay, 0
TestParameter, Measurement.Adc.HighSpeed.Mode, AUTO
TestParameter, Measurement.Adc.HighSpeed.Coeff, 1
TestParameter, Measurement.Adc.HighResolution.AutoZero, OFF
TestParameter, Measurement.Adc.HighResolution.Mode, AUTO
TestParameter, Measurement.Adc.HighResolution.Coeff, 6
TestParameter, Measurement.WaitTime.Source.Coeff, 1
TestParameter, Measurement.WaitTime.Source.Offset, 0
TestParameter, Measurement.WaitTime.Monitor.Coeff, 1
TestParameter, Measurement.WaitTime.Monitor.Offset, 0
TestParameter, Function.User.Name, absId, absIg, absIs
TestParameter, Function.User.Unit, A, A, A
TestParameter, Function.User.Definition, abs(Id), abs(Ig), abs(Is)
TestParameter, Output.Graph.Enabled, true
TestParameter, Output.Graph.AutoScaling, false
TestParameter, Output.Graph.XAxis.Data, Vd
TestParameter, Output.Graph.XAxis.Scale, Linear
TestParameter, Output.Graph.XAxis.Left, 0
TestParameter, Output.Graph.XAxis.Right, 2
TestParameter, Output.Graph.XAxis.RunTimeAutoScale, false
TestParameter, Output.Graph.YAxis.Data, absId, absIs
TestParameter, Output.Graph.YAxis.Scale, Linear, Linear
TestParameter, Output.Graph.YAxis.Bottom, 1E-15, 1E-15
TestParameter, Output.Graph.YAxis.Top, 0.001, 0.001
TestParameter, Output.Graph.YAxis.Group, , 
TestParameter, Output.Graph.YAxis.RunTimeAutoScale, true, true
TestParameter, Output.List.Data, Vg, Vd, Id, Is, Ig, absId, absIs, absIg
TestParameter, AutoAnalysis.Interpolation, false
TestParameter, AutoAnalysis.Var2StepCount, 1
TestParameter, AutoAnalysis.Var2StepScript, 
TestParameter, AutoAnalysis.Line1.Enabled, false
TestParameter, AutoAnalysis.Line1.Type, 1
TestParameter, AutoAnalysis.Line1.Fix, True
TestParameter, AutoAnalysis.Line1.YAxis, 0
TestParameter, AutoAnalysis.Line1.Point1.Type, 0
TestParameter, AutoAnalysis.Line1.Point1.XY.X, 
TestParameter, AutoAnalysis.Line1.Point1.XY.Y, 
TestParameter, AutoAnalysis.Line1.Point1.Data.Var, 
TestParameter, AutoAnalysis.Line1.Point1.Data.Condition, 
TestParameter, AutoAnalysis.Line1.Point1.Data.Start, false
TestParameter, AutoAnalysis.Line1.Point1.Data.StartVar, 
TestParameter, AutoAnalysis.Line1.Point1.Data.StartCondition, 
TestParameter, AutoAnalysis.Line1.Point2.Type, 0
TestParameter, AutoAnalysis.Line1.Point2.XY.X, 
TestParameter, AutoAnalysis.Line1.Point2.XY.Y, 
TestParameter, AutoAnalysis.Line1.Point2.Data.Var, 
TestParameter, AutoAnalysis.Line1.Point2.Data.Condition, 
TestParameter, AutoAnalysis.Line1.Point2.Data.Start, false
TestParameter, AutoAnalysis.Line1.Point2.Data.StartVar, 
TestParameter, AutoAnalysis.Line1.Point2.Data.StartCondition, 
TestParameter, AutoAnalysis.Line1.GradientExpr, 0
TestParameter, AutoAnalysis.Line2.Enabled, false
TestParameter, AutoAnalysis.Line2.Type, 1
TestParameter, AutoAnalysis.Line2.Fix, True
TestParameter, AutoAnalysis.Line2.YAxis, 0
TestParameter, AutoAnalysis.Line2.Point1.Type, 0
TestParameter, AutoAnalysis.Line2.Point1.XY.X, 
TestParameter, AutoAnalysis.Line2.Point1.XY.Y, 
TestParameter, AutoAnalysis.Line2.Point1.Data.Var, 
TestParameter, AutoAnalysis.Line2.Point1.Data.Condition, 
TestParameter, AutoAnalysis.Line2.Point1.Data.Start, false
TestParameter, AutoAnalysis.Line2.Point1.Data.StartVar, 
TestParameter, AutoAnalysis.Line2.Point1.Data.StartCondition, 
TestParameter, AutoAnalysis.Line2.Point2.Type, 0
TestParameter, AutoAnalysis.Line2.Point2.XY.X, 
TestParameter, AutoAnalysis.Line2.Point2.XY.Y, 
TestParameter, AutoAnalysis.Line2.Point2.Data.Var, 
TestParameter, AutoAnalysis.Line2.Point2.Data.Condition, 
TestParameter, AutoAnalysis.Line2.Point2.Data.Start, false
TestParameter, AutoAnalysis.Line2.Point2.Data.StartVar, 
TestParameter, AutoAnalysis.Line2.Point2.Data.StartCondition, 
TestParameter, AutoAnalysis.Line2.GradientExpr, 0
TestParameter, AutoAnalysis.Marker.Enabled, false
TestParameter, AutoAnalysis.Marker.Data.Var, 
TestParameter, AutoAnalysis.Marker.Data.Condition, 
TestParameter, AutoAnalysis.Marker.Data.Start, false
TestParameter, AutoAnalysis.Marker.Data.StartVar, 
TestParameter, AutoAnalysis.Marker.Data.StartCondition, 
MetaData, TestRecord.EntryPoint, true
MetaData, TestRecord.RecordTime, 06/03/2025 15:44:05
MetaData, TestRecord.TestTarget, R[4]_D[5]_L[90]
MetaData, TestRecord.IterationIndex, 1
MetaData, TestRecord.Preservation, true
MetaData, TestRecord.Flag, !
MetaData, TestRecord.Remarks, 
MetaData, TestRecord.LinkKey, 2c47c2a3-cc4c-4697-88e7-18681a6581bf
MetaData, TestRecord.Parameters, 
Dimension1, 202, 202, 202, 202, 202, 202, 202, 202
Dimension2, 7, 7, 7, 7, 7, 7, 7, 7
DataName, Vd, Vg, Id, Ig, Is, absId, absIg, absIs
DataValue, 0, 0.5, 5.6429700000000008E-10, 1.235E-12, -2.6079600000000004E-10, 5.6429700000000008E-10, 1.235E-12, 2.6079600000000004E-10
DataValue, 0.01, 0.5, 1.8264E-07, 1.425E-12, -1.8298E-07, 1.8264E-07, 1.425E-12, 1.8298E-07
DataValue, 0.02, 0.5, 3.5272E-07, 7.350000000000001E-13, -3.5385999999999997E-07, 3.5272E-07, 7.350000000000001E-13, 3.5385999999999997E-07
DataValue, 0.030000000000000002, 0.5, 5.1572E-07, 1.015E-12, -5.1708E-07, 5.1572E-07, 1.015E-12, 5.1708E-07
DataValue, 0.04, 0.5, 6.7128E-07, 1.4150000000000001E-12, -6.6642E-07, 6.7128E-07, 1.4150000000000001E-12, 6.6642E-07
DataValue, 0.05, 0.5, 8.163E-07, 1.145E-12, -8.0858E-07, 8.163E-07, 1.145E-12, 8.0858E-07
DataValue, 0.060000000000000005, 0.5, 9.4245999999999993E-07, 1.045E-12, -9.465E-07, 9.4245999999999993E-07, 1.045E-12, 9.465E-07
DataValue, 0.07, 0.5, 1.07474E-06, 8.95E-13, -1.08806E-06, 1.07474E-06, 8.95E-13, 1.08806E-06
DataValue, 0.08, 0.5, 1.1787E-06, 1.155E-12, -1.1873E-06, 1.1787E-06, 1.155E-12, 1.1873E-06
DataValue, 0.090000000000000011, 0.5, 1.2918E-06, 1.3650000000000001E-12, -1.2994000000000002E-06, 1.2918E-06, 1.3650000000000001E-12, 1.2994000000000002E-06
DataValue, 0.1, 0.5, 1.396E-06, 1.235E-12, -1.3927000000000002E-06, 1.396E-06, 1.235E-12, 1.3927000000000002E-06
DataValue, 0.11, 0.5, 1.4951E-06, 1.2750000000000001E-12, -1.5001000000000003E-06, 1.4951E-06, 1.2750000000000001E-12, 1.5001000000000003E-06
DataValue, 0.12000000000000001, 0.5, 1.6072000000000003E-06, 9.950000000000001E-13, -1.5982000000000002E-06, 1.6072000000000003E-06, 9.950000000000001E-13, 1.5982000000000002E-06
DataValue, 0.13, 0.5, 1.6944000000000002E-06, 1.015E-12, -1.6916000000000002E-06, 1.6944000000000002E-06, 1.015E-12, 1.6916000000000002E-06
DataValue, 0.14, 0.5, 1.7711E-06, 1.4550000000000002E-12, -1.7587000000000002E-06, 1.7711E-06, 1.4550000000000002E-12, 1.7587000000000002E-06
DataValue, 0.15, 0.5, 1.8586E-06, 9.75E-13, -1.8446E-06, 1.8586E-06, 9.75E-13, 1.8446E-06
DataValue, 0.16, 0.5, 1.911E-06, 1.095E-12, -1.9137E-06, 1.911E-06, 1.095E-12, 1.9137E-06
DataValue, 0.17, 0.5, 1.9854E-06, 1.045E-12, -1.9803000000000003E-06, 1.9854E-06, 1.045E-12, 1.9803000000000003E-06
DataValue, 0.18000000000000002, 0.5, 2.0391E-06, 1.1250000000000002E-12, -2.0631E-06, 2.0391E-06, 1.1250000000000002E-12, 2.0631E-06
DataValue, 0.19, 0.5, 2.0971000000000002E-06, 1.345E-12, -2.1171E-06, 2.0971000000000002E-06, 1.345E-12, 2.1171E-06
DataValue, 0.2, 0.5, 2.1792000000000002E-06, 1.2150000000000002E-12, -2.1919E-06, 2.1792000000000002E-06, 1.2150000000000002E-12, 2.1919E-06
DataValue, 0.21000000000000002, 0.5, 2.2193E-06, 1.0750000000000002E-12, -2.2020000000000003E-06, 2.2193E-06, 1.0750000000000002E-12, 2.2020000000000003E-06
DataValue, 0.22, 0.5, 2.2539E-06, 1.285E-12, -2.2549000000000002E-06, 2.2539E-06, 1.285E-12, 2.2549000000000002E-06
DataValue, 0.23, 0.5, 2.2895000000000003E-06, 1.1650000000000002E-12, -2.3171000000000002E-06, 2.2895000000000003E-06, 1.1650000000000002E-12, 2.3171000000000002E-06
DataValue, 0.24000000000000002, 0.5, 2.3498000000000004E-06, 1.065E-12, -2.3427E-06, 2.3498000000000004E-06, 1.065E-12, 2.3427E-06
DataValue, 0.25, 0.5, 2.3911000000000003E-06, 1.105E-12, -2.3913000000000003E-06, 2.3911000000000003E-06, 1.105E-12, 2.3913000000000003E-06
DataValue, 0.26, 0.5, 2.4378E-06, 9.8500000000000014E-13, -2.4158000000000002E-06, 2.4378E-06, 9.8500000000000014E-13, 2.4158000000000002E-06
DataValue, 0.27, 0.5, 2.4778000000000002E-06, 1.335E-12, -2.4754E-06, 2.4778000000000002E-06, 1.335E-12, 2.4754E-06
DataValue, 0.28, 0.5, 2.5284000000000002E-06, 9.65E-13, -2.4906000000000003E-06, 2.5284000000000002E-06, 9.65E-13, 2.4906000000000003E-06
DataValue, 0.29000000000000004, 0.5, 2.5494E-06, 1.2650000000000002E-12, -2.5357E-06, 2.5494E-06, 1.2650000000000002E-12, 2.5357E-06
DataValue, 0.3, 0.5, 2.5615000000000004E-06, 1.4450000000000002E-12, -2.5494E-06, 2.5615000000000004E-06, 1.4450000000000002E-12, 2.5494E-06
DataValue, 0.31, 0.5, 2.5920000000000003E-06, 1.3250000000000001E-12, -2.5918000000000003E-06, 2.5920000000000003E-06, 1.3250000000000001E-12, 2.5918000000000003E-06
DataValue, 0.32, 0.5, 2.6174E-06, 1.195E-12, -2.6206000000000004E-06, 2.6174E-06, 1.195E-12, 2.6206000000000004E-06
DataValue, 0.33, 0.5, 2.6573000000000004E-06, 1.3050000000000002E-12, -2.6727000000000003E-06, 2.6573000000000004E-06, 1.3050000000000002E-12, 2.6727000000000003E-06
DataValue, 0.34, 0.5, 2.6851000000000003E-06, 1.015E-12, -2.6812000000000003E-06, 2.6851000000000003E-06, 1.015E-12, 2.6812000000000003E-06
DataValue, 0.35000000000000003, 0.5, 2.7217E-06, 1.485E-12, -2.7092000000000003E-06, 2.7217E-06, 1.485E-12, 2.7092000000000003E-06
DataValue, 0.36000000000000004, 0.5, 2.7228000000000004E-06, 1.105E-12, -2.7233000000000003E-06, 2.7228000000000004E-06, 1.105E-12, 2.7233000000000003E-06
DataValue, 0.37, 0.5, 2.7510000000000004E-06, 7.25E-13, -2.7110000000000004E-06, 2.7510000000000004E-06, 7.25E-13, 2.7110000000000004E-06
DataValue, 0.38, 0.5, 2.7632E-06, 1.4050000000000002E-12, -2.7569000000000002E-06, 2.7632E-06, 1.4050000000000002E-12, 2.7569000000000002E-06
DataValue, 0.39, 0.5, 2.7663E-06, 1.185E-12, -2.7672000000000004E-06, 2.7663E-06, 1.185E-12, 2.7672000000000004E-06
DataValue, 0.4, 0.5, 2.7788000000000004E-06, 1.2250000000000001E-12, -2.7740000000000005E-06, 2.7788000000000004E-06, 1.2250000000000001E-12, 2.7740000000000005E-06
DataValue, 0.41000000000000003, 0.5, 2.7992000000000002E-06, 9.4500000000000011E-13, -2.7966000000000005E-06, 2.7992000000000002E-06, 9.4500000000000011E-13, 2.7966000000000005E-06
DataValue, 0.42000000000000004, 0.5, 2.7997000000000005E-06, 1.185E-12, -2.7847E-06, 2.7997000000000005E-06, 1.185E-12, 2.7847E-06
DataValue, 0.43, 0.5, 2.7962000000000004E-06, 9.75E-13, -2.8139000000000003E-06, 2.7962000000000004E-06, 9.75E-13, 2.8139000000000003E-06
DataValue, 0.44, 0.5, 2.8202E-06, 9.65E-13, -2.8335000000000005E-06, 2.8202E-06, 9.65E-13, 2.8335000000000005E-06
DataValue, 0.45, 0.5, 2.8637000000000002E-06, 1.475E-12, -2.8771000000000004E-06, 2.8637000000000002E-06, 1.475E-12, 2.8771000000000004E-06
DataValue, 0.46, 0.5, 2.8872000000000005E-06, 1.185E-12, -2.8661000000000004E-06, 2.8872000000000005E-06, 1.185E-12, 2.8661000000000004E-06
DataValue, 0.47000000000000003, 0.5, 2.854E-06, 1.045E-12, -2.8521E-06, 2.854E-06, 1.045E-12, 2.8521E-06
DataValue, 0.48000000000000004, 0.5, 2.8876E-06, 8.45E-13, -2.8832E-06, 2.8876E-06, 8.45E-13, 2.8832E-06
DataValue, 0.49000000000000005, 0.5, 2.9116E-06, 1.195E-12, -2.9334E-06, 2.9116E-06, 1.195E-12, 2.9334E-06
DataValue, 0.5, 0.5, 2.9348000000000003E-06, 8.95E-13, -2.9459000000000005E-06, 2.9348000000000003E-06, 8.95E-13, 2.9459000000000005E-06
DataValue, 0.51, 0.5, 2.9547000000000003E-06, 1.575E-12, -2.9363E-06, 2.9547000000000003E-06, 1.575E-12, 2.9363E-06
DataValue, 0.52, 0.5, 2.9436000000000005E-06, 1.425E-12, -2.9334E-06, 2.9436000000000005E-06, 1.425E-12, 2.9334E-06
DataValue, 0.53, 0.5, 2.9511000000000004E-06, 1.1250000000000002E-12, -2.9680000000000002E-06, 2.9511000000000004E-06, 1.1250000000000002E-12, 2.9680000000000002E-06
DataValue, 0.54, 0.5, 2.9709000000000002E-06, 8.8500000000000007E-13, -2.9634000000000003E-06, 2.9709000000000002E-06, 8.8500000000000007E-13, 2.9634000000000003E-06
DataValue, 0.55, 0.5, 2.9404000000000003E-06, 1.235E-12, -2.9476000000000004E-06, 2.9404000000000003E-06, 1.235E-12, 2.9476000000000004E-06
DataValue, 0.56, 0.5, 2.9733000000000004E-06, 1.185E-12, -2.9553000000000003E-06, 2.9733000000000004E-06, 1.185E-12, 2.9553000000000003E-06
DataValue, 0.57000000000000006, 0.5, 2.9855000000000005E-06, 1.3650000000000001E-12, -2.9697E-06, 2.9855000000000005E-06, 1.3650000000000001E-12, 2.9697E-06
DataValue, 0.58000000000000007, 0.5, 3.0050000000000005E-06, 1.4450000000000002E-12, -2.9668E-06, 3.0050000000000005E-06, 1.4450000000000002E-12, 2.9668E-06
DataValue, 0.59000000000000008, 0.5, 2.9669000000000003E-06, 1.245E-12, -2.9733000000000004E-06, 2.9669000000000003E-06, 1.245E-12, 2.9733000000000004E-06
DataValue, 0.6, 0.5, 2.9872000000000004E-06, 1.185E-12, -3.0202000000000003E-06, 2.9872000000000004E-06, 1.185E-12, 3.0202000000000003E-06
DataValue, 0.61, 0.5, 3.0003000000000003E-06, 1.095E-12, -3.0237000000000004E-06, 3.0003000000000003E-06, 1.095E-12, 3.0237000000000004E-06
DataValue, 0.62, 0.5, 3.0196000000000003E-06, 1.065E-12, -3.0117000000000003E-06, 3.0196000000000003E-06, 1.065E-12, 3.0117000000000003E-06
DataValue, 0.63, 0.5, 3.0035E-06, 1.2750000000000001E-12, -3.0265E-06, 3.0035E-06, 1.2750000000000001E-12, 3.0265E-06
DataValue, 0.64, 0.5, 3.0306000000000003E-06, 9.950000000000001E-13, -3.029E-06, 3.0306000000000003E-06, 9.950000000000001E-13, 3.029E-06
DataValue, 0.65, 0.5, 3.0384000000000004E-06, 1.0250000000000002E-12, -3.0380000000000004E-06, 3.0384000000000004E-06, 1.0250000000000002E-12, 3.0380000000000004E-06
DataValue, 0.66, 0.5, 3.0452000000000005E-06, 9.75E-13, -3.0448000000000005E-06, 3.0452000000000005E-06, 9.75E-13, 3.0448000000000005E-06
DataValue, 0.67, 0.5, 3.0665E-06, 1.055E-12, -3.0432000000000004E-06, 3.0665E-06, 1.055E-12, 3.0432000000000004E-06
DataValue, 0.68, 0.5, 3.0501000000000002E-06, 1.195E-12, -3.0324000000000004E-06, 3.0501000000000002E-06, 1.195E-12, 3.0324000000000004E-06
DataValue, 0.69000000000000006, 0.5, 3.0443000000000002E-06, 1.205E-12, -3.0367000000000005E-06, 3.0443000000000002E-06, 1.205E-12, 3.0367000000000005E-06
DataValue, 0.70000000000000007, 0.5, 3.0568E-06, 1.345E-12, -3.0328000000000004E-06, 3.0568E-06, 1.345E-12, 3.0328000000000004E-06
DataValue, 0.71000000000000008, 0.5, 3.0531000000000005E-06, 1.045E-12, -3.0731000000000003E-06, 3.0531000000000005E-06, 1.045E-12, 3.0731000000000003E-06
DataValue, 0.72000000000000008, 0.5, 3.0649000000000005E-06, 1.2650000000000002E-12, -3.0674000000000005E-06, 3.0649000000000005E-06, 1.2650000000000002E-12, 3.0674000000000005E-06
DataValue, 0.73, 0.5, 3.0789000000000003E-06, 1.185E-12, -3.0762000000000003E-06, 3.0789000000000003E-06, 1.185E-12, 3.0762000000000003E-06
DataValue, 0.74, 0.5, 3.0944000000000004E-06, 1.005E-12, -3.0901000000000003E-06, 3.0944000000000004E-06, 1.005E-12, 3.0901000000000003E-06
DataValue, 0.75, 0.5, 3.1086E-06, 9.25E-13, -3.1211000000000005E-06, 3.1086E-06, 9.25E-13, 3.1211000000000005E-06
DataValue, 0.76, 0.5, 3.131E-06, 1.145E-12, -3.1204000000000002E-06, 3.131E-06, 1.145E-12, 3.1204000000000002E-06
DataValue, 0.77, 0.5, 3.1456000000000004E-06, 1.155E-12, -3.1369000000000004E-06, 3.1456000000000004E-06, 1.155E-12, 3.1369000000000004E-06
DataValue, 0.78, 0.5, 3.1434000000000003E-06, 1.255E-12, -3.1528E-06, 3.1434000000000003E-06, 1.255E-12, 3.1528E-06
DataValue, 0.79, 0.5, 3.1800000000000005E-06, 1.1350000000000001E-12, -3.1532E-06, 3.1800000000000005E-06, 1.1350000000000001E-12, 3.1532E-06
DataValue, 0.8, 0.5, 3.1317000000000004E-06, 1.715E-12, -3.1456000000000004E-06, 3.1317000000000004E-06, 1.715E-12, 3.1456000000000004E-06
DataValue, 0.81, 0.5, 3.1226000000000004E-06, 1.2650000000000002E-12, -3.1524000000000005E-06, 3.1226000000000004E-06, 1.2650000000000002E-12, 3.1524000000000005E-06
DataValue, 0.82000000000000006, 0.5, 3.1537000000000004E-06, 1.3250000000000001E-12, -3.1128000000000005E-06, 3.1537000000000004E-06, 1.3250000000000001E-12, 3.1128000000000005E-06
DataValue, 0.83000000000000007, 0.5, 3.1538E-06, 1.3050000000000002E-12, -3.1682000000000004E-06, 3.1538E-06, 1.3050000000000002E-12, 3.1682000000000004E-06
DataValue, 0.84000000000000008, 0.5, 3.1677E-06, 1.1650000000000002E-12, -3.1575000000000003E-06, 3.1677E-06, 1.1650000000000002E-12, 3.1575000000000003E-06
DataValue, 0.85000000000000009, 0.5, 3.1811000000000003E-06, 1.255E-12, -3.1696E-06, 3.1811000000000003E-06, 1.255E-12, 3.1696E-06
DataValue, 0.86, 0.5, 3.1823000000000004E-06, 1.5150000000000001E-12, -3.1794000000000004E-06, 3.1823000000000004E-06, 1.5150000000000001E-12, 3.1794000000000004E-06
DataValue, 0.87, 0.5, 3.2288000000000003E-06, 9.15E-13, -3.1923000000000003E-06, 3.2288000000000003E-06, 9.15E-13, 3.1923000000000003E-06
DataValue, 0.88, 0.5, 3.1880000000000002E-06, 1.3250000000000001E-12, -3.2085000000000003E-06, 3.1880000000000002E-06, 1.3250000000000001E-12, 3.2085000000000003E-06
DataValue, 0.89, 0.5, 3.2003000000000005E-06, 1.3250000000000001E-12, -3.2237E-06, 3.2003000000000005E-06, 1.3250000000000001E-12, 3.2237E-06
DataValue, 0.9, 0.5, 3.2384E-06, 1.1250000000000002E-12, -3.2399000000000005E-06, 3.2384E-06, 1.1250000000000002E-12, 3.2399000000000005E-06
DataValue, 0.91, 0.5, 3.2473000000000002E-06, 1.1650000000000002E-12, -3.2361000000000002E-06, 3.2473000000000002E-06, 1.1650000000000002E-12, 3.2361000000000002E-06
DataValue, 0.92, 0.5, 3.2276000000000002E-06, 1.195E-12, -3.1899E-06, 3.2276000000000002E-06, 1.195E-12, 3.1899E-06
DataValue, 0.93, 0.5, 3.2437000000000004E-06, 1.3650000000000001E-12, -3.2353E-06, 3.2437000000000004E-06, 1.3650000000000001E-12, 3.2353E-06
DataValue, 0.94000000000000006, 0.5, 3.2193000000000002E-06, 1.4150000000000001E-12, -3.2376E-06, 3.2193000000000002E-06, 1.4150000000000001E-12, 3.2376E-06
