
SetupTitle, IdVd_Vg_par
PrimitiveTest, I/V Sweep
TestParameter, Context.MainFrame, B1500A
TestParameter, Channel.UnitType, SMU, SMU, SMU
TestParameter, Channel.Unit, SMU3:HR, SMU2:HR, SMU1:HR
TestParameter, Channel.IName, Id, Ig, Is
TestParameter, Channel.VName, Vd, Vg, Vs
TestParameter, Channel.Mode, V, V, V
TestParameter, Channel.Func, VAR1, VAR2, CONST
TestParameter, Channel.Index, 
TestParameter, Channel.Time, 
TestParameter, Measurement.Port.Unit, SMU3:HR, SMU2:HR, SMU1:HR
TestParameter, Measurement.Port.SeriesResistor, NONE, NONE, NONE
TestParameter, Measurement.Port.Filter, ON, ON, ON
TestParameter, Measurement.Port.OutputVoltageComparison, 0, 0, 0
TestParameter, Measurement.Primary.Locus, Double
TestParameter, Measurement.Primary.Scale, LINEAR
TestParameter, Measurement.Primary.Start, 0
TestParameter, Measurement.Primary.Stop, 1
TestParameter, Measurement.Primary.Step, 0.01
TestParameter, Measurement.Primary.Compliance, 0.01
TestParameter, Measurement.Primary.PowerCompliance, 0
TestParameter, Measurement.Aborting.Condition, CONTINUE AT ANY
TestParameter, Measurement.PostOutput.Value, START
TestParameter, Measurement.PostOutput.Retention, OFF
TestParameter, Measurement.Secondary.Start, 0
TestParameter, Measurement.Secondary.Count, 5
TestParameter, Measurement.Secondary.Step, 0.5
TestParameter, Measurement.Secondary.Compliance, 0.01
TestParameter, Measurement.Secondary.PowerCompliance, 0
TestParameter, Measurement.Bias.Source, 0, 0, 0
TestParameter, Measurement.Bias.Compliance, 0.01, 0.01, 0.01
TestParameter, Measurement.Monitor.Unit, SMU3:HR, SMU2:HR, SMU1:HR
TestParameter, Measurement.Monitor.Adc, HR ADC, HR ADC, HR ADC
TestParameter, Measurement.Monitor.Measurement, Compliance Side, Compliance Side, Compliance Side
TestParameter, Measurement.Monitor.RangingMode, LIMITED, LIMITED, LIMITED
TestParameter, Measurement.Monitor.RangeBoundary, 1nA, 1nA, 1nA
TestParameter, Measurement.Monitor.RangeRating, BY FULL RANGE, BY FULL RANGE, BY FULL RANGE
TestParameter, Measurement.Monitor.RangeRatingCoeff, 50, 50, 50
TestParameter, Measurement.Timing.Hold, 0
TestParameter, Measurement.Timing.Delay, 0
TestParameter, Measurement.Adc.HighSpeed.Mode, AUTO
TestParameter, Measurement.Adc.HighSpeed.Coeff, 1
TestParameter, Measurement.Adc.HighResolution.AutoZero, OFF
TestParameter, Measurement.Adc.HighResolution.Mode, AUTO
TestParameter, Measurement.Adc.HighResolution.Coeff, 6
TestParameter, Measurement.WaitTime.Source.Coeff, 1
TestParameter, Measurement.WaitTime.Source.Offset, 0
TestParameter, Measurement.WaitTime.Monitor.Coeff, 1
TestParameter, Measurement.WaitTime.Monitor.Offset, 0
TestParameter, Function.User.Name, absId, absIg, absIs
TestParameter, Function.User.Unit, A, A, A
TestParameter, Function.User.Definition, abs(Id), abs(Ig), abs(Is)
TestParameter, Output.Graph.Enabled, true
TestParameter, Output.Graph.AutoScaling, false
TestParameter, Output.Graph.XAxis.Data, Vd
TestParameter, Output.Graph.XAxis.Scale, Linear
TestParameter, Output.Graph.XAxis.Left, 0
TestParameter, Output.Graph.XAxis.Right, 2
TestParameter, Output.Graph.XAxis.RunTimeAutoScale, false
TestParameter, Output.Graph.YAxis.Data, absId, absIs
TestParameter, Output.Graph.YAxis.Scale, Linear, Linear
TestParameter, Output.Graph.YAxis.Bottom, 1E-15, 1E-15
TestParameter, Output.Graph.YAxis.Top, 0.001, 0.001
TestParameter, Output.Graph.YAxis.Group, , 
TestParameter, Output.Graph.YAxis.RunTimeAutoScale, true, true
TestParameter, Output.List.Data, Vg, Vd, Id, Is, Ig, absId, absIs, absIg
TestParameter, AutoAnalysis.Interpolation, false
TestParameter, AutoAnalysis.Var2StepCount, 1
TestParameter, AutoAnalysis.Var2StepScript, 
TestParameter, AutoAnalysis.Line1.Enabled, false
TestParameter, AutoAnalysis.Line1.Type, 1
TestParameter, AutoAnalysis.Line1.Fix, True
TestParameter, AutoAnalysis.Line1.YAxis, 0
TestParameter, AutoAnalysis.Line1.Point1.Type, 0
TestParameter, AutoAnalysis.Line1.Point1.XY.X, 
TestParameter, AutoAnalysis.Line1.Point1.XY.Y, 
TestParameter, AutoAnalysis.Line1.Point1.Data.Var, 
TestParameter, AutoAnalysis.Line1.Point1.Data.Condition, 
TestParameter, AutoAnalysis.Line1.Point1.Data.Start, false
TestParameter, AutoAnalysis.Line1.Point1.Data.StartVar, 
TestParameter, AutoAnalysis.Line1.Point1.Data.StartCondition, 
TestParameter, AutoAnalysis.Line1.Point2.Type, 0
TestParameter, AutoAnalysis.Line1.Point2.XY.X, 
TestParameter, AutoAnalysis.Line1.Point2.XY.Y, 
TestParameter, AutoAnalysis.Line1.Point2.Data.Var, 
TestParameter, AutoAnalysis.Line1.Point2.Data.Condition, 
TestParameter, AutoAnalysis.Line1.Point2.Data.Start, false
TestParameter, AutoAnalysis.Line1.Point2.Data.StartVar, 
TestParameter, AutoAnalysis.Line1.Point2.Data.StartCondition, 
TestParameter, AutoAnalysis.Line1.GradientExpr, 0
TestParameter, AutoAnalysis.Line2.Enabled, false
TestParameter, AutoAnalysis.Line2.Type, 1
TestParameter, AutoAnalysis.Line2.Fix, True
TestParameter, AutoAnalysis.Line2.YAxis, 0
TestParameter, AutoAnalysis.Line2.Point1.Type, 0
TestParameter, AutoAnalysis.Line2.Point1.XY.X, 
TestParameter, AutoAnalysis.Line2.Point1.XY.Y, 
TestParameter, AutoAnalysis.Line2.Point1.Data.Var, 
TestParameter, AutoAnalysis.Line2.Point1.Data.Condition, 
TestParameter, AutoAnalysis.Line2.Point1.Data.Start, false
TestParameter, AutoAnalysis.Line2.Point1.Data.StartVar, 
TestParameter, AutoAnalysis.Line2.Point1.Data.StartCondition, 
TestParameter, AutoAnalysis.Line2.Point2.Type, 0
TestParameter, AutoAnalysis.Line2.Point2.XY.X, 
TestParameter, AutoAnalysis.Line2.Point2.XY.Y, 
TestParameter, AutoAnalysis.Line2.Point2.Data.Var, 
TestParameter, AutoAnalysis.Line2.Point2.Data.Condition, 
TestParameter, AutoAnalysis.Line2.Point2.Data.Start, false
TestParameter, AutoAnalysis.Line2.Point2.Data.StartVar, 
TestParameter, AutoAnalysis.Line2.Point2.Data.StartCondition, 
TestParameter, AutoAnalysis.Line2.GradientExpr, 0
TestParameter, AutoAnalysis.Marker.Enabled, false
TestParameter, AutoAnalysis.Marker.Data.Var, 
TestParameter, AutoAnalysis.Marker.Data.Condition, 
TestParameter, AutoAnalysis.Marker.Data.Start, false
TestParameter, AutoAnalysis.Marker.Data.StartVar, 
TestParameter, AutoAnalysis.Marker.Data.StartCondition, 
MetaData, TestRecord.EntryPoint, true
MetaData, TestRecord.RecordTime, 06/03/2025 14:25:10
MetaData, TestRecord.TestTarget, R[6]_D[6]_L[60]
MetaData, TestRecord.IterationIndex, 1
MetaData, TestRecord.Preservation, true
MetaData, TestRecord.Flag, !
MetaData, TestRecord.Remarks, 
MetaData, TestRecord.LinkKey, 1429e547-462c-4ec4-9bf1-d916400ce5bc
MetaData, TestRecord.Parameters, 
Dimension1, 202, 202, 202, 202, 202, 202, 202, 202
Dimension2, 5, 5, 5, 5, 5, 5, 5, 5
DataName, Vd, Vg, Id, Ig, Is, absId, absIg, absIs
DataValue, 0, 0, 1.2700000000000001E-13, 2.085E-12, -1.906E-12, 1.2700000000000001E-13, 2.085E-12, 1.906E-12
DataValue, 0.01, 0, 3.2925700000000003E-10, 2.2750000000000003E-12, -3.30056E-10, 3.2925700000000003E-10, 2.2750000000000003E-12, 3.30056E-10
DataValue, 0.02, 0, 6.130170000000001E-10, 2.5750000000000002E-12, -5.9987600000000007E-10, 6.130170000000001E-10, 2.5750000000000002E-12, 5.9987600000000007E-10
DataValue, 0.030000000000000002, 0, 7.810970000000001E-10, 2.1250000000000003E-12, -7.7475600000000009E-10, 7.810970000000001E-10, 2.1250000000000003E-12, 7.7475600000000009E-10
DataValue, 0.04, 0, 9.3081700000000007E-10, 2.105E-12, -9.5015600000000013E-10, 9.3081700000000007E-10, 2.105E-12, 9.5015600000000013E-10
DataValue, 0.05, 0, 1.046577E-09, 2.265E-12, -1.0534060000000002E-09, 1.046577E-09, 2.265E-12, 1.0534060000000002E-09
DataValue, 0.060000000000000005, 0, 1.21657E-09, 1.925E-12, -1.17384E-09, 1.21657E-09, 1.925E-12, 1.17384E-09
DataValue, 0.07, 0, 1.23417E-09, 2.005E-12, -1.25034E-09, 1.23417E-09, 2.005E-12, 1.25034E-09
DataValue, 0.08, 0, 1.34157E-09, 2.1950000000000002E-12, -1.29954E-09, 1.34157E-09, 2.1950000000000002E-12, 1.29954E-09
DataValue, 0.090000000000000011, 0, 1.45407E-09, 2.105E-12, -1.39714E-09, 1.45407E-09, 2.105E-12, 1.39714E-09
DataValue, 0.1, 0, 1.52547E-09, 2.065E-12, -1.54564E-09, 1.52547E-09, 2.065E-12, 1.54564E-09
DataValue, 0.11, 0, 1.56157E-09, 2.135E-12, -1.57144E-09, 1.56157E-09, 2.135E-12, 1.57144E-09
DataValue, 0.12000000000000001, 0, 1.61257E-09, 2.265E-12, -1.59424E-09, 1.61257E-09, 2.265E-12, 1.59424E-09
DataValue, 0.13, 0, 1.71437E-09, 1.765E-12, -1.68674E-09, 1.71437E-09, 1.765E-12, 1.68674E-09
DataValue, 0.14, 0, 1.81267E-09, 2.0450000000000003E-12, -1.79254E-09, 1.81267E-09, 2.0450000000000003E-12, 1.79254E-09
DataValue, 0.15, 0, 1.75687E-09, 2.3050000000000004E-12, -1.70044E-09, 1.75687E-09, 2.3050000000000004E-12, 1.70044E-09
DataValue, 0.16, 0, 1.84947E-09, 2.265E-12, -1.89794E-09, 1.84947E-09, 2.265E-12, 1.89794E-09
DataValue, 0.17, 0, 1.91567E-09, 1.9950000000000003E-12, -1.98154E-09, 1.91567E-09, 1.9950000000000003E-12, 1.98154E-09
DataValue, 0.18000000000000002, 0, 1.90527E-09, 2.435E-12, -1.97434E-09, 1.90527E-09, 2.435E-12, 1.97434E-09
DataValue, 0.19, 0, 1.87767E-09, 1.885E-12, -1.89344E-09, 1.87767E-09, 1.885E-12, 1.89344E-09
DataValue, 0.2, 0, 2.14167E-09, 2.2750000000000003E-12, -2.00364E-09, 2.14167E-09, 2.2750000000000003E-12, 2.00364E-09
DataValue, 0.21000000000000002, 0, 2.06137E-09, 2.3550000000000004E-12, -2.08964E-09, 2.06137E-09, 2.3550000000000004E-12, 2.08964E-09
DataValue, 0.22, 0, 2.01427E-09, 2.335E-12, -2.08354E-09, 2.01427E-09, 2.335E-12, 2.08354E-09
DataValue, 0.23, 0, 2.11957E-09, 1.975E-12, -2.19454E-09, 2.11957E-09, 1.975E-12, 2.19454E-09
DataValue, 0.24000000000000002, 0, 2.30697E-09, 2.155E-12, -2.25234E-09, 2.30697E-09, 2.155E-12, 2.25234E-09
DataValue, 0.25, 0, 2.42387E-09, 1.805E-12, -2.45064E-09, 2.42387E-09, 1.805E-12, 2.45064E-09
DataValue, 0.26, 0, 2.45247E-09, 2.6050000000000003E-12, -2.43464E-09, 2.45247E-09, 2.6050000000000003E-12, 2.43464E-09
DataValue, 0.27, 0, 2.48887E-09, 2.135E-12, -2.56834E-09, 2.48887E-09, 2.135E-12, 2.56834E-09
DataValue, 0.28, 0, 2.53937E-09, 2.3050000000000004E-12, -2.55644E-09, 2.53937E-09, 2.3050000000000004E-12, 2.55644E-09
DataValue, 0.29000000000000004, 0, 2.58507E-09, 2.1450000000000003E-12, -2.59384E-09, 2.58507E-09, 2.1450000000000003E-12, 2.59384E-09
DataValue, 0.3, 0, 2.65757E-09, 1.835E-12, -2.71604E-09, 2.65757E-09, 1.835E-12, 2.71604E-09
DataValue, 0.31, 0, 2.80587E-09, 1.885E-12, -2.70804E-09, 2.80587E-09, 1.885E-12, 2.70804E-09
DataValue, 0.32, 0, 2.78717E-09, 2.205E-12, -2.70274E-09, 2.78717E-09, 2.205E-12, 2.70274E-09
DataValue, 0.33, 0, 2.83877E-09, 2.395E-12, -2.87374E-09, 2.83877E-09, 2.395E-12, 2.87374E-09
DataValue, 0.34, 0, 2.97447E-09, 2.385E-12, -2.88074E-09, 2.97447E-09, 2.385E-12, 2.88074E-09
DataValue, 0.35000000000000003, 0, 3.01707E-09, 1.925E-12, -3.17394E-09, 3.01707E-09, 1.925E-12, 3.17394E-09
DataValue, 0.36000000000000004, 0, 3.00287E-09, 2.165E-12, -2.91634E-09, 3.00287E-09, 2.165E-12, 2.91634E-09
DataValue, 0.37, 0, 3.05017E-09, 2.0950000000000003E-12, -3.12254E-09, 3.05017E-09, 2.0950000000000003E-12, 3.12254E-09
DataValue, 0.38, 0, 3.21827E-09, 2.185E-12, -3.23834E-09, 3.21827E-09, 2.185E-12, 3.23834E-09
DataValue, 0.39, 0, 3.13007E-09, 2.0450000000000003E-12, -3.24684E-09, 3.13007E-09, 2.0450000000000003E-12, 3.24684E-09
DataValue, 0.4, 0, 3.13657E-09, 2.315E-12, -3.21544E-09, 3.13657E-09, 2.315E-12, 3.21544E-09
DataValue, 0.41000000000000003, 0, 3.25507E-09, 2.285E-12, -3.29774E-09, 3.25507E-09, 2.285E-12, 3.29774E-09
DataValue, 0.42000000000000004, 0, 3.36967E-09, 2.415E-12, -3.51164E-09, 3.36967E-09, 2.415E-12, 3.51164E-09
DataValue, 0.43, 0, 3.46307E-09, 2.3250000000000003E-12, -3.31324E-09, 3.46307E-09, 2.3250000000000003E-12, 3.31324E-09
DataValue, 0.44, 0, 3.48417E-09, 2.1950000000000002E-12, -3.52964E-09, 3.48417E-09, 2.1950000000000002E-12, 3.52964E-09
DataValue, 0.45, 0, 3.50777E-09, 2.3250000000000003E-12, -3.67104E-09, 3.50777E-09, 2.3250000000000003E-12, 3.67104E-09
DataValue, 0.46, 0, 3.47727E-09, 1.665E-12, -3.40034E-09, 3.47727E-09, 1.665E-12, 3.40034E-09
DataValue, 0.47000000000000003, 0, 3.58847E-09, 2.2750000000000003E-12, -3.57384E-09, 3.58847E-09, 2.2750000000000003E-12, 3.57384E-09
DataValue, 0.48000000000000004, 0, 3.64337E-09, 2.2950000000000002E-12, -3.52744E-09, 3.64337E-09, 2.2950000000000002E-12, 3.52744E-09
DataValue, 0.49000000000000005, 0, 3.77827E-09, 2.065E-12, -3.75704E-09, 3.77827E-09, 2.065E-12, 3.75704E-09
DataValue, 0.5, 0, 3.83857E-09, 2.565E-12, -3.72724E-09, 3.83857E-09, 2.565E-12, 3.72724E-09
DataValue, 0.51, 0, 3.79627E-09, 2.115E-12, -3.89374E-09, 3.79627E-09, 2.115E-12, 3.89374E-09
DataValue, 0.52, 0, 3.94727E-09, 2.2750000000000003E-12, -3.99094E-09, 3.94727E-09, 2.2750000000000003E-12, 3.99094E-09
DataValue, 0.53, 0, 4.18417E-09, 2.2450000000000002E-12, -4.15404E-09, 4.18417E-09, 2.2450000000000002E-12, 4.15404E-09
DataValue, 0.54, 0, 4.30017E-09, 1.875E-12, -4.36634E-09, 4.30017E-09, 1.875E-12, 4.36634E-09
DataValue, 0.55, 0, 4.12667E-09, 2.285E-12, -4.13224E-09, 4.12667E-09, 2.285E-12, 4.13224E-09
DataValue, 0.56, 0, 4.20877E-09, 2.1250000000000003E-12, -4.09104E-09, 4.20877E-09, 2.1250000000000003E-12, 4.09104E-09
DataValue, 0.57000000000000006, 0, 4.25557E-09, 1.975E-12, -4.23474E-09, 4.25557E-09, 1.975E-12, 4.23474E-09
DataValue, 0.58000000000000007, 0, 4.24057E-09, 1.9950000000000003E-12, -4.20104E-09, 4.24057E-09, 1.9950000000000003E-12, 4.20104E-09
DataValue, 0.59000000000000008, 0, 4.42187E-09, 2.0950000000000003E-12, -4.34004E-09, 4.42187E-09, 2.0950000000000003E-12, 4.34004E-09
DataValue, 0.6, 0, 4.39967E-09, 1.905E-12, -4.49184E-09, 4.39967E-09, 1.905E-12, 4.49184E-09
DataValue, 0.61, 0, 4.24887E-09, 2.2250000000000003E-12, -4.29694E-09, 4.24887E-09, 2.2250000000000003E-12, 4.29694E-09
DataValue, 0.62, 0, 4.49657E-09, 2.285E-12, -4.58534E-09, 4.49657E-09, 2.285E-12, 4.58534E-09
DataValue, 0.63, 0, 4.65657E-09, 2.115E-12, -4.60174E-09, 4.65657E-09, 2.115E-12, 4.60174E-09
DataValue, 0.64, 0, 4.67637E-09, 2.015E-12, -4.72354E-09, 4.67637E-09, 2.015E-12, 4.72354E-09
DataValue, 0.65, 0, 4.90167E-09, 2.255E-12, -4.99684E-09, 4.90167E-09, 2.255E-12, 4.99684E-09
DataValue, 0.66, 0, 5.17957E-09, 2.165E-12, -5.30824E-09, 5.17957E-09, 2.165E-12, 5.30824E-09
DataValue, 0.67, 0, 5.16867E-09, 2.6050000000000003E-12, -5.23904E-09, 5.16867E-09, 2.6050000000000003E-12, 5.23904E-09
DataValue, 0.68, 0, 5.04177E-09, 2.495E-12, -5.09114E-09, 5.04177E-09, 2.495E-12, 5.09114E-09
DataValue, 0.69000000000000006, 0, 5.31727E-09, 2.085E-12, -5.25944E-09, 5.31727E-09, 2.085E-12, 5.25944E-09
DataValue, 0.70000000000000007, 0, 5.07887E-09, 2.0450000000000003E-12, -5.09374E-09, 5.07887E-09, 2.0450000000000003E-12, 5.09374E-09
DataValue, 0.71000000000000008, 0, 5.42207E-09, 2.005E-12, -5.30314E-09, 5.42207E-09, 2.005E-12, 5.30314E-09
DataValue, 0.72000000000000008, 0, 5.25807E-09, 2.435E-12, -5.47944E-09, 5.25807E-09, 2.435E-12, 5.47944E-09
DataValue, 0.73, 0, 5.10077E-09, 2.1250000000000003E-12, -5.09844E-09, 5.10077E-09, 2.1250000000000003E-12, 5.09844E-09
DataValue, 0.74, 0, 5.42777E-09, 2.3250000000000003E-12, -5.47384E-09, 5.42777E-09, 2.3250000000000003E-12, 5.47384E-09
DataValue, 0.75, 0, 5.55507E-09, 2.255E-12, -5.74124E-09, 5.55507E-09, 2.255E-12, 5.74124E-09
DataValue, 0.76, 0, 5.65247E-09, 1.975E-12, -5.85664E-09, 5.65247E-09, 1.975E-12, 5.85664E-09
DataValue, 0.77, 0, 5.63537E-09, 2.1750000000000003E-12, -5.88704E-09, 5.63537E-09, 2.1750000000000003E-12, 5.88704E-09
DataValue, 0.78, 0, 6.19537E-09, 2.3550000000000004E-12, -6.26724E-09, 6.19537E-09, 2.3550000000000004E-12, 6.26724E-09
DataValue, 0.79, 0, 6.37507E-09, 2.215E-12, -6.87614E-09, 6.37507E-09, 2.215E-12, 6.87614E-09
DataValue, 0.8, 0, 6.74607E-09, 2.005E-12, -6.56914E-09, 6.74607E-09, 2.005E-12, 6.56914E-09
DataValue, 0.81, 0, 6.26877E-09, 1.935E-12, -6.22654E-09, 6.26877E-09, 1.935E-12, 6.22654E-09
DataValue, 0.82000000000000006, 0, 6.61097E-09, 1.5850000000000002E-12, -7.06884E-09, 6.61097E-09, 1.5850000000000002E-12, 7.06884E-09
DataValue, 0.83000000000000007, 0, 6.31447E-09, 1.9650000000000002E-12, -6.35024E-09, 6.31447E-09, 1.9650000000000002E-12, 6.35024E-09
DataValue, 0.84000000000000008, 0, 6.05787E-09, 2.205E-12, -6.28394E-09, 6.05787E-09, 2.205E-12, 6.28394E-09
DataValue, 0.85000000000000009, 0, 5.99187E-09, 2.265E-12, -6.18094E-09, 5.99187E-09, 2.265E-12, 6.18094E-09
DataValue, 0.86, 0, 6.67857E-09, 2.0950000000000003E-12, -6.77134E-09, 6.67857E-09, 2.0950000000000003E-12, 6.77134E-09
DataValue, 0.87, 0, 7.01787E-09, 2.3550000000000004E-12, -7.35084E-09, 7.01787E-09, 2.3550000000000004E-12, 7.35084E-09
DataValue, 0.88, 0, 6.84607E-09, 2.1250000000000003E-12, -6.60744E-09, 6.84607E-09, 2.1250000000000003E-12, 6.60744E-09
DataValue, 0.89, 0, 6.74107E-09, 2.4250000000000003E-12, -6.66314E-09, 6.74107E-09, 2.4250000000000003E-12, 6.66314E-09
DataValue, 0.9, 0, 7.04777E-09, 2.185E-12, -6.85364E-09, 7.04777E-09, 2.185E-12, 6.85364E-09
DataValue, 0.91, 0, 6.85987E-09, 2.1750000000000003E-12, -6.83374E-09, 6.85987E-09, 2.1750000000000003E-12, 6.83374E-09
DataValue, 0.92, 0, 7.33607E-09, 2.285E-12, -7.30364E-09, 7.33607E-09, 2.285E-12, 7.30364E-09
DataValue, 0.93, 0, 7.68707E-09, 1.925E-12, -7.74034E-09, 7.68707E-09, 1.925E-12, 7.74034E-09
DataValue, 0.94000000000000006, 0, 7.11307E-09, 2.185E-12, -7.41364E-09, 7.11307E-09, 2.185E-12, 7.41364E-09
DataValue, 0.95000000000000007, 0, 7.63077E-09, 2.155E-12, -7.62734E-09, 7.63077E-09, 2.155E-12, 7.62734E-09
DataValue, 0.96000000000000008, 0, 7.62897E-09, 2.2250000000000003E-12, -7.51594E-09, 7.62897E-09, 2.2250000000000003E-12, 7.51594E-09
DataValue, 0.97000000000000008, 0, 7.77747E-09, 1.9950000000000003E-12, -7.66334E-09, 7.77747E-09, 1.9950000000000003E-12, 7.66334E-09
DataValue, 0.98000000000000009, 0, 7.70627E-09, 2.1250000000000003E-12, -7.75164E-09, 7.70627E-09, 2.1250000000000003E-12, 7.75164E-09
DataValue, 0.9900000000000001, 0, 8.07707E-09, 2.235E-12, -8.11194E-09, 8.07707E-09, 2.235E-12, 8.11194E-09
DataValue, 1, 0, 8.41257E-09, 2.115E-12, -8.19094E-09, 8.41257E-09, 2.115E-12, 8.19094E-09
DataValue, 1, 0, 8.22047E-09, 1.975E-12, -8.15344E-09, 8.22047E-09, 1.975E-12, 8.15344E-09
DataValue, 0.9900000000000001, 0, 7.65767E-09, 2.285E-12, -7.85784E-09, 7.65767E-09, 2.285E-12, 7.85784E-09
DataValue, 0.98000000000000009, 0, 8.25387E-09, 1.755E-12, -8.09664E-09, 8.25387E-09, 1.755E-12, 8.09664E-09
DataValue, 0.97000000000000008, 0, 7.71777E-09, 2.595E-12, -8.26574E-09, 7.71777E-09, 2.595E-12, 8.26574E-09
DataValue, 0.96000000000000008, 0, 8.20497E-09, 1.7950000000000001E-12, -8.03944E-09, 8.20497E-09, 1.7950000000000001E-12, 8.03944E-09
DataValue, 0.95000000000000007, 0, 8.16767E-09, 2.3450000000000002E-12, -8.57854E-09, 8.16767E-09, 2.3450000000000002E-12, 8.57854E-09
DataValue, 0.94000000000000006, 0, 8.13287E-09, 2.335E-12, -8.03574E-09, 8.13287E-09, 2.335E-12, 8.03574E-09
DataValue, 0.93, 0, 8.06107E-09, 2.015E-12, -7.79924E-09, 8.06107E-09, 2.015E-12, 7.79924E-09
DataValue, 0.92, 0, 8.22987E-09, 2.1750000000000003E-12, -8.57984E-09, 8.22987E-09, 2.1750000000000003E-12, 8.57984E-09
DataValue, 0.91, 0, 8.50797E-09, 2.535E-12, -8.59434E-09, 8.50797E-09, 2.535E-12, 8.59434E-09
DataValue, 0.9, 0, 8.06877E-09, 2.155E-12, -8.12724E-09, 8.06877E-09, 2.155E-12, 8.12724E-09
DataValue, 0.89, 0, 7.67987E-09, 1.9650000000000002E-12, -7.88954E-09, 7.67987E-09, 1.9650000000000002E-12, 7.88954E-09
DataValue, 0.88, 0, 7.38687E-09, 2.015E-12, -7.38724E-09, 7.38687E-09, 2.015E-12, 7.38724E-09
DataValue, 0.87, 0, 7.24097E-09, 2.265E-12, -7.06804E-09, 7.24097E-09, 2.265E-12, 7.06804E-09
DataValue, 0.86, 0, 7.12347E-09, 2.155E-12, -6.86434E-09, 7.12347E-09, 2.155E-12, 6.86434E-09
DataValue, 0.85000000000000009, 0, 7.16807E-09, 2.035E-12, -7.07834E-09, 7.16807E-09, 2.035E-12, 7.07834E-09
DataValue, 0.84000000000000008, 0, 7.40327E-09, 1.9450000000000003E-12, -7.23504E-09, 7.40327E-09, 1.9450000000000003E-12, 7.23504E-09
