
SetupTitle, IdVd_Vg_par
PrimitiveTest, I/V Sweep
TestParameter, Context.MainFrame, B1500A
TestParameter, Channel.UnitType, SMU, SMU, SMU
TestParameter, Channel.Unit, SMU3:HR, SMU2:HR, SMU1:HR
TestParameter, Channel.IName, Id, Ig, Is
TestParameter, Channel.VName, Vd, Vg, Vs
TestParameter, Channel.Mode, V, V, V
TestParameter, Channel.Func, VAR1, VAR2, CONST
TestParameter, Channel.Index, 
TestParameter, Channel.Time, 
TestParameter, Measurement.Port.Unit, SMU3:HR, SMU2:HR, SMU1:HR
TestParameter, Measurement.Port.SeriesResistor, NONE, NONE, NONE
TestParameter, Measurement.Port.Filter, ON, ON, ON
TestParameter, Measurement.Port.OutputVoltageComparison, 0, 0, 0
TestParameter, Measurement.Primary.Locus, Double
TestParameter, Measurement.Primary.Scale, LINEAR
TestParameter, Measurement.Primary.Start, 0
TestParameter, Measurement.Primary.Stop, 1
TestParameter, Measurement.Primary.Step, 0.01
TestParameter, Measurement.Primary.Compliance, 0.01
TestParameter, Measurement.Primary.PowerCompliance, 0
TestParameter, Measurement.Aborting.Condition, CONTINUE AT ANY
TestParameter, Measurement.PostOutput.Value, START
TestParameter, Measurement.PostOutput.Retention, OFF
TestParameter, Measurement.Secondary.Start, 0.5
TestParameter, Measurement.Secondary.Count, 7
TestParameter, Measurement.Secondary.Step, 0.25
TestParameter, Measurement.Secondary.Compliance, 0.01
TestParameter, Measurement.Secondary.PowerCompliance, 0
TestParameter, Measurement.Bias.Source, 0, 0.5, 0
TestParameter, Measurement.Bias.Compliance, 0.01, 0.01, 0.01
TestParameter, Measurement.Monitor.Unit, SMU3:HR, SMU2:HR, SMU1:HR
TestParameter, Measurement.Monitor.Adc, HR ADC, HR ADC, HR ADC
TestParameter, Measurement.Monitor.Measurement, Compliance Side, Compliance Side, Compliance Side
TestParameter, Measurement.Monitor.RangingMode, LIMITED, LIMITED, LIMITED
TestParameter, Measurement.Monitor.RangeBoundary, 1nA, 1nA, 1nA
TestParameter, Measurement.Monitor.RangeRating, BY FULL RANGE, BY FULL RANGE, BY FULL RANGE
TestParameter, Measurement.Monitor.RangeRatingCoeff, 50, 50, 50
TestParameter, Measurement.Timing.Hold, 0
TestParameter, Measurement.Timing.Delay, 0
TestParameter, Measurement.Adc.HighSpeed.Mode, AUTO
TestParameter, Measurement.Adc.HighSpeed.Coeff, 1
TestParameter, Measurement.Adc.HighResolution.AutoZero, OFF
TestParameter, Measurement.Adc.HighResolution.Mode, AUTO
TestParameter, Measurement.Adc.HighResolution.Coeff, 6
TestParameter, Measurement.WaitTime.Source.Coeff, 1
TestParameter, Measurement.WaitTime.Source.Offset, 0
TestParameter, Measurement.WaitTime.Monitor.Coeff, 1
TestParameter, Measurement.WaitTime.Monitor.Offset, 0
TestParameter, Function.User.Name, absId, absIg, absIs
TestParameter, Function.User.Unit, A, A, A
TestParameter, Function.User.Definition, abs(Id), abs(Ig), abs(Is)
TestParameter, Output.Graph.Enabled, true
TestParameter, Output.Graph.AutoScaling, false
TestParameter, Output.Graph.XAxis.Data, Vd
TestParameter, Output.Graph.XAxis.Scale, Linear
TestParameter, Output.Graph.XAxis.Left, 0
TestParameter, Output.Graph.XAxis.Right, 2
TestParameter, Output.Graph.XAxis.RunTimeAutoScale, false
TestParameter, Output.Graph.YAxis.Data, absId, absIs
TestParameter, Output.Graph.YAxis.Scale, Linear, Linear
TestParameter, Output.Graph.YAxis.Bottom, 1E-15, 1E-15
TestParameter, Output.Graph.YAxis.Top, 0.001, 0.001
TestParameter, Output.Graph.YAxis.Group, , 
TestParameter, Output.Graph.YAxis.RunTimeAutoScale, true, true
TestParameter, Output.List.Data, Vg, Vd, Id, Is, Ig, absId, absIs, absIg
TestParameter, AutoAnalysis.Interpolation, false
TestParameter, AutoAnalysis.Var2StepCount, 1
TestParameter, AutoAnalysis.Var2StepScript, 
TestParameter, AutoAnalysis.Line1.Enabled, false
TestParameter, AutoAnalysis.Line1.Type, 1
TestParameter, AutoAnalysis.Line1.Fix, True
TestParameter, AutoAnalysis.Line1.YAxis, 0
TestParameter, AutoAnalysis.Line1.Point1.Type, 0
TestParameter, AutoAnalysis.Line1.Point1.XY.X, 
TestParameter, AutoAnalysis.Line1.Point1.XY.Y, 
TestParameter, AutoAnalysis.Line1.Point1.Data.Var, 
TestParameter, AutoAnalysis.Line1.Point1.Data.Condition, 
TestParameter, AutoAnalysis.Line1.Point1.Data.Start, false
TestParameter, AutoAnalysis.Line1.Point1.Data.StartVar, 
TestParameter, AutoAnalysis.Line1.Point1.Data.StartCondition, 
TestParameter, AutoAnalysis.Line1.Point2.Type, 0
TestParameter, AutoAnalysis.Line1.Point2.XY.X, 
TestParameter, AutoAnalysis.Line1.Point2.XY.Y, 
TestParameter, AutoAnalysis.Line1.Point2.Data.Var, 
TestParameter, AutoAnalysis.Line1.Point2.Data.Condition, 
TestParameter, AutoAnalysis.Line1.Point2.Data.Start, false
TestParameter, AutoAnalysis.Line1.Point2.Data.StartVar, 
TestParameter, AutoAnalysis.Line1.Point2.Data.StartCondition, 
TestParameter, AutoAnalysis.Line1.GradientExpr, 0
TestParameter, AutoAnalysis.Line2.Enabled, false
TestParameter, AutoAnalysis.Line2.Type, 1
TestParameter, AutoAnalysis.Line2.Fix, True
TestParameter, AutoAnalysis.Line2.YAxis, 0
TestParameter, AutoAnalysis.Line2.Point1.Type, 0
TestParameter, AutoAnalysis.Line2.Point1.XY.X, 
TestParameter, AutoAnalysis.Line2.Point1.XY.Y, 
TestParameter, AutoAnalysis.Line2.Point1.Data.Var, 
TestParameter, AutoAnalysis.Line2.Point1.Data.Condition, 
TestParameter, AutoAnalysis.Line2.Point1.Data.Start, false
TestParameter, AutoAnalysis.Line2.Point1.Data.StartVar, 
TestParameter, AutoAnalysis.Line2.Point1.Data.StartCondition, 
TestParameter, AutoAnalysis.Line2.Point2.Type, 0
TestParameter, AutoAnalysis.Line2.Point2.XY.X, 
TestParameter, AutoAnalysis.Line2.Point2.XY.Y, 
TestParameter, AutoAnalysis.Line2.Point2.Data.Var, 
TestParameter, AutoAnalysis.Line2.Point2.Data.Condition, 
TestParameter, AutoAnalysis.Line2.Point2.Data.Start, false
TestParameter, AutoAnalysis.Line2.Point2.Data.StartVar, 
TestParameter, AutoAnalysis.Line2.Point2.Data.StartCondition, 
TestParameter, AutoAnalysis.Line2.GradientExpr, 0
TestParameter, AutoAnalysis.Marker.Enabled, false
TestParameter, AutoAnalysis.Marker.Data.Var, 
TestParameter, AutoAnalysis.Marker.Data.Condition, 
TestParameter, AutoAnalysis.Marker.Data.Start, false
TestParameter, AutoAnalysis.Marker.Data.StartVar, 
TestParameter, AutoAnalysis.Marker.Data.StartCondition, 
MetaData, TestRecord.EntryPoint, true
MetaData, TestRecord.RecordTime, 06/03/2025 15:29:29
MetaData, TestRecord.TestTarget, R[5]_D[6]_L[70]
MetaData, TestRecord.IterationIndex, 1
MetaData, TestRecord.Preservation, true
MetaData, TestRecord.Flag, !
MetaData, TestRecord.Remarks, 
MetaData, TestRecord.LinkKey, 9d39ae5f-32f4-4096-aeb4-aa735a00ec2d
MetaData, TestRecord.Parameters, 
Dimension1, 202, 202, 202, 202, 202, 202, 202, 202
Dimension2, 7, 7, 7, 7, 7, 7, 7, 7
DataName, Vd, Vg, Id, Ig, Is, absId, absIg, absIs
DataValue, 0, 0.5, 7.0787E-10, 9.25E-13, -4.6447600000000005E-10, 7.0787E-10, 9.25E-13, 4.6447600000000005E-10
DataValue, 0.01, 0.5, 2.6222E-07, 1.015E-12, -2.601E-07, 2.6222E-07, 1.015E-12, 2.601E-07
DataValue, 0.02, 0.5, 5.039E-07, 1.205E-12, -5.0754E-07, 5.039E-07, 1.205E-12, 5.0754E-07
DataValue, 0.030000000000000002, 0.5, 7.4198E-07, 1.2250000000000001E-12, -7.4222E-07, 7.4198E-07, 1.2250000000000001E-12, 7.4222E-07
DataValue, 0.04, 0.5, 9.6312E-07, 1.1350000000000001E-12, -9.6214E-07, 9.6312E-07, 1.1350000000000001E-12, 9.6214E-07
DataValue, 0.05, 0.5, 1.1686000000000001E-06, 1.115E-12, -1.17012E-06, 1.1686000000000001E-06, 1.115E-12, 1.17012E-06
DataValue, 0.060000000000000005, 0.5, 1.3735E-06, 1.345E-12, -1.3743000000000001E-06, 1.3735E-06, 1.345E-12, 1.3743000000000001E-06
DataValue, 0.07, 0.5, 1.5633000000000001E-06, 9.950000000000001E-13, -1.5590000000000002E-06, 1.5633000000000001E-06, 9.950000000000001E-13, 1.5590000000000002E-06
DataValue, 0.08, 0.5, 1.7408000000000001E-06, 1.005E-12, -1.7261E-06, 1.7408000000000001E-06, 1.005E-12, 1.7261E-06
DataValue, 0.090000000000000011, 0.5, 1.9101E-06, 1.1250000000000002E-12, -1.9237000000000003E-06, 1.9101E-06, 1.1250000000000002E-12, 1.9237000000000003E-06
DataValue, 0.1, 0.5, 2.0747000000000002E-06, 1.2150000000000002E-12, -2.0693000000000002E-06, 2.0747000000000002E-06, 1.2150000000000002E-12, 2.0693000000000002E-06
DataValue, 0.11, 0.5, 2.2172E-06, 1.3650000000000001E-12, -2.2250000000000003E-06, 2.2172E-06, 1.3650000000000001E-12, 2.2250000000000003E-06
DataValue, 0.12000000000000001, 0.5, 2.3645000000000004E-06, 1.045E-12, -2.3585000000000004E-06, 2.3645000000000004E-06, 1.045E-12, 2.3585000000000004E-06
DataValue, 0.13, 0.5, 2.4668000000000003E-06, 1.255E-12, -2.4652E-06, 2.4668000000000003E-06, 1.255E-12, 2.4652E-06
DataValue, 0.14, 0.5, 2.5983E-06, 1.255E-12, -2.5967E-06, 2.5983E-06, 1.255E-12, 2.5967E-06
DataValue, 0.15, 0.5, 2.719E-06, 1.145E-12, -2.7081000000000004E-06, 2.719E-06, 1.145E-12, 2.7081000000000004E-06
DataValue, 0.16, 0.5, 2.8329000000000004E-06, 1.0850000000000001E-12, -2.8377000000000004E-06, 2.8329000000000004E-06, 1.0850000000000001E-12, 2.8377000000000004E-06
DataValue, 0.17, 0.5, 2.9568000000000002E-06, 1.2750000000000001E-12, -2.9609000000000003E-06, 2.9568000000000002E-06, 1.2750000000000001E-12, 2.9609000000000003E-06
DataValue, 0.18000000000000002, 0.5, 3.0947E-06, 9.950000000000001E-13, -3.0809000000000004E-06, 3.0947E-06, 9.950000000000001E-13, 3.0809000000000004E-06
DataValue, 0.19, 0.5, 3.1722000000000003E-06, 6.6500000000000009E-13, -3.1676000000000004E-06, 3.1722000000000003E-06, 6.6500000000000009E-13, 3.1676000000000004E-06
DataValue, 0.2, 0.5, 3.2791000000000005E-06, 8.8500000000000007E-13, -3.2748000000000004E-06, 3.2791000000000005E-06, 8.8500000000000007E-13, 3.2748000000000004E-06
DataValue, 0.21000000000000002, 0.5, 3.3451000000000004E-06, 1.2650000000000002E-12, -3.3462000000000003E-06, 3.3451000000000004E-06, 1.2650000000000002E-12, 3.3462000000000003E-06
DataValue, 0.22, 0.5, 3.4560000000000005E-06, 1.055E-12, -3.4547E-06, 3.4560000000000005E-06, 1.055E-12, 3.4547E-06
DataValue, 0.23, 0.5, 3.5137000000000003E-06, 1.1350000000000001E-12, -3.5338000000000004E-06, 3.5137000000000003E-06, 1.1350000000000001E-12, 3.5338000000000004E-06
DataValue, 0.24000000000000002, 0.5, 3.6133E-06, 1.0850000000000001E-12, -3.6307000000000002E-06, 3.6133E-06, 1.0850000000000001E-12, 3.6307000000000002E-06
DataValue, 0.25, 0.5, 3.6988000000000005E-06, 1.065E-12, -3.7468000000000003E-06, 3.6988000000000005E-06, 1.065E-12, 3.7468000000000003E-06
DataValue, 0.26, 0.5, 3.7565000000000004E-06, 1.0750000000000002E-12, -3.7555000000000003E-06, 3.7565000000000004E-06, 1.0750000000000002E-12, 3.7555000000000003E-06
DataValue, 0.27, 0.5, 3.8277000000000006E-06, 9.8500000000000014E-13, -3.8292000000000005E-06, 3.8277000000000006E-06, 9.8500000000000014E-13, 3.8292000000000005E-06
DataValue, 0.28, 0.5, 3.9225E-06, 1.2250000000000001E-12, -3.9105E-06, 3.9225E-06, 1.2250000000000001E-12, 3.9105E-06
DataValue, 0.29000000000000004, 0.5, 3.9312000000000006E-06, 1.205E-12, -3.9277000000000005E-06, 3.9312000000000006E-06, 1.205E-12, 3.9277000000000005E-06
DataValue, 0.3, 0.5, 3.9838000000000007E-06, 1.0850000000000001E-12, -3.9571000000000006E-06, 3.9838000000000007E-06, 1.0850000000000001E-12, 3.9571000000000006E-06
DataValue, 0.31, 0.5, 4.0623E-06, 1.3150000000000002E-12, -4.0682E-06, 4.0623E-06, 1.3150000000000002E-12, 4.0682E-06
DataValue, 0.32, 0.5, 4.1386000000000005E-06, 1.005E-12, -4.1638000000000007E-06, 4.1386000000000005E-06, 1.005E-12, 4.1638000000000007E-06
DataValue, 0.33, 0.5, 4.2453000000000007E-06, 9.75E-13, -4.2309000000000004E-06, 4.2453000000000007E-06, 9.75E-13, 4.2309000000000004E-06
DataValue, 0.34, 0.5, 4.3016000000000005E-06, 1.0250000000000002E-12, -4.2737E-06, 4.3016000000000005E-06, 1.0250000000000002E-12, 4.2737E-06
DataValue, 0.35000000000000003, 0.5, 4.3346000000000008E-06, 9.75E-13, -4.3606E-06, 4.3346000000000008E-06, 9.75E-13, 4.3606E-06
DataValue, 0.36000000000000004, 0.5, 4.3903E-06, 1.185E-12, -4.3912E-06, 4.3903E-06, 1.185E-12, 4.3912E-06
DataValue, 0.37, 0.5, 4.4354000000000008E-06, 1.115E-12, -4.4408000000000007E-06, 4.4354000000000008E-06, 1.115E-12, 4.4408000000000007E-06
DataValue, 0.38, 0.5, 4.4505000000000008E-06, 8.95E-13, -4.463E-06, 4.4505000000000008E-06, 8.95E-13, 4.463E-06
DataValue, 0.39, 0.5, 4.5464E-06, 1.115E-12, -4.5678000000000005E-06, 4.5464E-06, 1.115E-12, 4.5678000000000005E-06
DataValue, 0.4, 0.5, 4.6173000000000007E-06, 1.1250000000000002E-12, -4.6666E-06, 4.6173000000000007E-06, 1.1250000000000002E-12, 4.6666E-06
DataValue, 0.41000000000000003, 0.5, 4.6896000000000008E-06, 9.75E-13, -4.6817000000000004E-06, 4.6896000000000008E-06, 9.75E-13, 4.6817000000000004E-06
DataValue, 0.42000000000000004, 0.5, 4.7445E-06, 1.205E-12, -4.7109E-06, 4.7445E-06, 1.205E-12, 4.7109E-06
DataValue, 0.43, 0.5, 4.7777000000000009E-06, 1.2750000000000001E-12, -4.7519E-06, 4.7777000000000009E-06, 1.2750000000000001E-12, 4.7519E-06
DataValue, 0.44, 0.5, 4.7601E-06, 1.0350000000000001E-12, -4.8265E-06, 4.7601E-06, 1.0350000000000001E-12, 4.8265E-06
DataValue, 0.45, 0.5, 4.8327E-06, 9.950000000000001E-13, -4.8576000000000007E-06, 4.8327E-06, 9.950000000000001E-13, 4.8576000000000007E-06
DataValue, 0.46, 0.5, 4.8735000000000009E-06, 1.3050000000000002E-12, -4.8310000000000008E-06, 4.8735000000000009E-06, 1.3050000000000002E-12, 4.8310000000000008E-06
DataValue, 0.47000000000000003, 0.5, 4.8679000000000004E-06, 1.4050000000000002E-12, -4.918E-06, 4.8679000000000004E-06, 1.4050000000000002E-12, 4.918E-06
DataValue, 0.48000000000000004, 0.5, 4.9698E-06, 9.65E-13, -4.9494E-06, 4.9698E-06, 9.65E-13, 4.9494E-06
DataValue, 0.49000000000000005, 0.5, 5.0305E-06, 1.1750000000000001E-12, -5.0055000000000006E-06, 5.0305E-06, 1.1750000000000001E-12, 5.0055000000000006E-06
DataValue, 0.5, 0.5, 5.0494E-06, 1.2650000000000002E-12, -5.0824000000000007E-06, 5.0494E-06, 1.2650000000000002E-12, 5.0824000000000007E-06
DataValue, 0.51, 0.5, 5.1097E-06, 1.0350000000000001E-12, -5.0863000000000008E-06, 5.1097E-06, 1.0350000000000001E-12, 5.0863000000000008E-06
DataValue, 0.52, 0.5, 5.1159000000000004E-06, 1.255E-12, -5.1167000000000005E-06, 5.1159000000000004E-06, 1.255E-12, 5.1167000000000005E-06
DataValue, 0.53, 0.5, 5.1678000000000007E-06, 1.145E-12, -5.1474000000000009E-06, 5.1678000000000007E-06, 1.145E-12, 5.1474000000000009E-06
DataValue, 0.54, 0.5, 5.1601000000000008E-06, 8.8500000000000007E-13, -5.1753E-06, 5.1601000000000008E-06, 8.8500000000000007E-13, 5.1753E-06
DataValue, 0.55, 0.5, 5.2128E-06, 1.005E-12, -5.2743000000000005E-06, 5.2128E-06, 1.005E-12, 5.2743000000000005E-06
DataValue, 0.56, 0.5, 5.2574000000000007E-06, 1.0750000000000002E-12, -5.2712000000000005E-06, 5.2574000000000007E-06, 1.0750000000000002E-12, 5.2712000000000005E-06
DataValue, 0.57000000000000006, 0.5, 5.3195000000000005E-06, 1.015E-12, -5.2511000000000004E-06, 5.3195000000000005E-06, 1.015E-12, 5.2511000000000004E-06
DataValue, 0.58000000000000007, 0.5, 5.2595E-06, 1.235E-12, -5.2887000000000007E-06, 5.2595E-06, 1.235E-12, 5.2887000000000007E-06
DataValue, 0.59000000000000008, 0.5, 5.3452000000000009E-06, 1.2750000000000001E-12, -5.3729000000000007E-06, 5.3452000000000009E-06, 1.2750000000000001E-12, 5.3729000000000007E-06
DataValue, 0.6, 0.5, 5.3849000000000007E-06, 9.15E-13, -5.3561E-06, 5.3849000000000007E-06, 9.15E-13, 5.3561E-06
DataValue, 0.61, 0.5, 5.3924E-06, 1.065E-12, -5.3593000000000005E-06, 5.3924E-06, 1.065E-12, 5.3593000000000005E-06
DataValue, 0.62, 0.5, 5.433E-06, 1.015E-12, -5.4106E-06, 5.433E-06, 1.015E-12, 5.4106E-06
DataValue, 0.63, 0.5, 5.4874E-06, 9.4500000000000011E-13, -5.4381000000000005E-06, 5.4874E-06, 9.4500000000000011E-13, 5.4381000000000005E-06
DataValue, 0.64, 0.5, 5.496E-06, 1.045E-12, -5.5588000000000009E-06, 5.496E-06, 1.045E-12, 5.5588000000000009E-06
DataValue, 0.65, 0.5, 5.5123000000000006E-06, 1.0750000000000002E-12, -5.5167000000000009E-06, 5.5123000000000006E-06, 1.0750000000000002E-12, 5.5167000000000009E-06
DataValue, 0.66, 0.5, 5.5151000000000008E-06, 1.0250000000000002E-12, -5.4813E-06, 5.5151000000000008E-06, 1.0250000000000002E-12, 5.4813E-06
DataValue, 0.67, 0.5, 5.5598000000000005E-06, 9.75E-13, -5.5834000000000006E-06, 5.5598000000000005E-06, 9.75E-13, 5.5834000000000006E-06
DataValue, 0.68, 0.5, 5.603E-06, 1.015E-12, -5.6002E-06, 5.603E-06, 1.015E-12, 5.6002E-06
DataValue, 0.69000000000000006, 0.5, 5.6324000000000005E-06, 1.235E-12, -5.6622000000000006E-06, 5.6324000000000005E-06, 1.235E-12, 5.6622000000000006E-06
DataValue, 0.70000000000000007, 0.5, 5.6487000000000007E-06, 9.8500000000000014E-13, -5.664E-06, 5.6487000000000007E-06, 9.8500000000000014E-13, 5.664E-06
DataValue, 0.71000000000000008, 0.5, 5.684000000000001E-06, 8.45E-13, -5.7119E-06, 5.684000000000001E-06, 8.45E-13, 5.7119E-06
DataValue, 0.72000000000000008, 0.5, 5.7108000000000004E-06, 1.155E-12, -5.7112000000000005E-06, 5.7108000000000004E-06, 1.155E-12, 5.7112000000000005E-06
DataValue, 0.73, 0.5, 5.6939000000000007E-06, 9.55E-13, -5.7453000000000007E-06, 5.6939000000000007E-06, 9.55E-13, 5.7453000000000007E-06
DataValue, 0.74, 0.5, 5.813400000000001E-06, 1.2150000000000002E-12, -5.7419000000000009E-06, 5.813400000000001E-06, 1.2150000000000002E-12, 5.7419000000000009E-06
DataValue, 0.75, 0.5, 5.8373000000000008E-06, 1.0250000000000002E-12, -5.7687E-06, 5.8373000000000008E-06, 1.0250000000000002E-12, 5.7687E-06
DataValue, 0.76, 0.5, 5.7819000000000005E-06, 1.385E-12, -5.8385000000000009E-06, 5.7819000000000005E-06, 1.385E-12, 5.8385000000000009E-06
DataValue, 0.77, 0.5, 5.8641E-06, 8.5500000000000009E-13, -5.856E-06, 5.8641E-06, 8.5500000000000009E-13, 5.856E-06
DataValue, 0.78, 0.5, 5.875600000000001E-06, 7.75E-13, -5.8291000000000007E-06, 5.875600000000001E-06, 7.75E-13, 5.8291000000000007E-06
DataValue, 0.79, 0.5, 5.8485000000000008E-06, 1.1650000000000002E-12, -5.8679E-06, 5.8485000000000008E-06, 1.1650000000000002E-12, 5.8679E-06
DataValue, 0.8, 0.5, 5.895E-06, 1.2150000000000002E-12, -5.8336E-06, 5.895E-06, 1.2150000000000002E-12, 5.8336E-06
DataValue, 0.81, 0.5, 5.8951000000000005E-06, 9.65E-13, -5.8566000000000008E-06, 5.8951000000000005E-06, 9.65E-13, 5.8566000000000008E-06
DataValue, 0.82000000000000006, 0.5, 5.9180000000000008E-06, 9.8500000000000014E-13, -5.9364000000000005E-06, 5.9180000000000008E-06, 9.8500000000000014E-13, 5.9364000000000005E-06
DataValue, 0.83000000000000007, 0.5, 5.9682000000000007E-06, 1.195E-12, -6.0051E-06, 5.9682000000000007E-06, 1.195E-12, 6.0051E-06
DataValue, 0.84000000000000008, 0.5, 5.9365000000000007E-06, 1.065E-12, -5.9627000000000005E-06, 5.9365000000000007E-06, 1.065E-12, 5.9627000000000005E-06
DataValue, 0.85000000000000009, 0.5, 6.0269000000000007E-06, 7.8500000000000009E-13, -5.9747000000000006E-06, 6.0269000000000007E-06, 7.8500000000000009E-13, 5.9747000000000006E-06
DataValue, 0.86, 0.5, 5.968E-06, 1.0250000000000002E-12, -5.9838E-06, 5.968E-06, 1.0250000000000002E-12, 5.9838E-06
DataValue, 0.87, 0.5, 6.0245000000000005E-06, 1.5550000000000001E-12, -6.0519000000000005E-06, 6.0245000000000005E-06, 1.5550000000000001E-12, 6.0519000000000005E-06
DataValue, 0.88, 0.5, 6.0052000000000005E-06, 1.435E-12, -6.087300000000001E-06, 6.0052000000000005E-06, 1.435E-12, 6.087300000000001E-06
DataValue, 0.89, 0.5, 6.1171E-06, 8.7500000000000011E-13, -6.0878E-06, 6.1171E-06, 8.7500000000000011E-13, 6.0878E-06
DataValue, 0.9, 0.5, 6.0812E-06, 1.4050000000000002E-12, -6.1565E-06, 6.0812E-06, 1.4050000000000002E-12, 6.1565E-06
DataValue, 0.91, 0.5, 6.1201000000000009E-06, 8.65E-13, -6.1504000000000004E-06, 6.1201000000000009E-06, 8.65E-13, 6.1504000000000004E-06
DataValue, 0.92, 0.5, 6.2103000000000005E-06, 9.3500000000000016E-13, -6.1364E-06, 6.2103000000000005E-06, 9.3500000000000016E-13, 6.1364E-06
DataValue, 0.93, 0.5, 6.165700000000001E-06, 1.005E-12, -6.1976000000000006E-06, 6.165700000000001E-06, 1.005E-12, 6.1976000000000006E-06
