
SetupTitle, IdVd_Vg_par
PrimitiveTest, I/V Sweep
TestParameter, Context.MainFrame, B1500A
TestParameter, Channel.UnitType, SMU, SMU, SMU
TestParameter, Channel.Unit, SMU3:HR, SMU2:HR, SMU1:HR
TestParameter, Channel.IName, Id, Ig, Is
TestParameter, Channel.VName, Vd, Vg, Vs
TestParameter, Channel.Mode, V, V, V
TestParameter, Channel.Func, VAR1, VAR2, CONST
TestParameter, Channel.Index, 
TestParameter, Channel.Time, 
TestParameter, Measurement.Port.Unit, SMU3:HR, SMU2:HR, SMU1:HR
TestParameter, Measurement.Port.SeriesResistor, NONE, NONE, NONE
TestParameter, Measurement.Port.Filter, ON, ON, ON
TestParameter, Measurement.Port.OutputVoltageComparison, 0, 0, 0
TestParameter, Measurement.Primary.Locus, Double
TestParameter, Measurement.Primary.Scale, LINEAR
TestParameter, Measurement.Primary.Start, 0
TestParameter, Measurement.Primary.Stop, 1
TestParameter, Measurement.Primary.Step, 0.01
TestParameter, Measurement.Primary.Compliance, 0.01
TestParameter, Measurement.Primary.PowerCompliance, 0
TestParameter, Measurement.Aborting.Condition, CONTINUE AT ANY
TestParameter, Measurement.PostOutput.Value, START
TestParameter, Measurement.PostOutput.Retention, OFF
TestParameter, Measurement.Secondary.Start, 0.5
TestParameter, Measurement.Secondary.Count, 7
TestParameter, Measurement.Secondary.Step, 0.25
TestParameter, Measurement.Secondary.Compliance, 0.01
TestParameter, Measurement.Secondary.PowerCompliance, 0
TestParameter, Measurement.Bias.Source, 0, 0.5, 0
TestParameter, Measurement.Bias.Compliance, 0.01, 0.01, 0.01
TestParameter, Measurement.Monitor.Unit, SMU3:HR, SMU2:HR, SMU1:HR
TestParameter, Measurement.Monitor.Adc, HR ADC, HR ADC, HR ADC
TestParameter, Measurement.Monitor.Measurement, Compliance Side, Compliance Side, Compliance Side
TestParameter, Measurement.Monitor.RangingMode, LIMITED, LIMITED, LIMITED
TestParameter, Measurement.Monitor.RangeBoundary, 1nA, 1nA, 1nA
TestParameter, Measurement.Monitor.RangeRating, BY FULL RANGE, BY FULL RANGE, BY FULL RANGE
TestParameter, Measurement.Monitor.RangeRatingCoeff, 50, 50, 50
TestParameter, Measurement.Timing.Hold, 0
TestParameter, Measurement.Timing.Delay, 0
TestParameter, Measurement.Adc.HighSpeed.Mode, AUTO
TestParameter, Measurement.Adc.HighSpeed.Coeff, 1
TestParameter, Measurement.Adc.HighResolution.AutoZero, OFF
TestParameter, Measurement.Adc.HighResolution.Mode, AUTO
TestParameter, Measurement.Adc.HighResolution.Coeff, 6
TestParameter, Measurement.WaitTime.Source.Coeff, 1
TestParameter, Measurement.WaitTime.Source.Offset, 0
TestParameter, Measurement.WaitTime.Monitor.Coeff, 1
TestParameter, Measurement.WaitTime.Monitor.Offset, 0
TestParameter, Function.User.Name, absId, absIg, absIs
TestParameter, Function.User.Unit, A, A, A
TestParameter, Function.User.Definition, abs(Id), abs(Ig), abs(Is)
TestParameter, Output.Graph.Enabled, true
TestParameter, Output.Graph.AutoScaling, false
TestParameter, Output.Graph.XAxis.Data, Vd
TestParameter, Output.Graph.XAxis.Scale, Linear
TestParameter, Output.Graph.XAxis.Left, 0
TestParameter, Output.Graph.XAxis.Right, 2
TestParameter, Output.Graph.XAxis.RunTimeAutoScale, false
TestParameter, Output.Graph.YAxis.Data, absId, absIs
TestParameter, Output.Graph.YAxis.Scale, Linear, Linear
TestParameter, Output.Graph.YAxis.Bottom, 1E-15, 1E-15
TestParameter, Output.Graph.YAxis.Top, 0.001, 0.001
TestParameter, Output.Graph.YAxis.Group, , 
TestParameter, Output.Graph.YAxis.RunTimeAutoScale, true, true
TestParameter, Output.List.Data, Vg, Vd, Id, Is, Ig, absId, absIs, absIg
TestParameter, AutoAnalysis.Interpolation, false
TestParameter, AutoAnalysis.Var2StepCount, 1
TestParameter, AutoAnalysis.Var2StepScript, 
TestParameter, AutoAnalysis.Line1.Enabled, false
TestParameter, AutoAnalysis.Line1.Type, 1
TestParameter, AutoAnalysis.Line1.Fix, True
TestParameter, AutoAnalysis.Line1.YAxis, 0
TestParameter, AutoAnalysis.Line1.Point1.Type, 0
TestParameter, AutoAnalysis.Line1.Point1.XY.X, 
TestParameter, AutoAnalysis.Line1.Point1.XY.Y, 
TestParameter, AutoAnalysis.Line1.Point1.Data.Var, 
TestParameter, AutoAnalysis.Line1.Point1.Data.Condition, 
TestParameter, AutoAnalysis.Line1.Point1.Data.Start, false
TestParameter, AutoAnalysis.Line1.Point1.Data.StartVar, 
TestParameter, AutoAnalysis.Line1.Point1.Data.StartCondition, 
TestParameter, AutoAnalysis.Line1.Point2.Type, 0
TestParameter, AutoAnalysis.Line1.Point2.XY.X, 
TestParameter, AutoAnalysis.Line1.Point2.XY.Y, 
TestParameter, AutoAnalysis.Line1.Point2.Data.Var, 
TestParameter, AutoAnalysis.Line1.Point2.Data.Condition, 
TestParameter, AutoAnalysis.Line1.Point2.Data.Start, false
TestParameter, AutoAnalysis.Line1.Point2.Data.StartVar, 
TestParameter, AutoAnalysis.Line1.Point2.Data.StartCondition, 
TestParameter, AutoAnalysis.Line1.GradientExpr, 0
TestParameter, AutoAnalysis.Line2.Enabled, false
TestParameter, AutoAnalysis.Line2.Type, 1
TestParameter, AutoAnalysis.Line2.Fix, True
TestParameter, AutoAnalysis.Line2.YAxis, 0
TestParameter, AutoAnalysis.Line2.Point1.Type, 0
TestParameter, AutoAnalysis.Line2.Point1.XY.X, 
TestParameter, AutoAnalysis.Line2.Point1.XY.Y, 
TestParameter, AutoAnalysis.Line2.Point1.Data.Var, 
TestParameter, AutoAnalysis.Line2.Point1.Data.Condition, 
TestParameter, AutoAnalysis.Line2.Point1.Data.Start, false
TestParameter, AutoAnalysis.Line2.Point1.Data.StartVar, 
TestParameter, AutoAnalysis.Line2.Point1.Data.StartCondition, 
TestParameter, AutoAnalysis.Line2.Point2.Type, 0
TestParameter, AutoAnalysis.Line2.Point2.XY.X, 
TestParameter, AutoAnalysis.Line2.Point2.XY.Y, 
TestParameter, AutoAnalysis.Line2.Point2.Data.Var, 
TestParameter, AutoAnalysis.Line2.Point2.Data.Condition, 
TestParameter, AutoAnalysis.Line2.Point2.Data.Start, false
TestParameter, AutoAnalysis.Line2.Point2.Data.StartVar, 
TestParameter, AutoAnalysis.Line2.Point2.Data.StartCondition, 
TestParameter, AutoAnalysis.Line2.GradientExpr, 0
TestParameter, AutoAnalysis.Marker.Enabled, false
TestParameter, AutoAnalysis.Marker.Data.Var, 
TestParameter, AutoAnalysis.Marker.Data.Condition, 
TestParameter, AutoAnalysis.Marker.Data.Start, false
TestParameter, AutoAnalysis.Marker.Data.StartVar, 
TestParameter, AutoAnalysis.Marker.Data.StartCondition, 
MetaData, TestRecord.EntryPoint, true
MetaData, TestRecord.RecordTime, 06/03/2025 15:10:19
MetaData, TestRecord.TestTarget, R[6]_D[5]_L[80]
MetaData, TestRecord.IterationIndex, 1
MetaData, TestRecord.Preservation, true
MetaData, TestRecord.Flag, !
MetaData, TestRecord.Remarks, 
MetaData, TestRecord.LinkKey, 9a546a1a-af48-49aa-9223-34acbe772002
MetaData, TestRecord.Parameters, 
Dimension1, 202, 202, 202, 202, 202, 202, 202, 202
Dimension2, 7, 7, 7, 7, 7, 7, 7, 7
DataName, Vd, Vg, Id, Ig, Is, absId, absIg, absIs
DataValue, 0, 0.5, 4.3193700000000004E-10, 1.0350000000000001E-12, -5.4217600000000005E-10, 4.3193700000000004E-10, 1.0350000000000001E-12, 5.4217600000000005E-10
DataValue, 0.01, 0.5, 2.3524E-07, 1.835E-12, -2.3254E-07, 2.3524E-07, 1.835E-12, 2.3254E-07
DataValue, 0.02, 0.5, 4.5488E-07, 9.25E-13, -4.5478E-07, 4.5488E-07, 9.25E-13, 4.5478E-07
DataValue, 0.030000000000000002, 0.5, 6.6486E-07, 2.535E-12, -6.6436E-07, 6.6486E-07, 2.535E-12, 6.6436E-07
DataValue, 0.04, 0.5, 8.6393999999999994E-07, 1.4650000000000001E-12, -8.6296E-07, 8.6393999999999994E-07, 1.4650000000000001E-12, 8.6296E-07
DataValue, 0.05, 0.5, 1.05564E-06, 1.145E-12, -1.05706E-06, 1.05564E-06, 1.145E-12, 1.05706E-06
DataValue, 0.060000000000000005, 0.5, 1.2209E-06, 1.065E-12, -1.2196000000000002E-06, 1.2209E-06, 1.065E-12, 1.2196000000000002E-06
DataValue, 0.07, 0.5, 1.3877E-06, 1.435E-12, -1.3867000000000002E-06, 1.3877E-06, 1.435E-12, 1.3867000000000002E-06
DataValue, 0.08, 0.5, 1.5381000000000002E-06, 2.285E-12, -1.529E-06, 1.5381000000000002E-06, 2.285E-12, 1.529E-06
DataValue, 0.090000000000000011, 0.5, 1.6905000000000002E-06, 1.855E-12, -1.6867E-06, 1.6905000000000002E-06, 1.855E-12, 1.6867E-06
DataValue, 0.1, 0.5, 1.8394000000000001E-06, 8.5500000000000009E-13, -1.8319000000000002E-06, 1.8394000000000001E-06, 8.5500000000000009E-13, 1.8319000000000002E-06
DataValue, 0.11, 0.5, 1.9635000000000003E-06, 1.5550000000000001E-12, -1.9738E-06, 1.9635000000000003E-06, 1.5550000000000001E-12, 1.9738E-06
DataValue, 0.12000000000000001, 0.5, 2.0934E-06, 2.385E-12, -2.0947E-06, 2.0934E-06, 2.385E-12, 2.0947E-06
DataValue, 0.13, 0.5, 2.2198000000000003E-06, 1.525E-12, -2.2143E-06, 2.2198000000000003E-06, 1.525E-12, 2.2143E-06
DataValue, 0.14, 0.5, 2.3459000000000003E-06, 9.65E-13, -2.3415000000000004E-06, 2.3459000000000003E-06, 9.65E-13, 2.3415000000000004E-06
DataValue, 0.15, 0.5, 2.4484E-06, 1.625E-12, -2.4462000000000004E-06, 2.4484E-06, 1.625E-12, 2.4462000000000004E-06
DataValue, 0.16, 0.5, 2.5456000000000002E-06, 2.0250000000000004E-12, -2.5557000000000004E-06, 2.5456000000000002E-06, 2.0250000000000004E-12, 2.5557000000000004E-06
DataValue, 0.17, 0.5, 2.6507000000000003E-06, 1.3050000000000002E-12, -2.629E-06, 2.6507000000000003E-06, 1.3050000000000002E-12, 2.629E-06
DataValue, 0.18000000000000002, 0.5, 2.7301000000000003E-06, 8.1500000000000006E-13, -2.736E-06, 2.7301000000000003E-06, 8.1500000000000006E-13, 2.736E-06
DataValue, 0.19, 0.5, 2.8393000000000005E-06, 1.9650000000000002E-12, -2.8327000000000004E-06, 2.8393000000000005E-06, 1.9650000000000002E-12, 2.8327000000000004E-06
DataValue, 0.2, 0.5, 2.9199E-06, 2.0750000000000003E-12, -2.9384E-06, 2.9199E-06, 2.0750000000000003E-12, 2.9384E-06
DataValue, 0.21000000000000002, 0.5, 3.0024000000000003E-06, 1.235E-12, -3.0102000000000004E-06, 3.0024000000000003E-06, 1.235E-12, 3.0102000000000004E-06
DataValue, 0.22, 0.5, 3.0993E-06, 1.2650000000000002E-12, -3.0865000000000004E-06, 3.0993E-06, 1.2650000000000002E-12, 3.0865000000000004E-06
DataValue, 0.23, 0.5, 3.1392000000000004E-06, 2.2750000000000003E-12, -3.1454000000000004E-06, 3.1392000000000004E-06, 2.2750000000000003E-12, 3.1454000000000004E-06
DataValue, 0.24000000000000002, 0.5, 3.2323000000000004E-06, 2.0750000000000003E-12, -3.2278000000000002E-06, 3.2323000000000004E-06, 2.0750000000000003E-12, 3.2278000000000002E-06
DataValue, 0.25, 0.5, 3.2858000000000004E-06, 1.095E-12, -3.3078000000000003E-06, 3.2858000000000004E-06, 1.095E-12, 3.3078000000000003E-06
DataValue, 0.26, 0.5, 3.3445000000000003E-06, 1.255E-12, -3.3451000000000004E-06, 3.3445000000000003E-06, 1.255E-12, 3.3451000000000004E-06
DataValue, 0.27, 0.5, 3.4131000000000004E-06, 2.135E-12, -3.4386000000000004E-06, 3.4131000000000004E-06, 2.135E-12, 3.4386000000000004E-06
DataValue, 0.28, 0.5, 3.4944000000000004E-06, 1.6850000000000002E-12, -3.4761000000000005E-06, 3.4944000000000004E-06, 1.6850000000000002E-12, 3.4761000000000005E-06
DataValue, 0.29000000000000004, 0.5, 3.5318000000000002E-06, 9.25E-13, -3.5273000000000005E-06, 3.5318000000000002E-06, 9.25E-13, 3.5273000000000005E-06
DataValue, 0.3, 0.5, 3.5961E-06, 2.135E-12, -3.5849E-06, 3.5961E-06, 2.135E-12, 3.5849E-06
DataValue, 0.31, 0.5, 3.6317000000000003E-06, 1.6950000000000002E-12, -3.6129E-06, 3.6317000000000003E-06, 1.6950000000000002E-12, 3.6129E-06
DataValue, 0.32, 0.5, 3.6982000000000004E-06, 1.0250000000000002E-12, -3.7002E-06, 3.6982000000000004E-06, 1.0250000000000002E-12, 3.7002E-06
DataValue, 0.33, 0.5, 3.7277000000000003E-06, 1.6350000000000002E-12, -3.7070000000000003E-06, 3.7277000000000003E-06, 1.6350000000000002E-12, 3.7070000000000003E-06
DataValue, 0.34, 0.5, 3.7730000000000006E-06, 2.435E-12, -3.7577000000000005E-06, 3.7730000000000006E-06, 2.435E-12, 3.7577000000000005E-06
DataValue, 0.35000000000000003, 0.5, 3.8015000000000004E-06, 1.565E-12, -3.8113000000000003E-06, 3.8015000000000004E-06, 1.565E-12, 3.8113000000000003E-06
DataValue, 0.36000000000000004, 0.5, 3.8749000000000008E-06, 1.1350000000000001E-12, -3.873E-06, 3.8749000000000008E-06, 1.1350000000000001E-12, 3.873E-06
DataValue, 0.37, 0.5, 3.8876000000000007E-06, 1.8950000000000003E-12, -3.8786000000000004E-06, 3.8876000000000007E-06, 1.8950000000000003E-12, 3.8786000000000004E-06
DataValue, 0.38, 0.5, 3.9274000000000007E-06, 2.2950000000000002E-12, -3.9083E-06, 3.9274000000000007E-06, 2.2950000000000002E-12, 3.9083E-06
DataValue, 0.39, 0.5, 3.9329E-06, 1.0750000000000002E-12, -3.9313000000000008E-06, 3.9329E-06, 1.0750000000000002E-12, 3.9313000000000008E-06
DataValue, 0.4, 0.5, 3.9384E-06, 1.3650000000000001E-12, -3.9302E-06, 3.9384E-06, 1.3650000000000001E-12, 3.9302E-06
DataValue, 0.41000000000000003, 0.5, 3.9771000000000004E-06, 2.155E-12, -3.9730000000000008E-06, 3.9771000000000004E-06, 2.155E-12, 3.9730000000000008E-06
DataValue, 0.42000000000000004, 0.5, 4.0671E-06, 1.6450000000000002E-12, -4.0525000000000006E-06, 4.0671E-06, 1.6450000000000002E-12, 4.0525000000000006E-06
DataValue, 0.43, 0.5, 4.0549000000000008E-06, 8.45E-13, -4.0509000000000005E-06, 4.0549000000000008E-06, 8.45E-13, 4.0509000000000005E-06
DataValue, 0.44, 0.5, 4.1199E-06, 1.4450000000000002E-12, -4.1214E-06, 4.1199E-06, 1.4450000000000002E-12, 4.1214E-06
DataValue, 0.45, 0.5, 4.1433000000000006E-06, 1.975E-12, -4.1089000000000006E-06, 4.1433000000000006E-06, 1.975E-12, 4.1089000000000006E-06
DataValue, 0.46, 0.5, 4.1243000000000005E-06, 1.675E-12, -4.1596000000000008E-06, 4.1243000000000005E-06, 1.675E-12, 4.1596000000000008E-06
DataValue, 0.47000000000000003, 0.5, 4.1885000000000006E-06, 8.8500000000000007E-13, -4.1984E-06, 4.1885000000000006E-06, 8.8500000000000007E-13, 4.1984E-06
DataValue, 0.48000000000000004, 0.5, 4.2655E-06, 1.675E-12, -4.2375000000000005E-06, 4.2655E-06, 1.675E-12, 4.2375000000000005E-06
DataValue, 0.49000000000000005, 0.5, 4.2752E-06, 2.2250000000000003E-12, -4.2800000000000005E-06, 4.2752E-06, 2.2250000000000003E-12, 4.2800000000000005E-06
DataValue, 0.5, 0.5, 4.2851000000000007E-06, 1.3150000000000002E-12, -4.2573000000000007E-06, 4.2851000000000007E-06, 1.3150000000000002E-12, 4.2573000000000007E-06
DataValue, 0.51, 0.5, 4.291E-06, 1.0850000000000001E-12, -4.3033000000000008E-06, 4.291E-06, 1.0850000000000001E-12, 4.3033000000000008E-06
DataValue, 0.52, 0.5, 4.3196E-06, 1.9650000000000002E-12, -4.3400000000000008E-06, 4.3196E-06, 1.9650000000000002E-12, 4.3400000000000008E-06
DataValue, 0.53, 0.5, 4.3453000000000006E-06, 2.3450000000000002E-12, -4.3389E-06, 4.3453000000000006E-06, 2.3450000000000002E-12, 4.3389E-06
DataValue, 0.54, 0.5, 4.3736000000000008E-06, 1.095E-12, -4.3707E-06, 4.3736000000000008E-06, 1.095E-12, 4.3707E-06
DataValue, 0.55, 0.5, 4.4045000000000008E-06, 1.4550000000000002E-12, -4.4189E-06, 4.4045000000000008E-06, 1.4550000000000002E-12, 4.4189E-06
DataValue, 0.56, 0.5, 4.4087000000000007E-06, 2.0250000000000004E-12, -4.4243E-06, 4.4087000000000007E-06, 2.0250000000000004E-12, 4.4243E-06
DataValue, 0.57000000000000006, 0.5, 4.4541E-06, 1.875E-12, -4.4265000000000007E-06, 4.4541E-06, 1.875E-12, 4.4265000000000007E-06
DataValue, 0.58000000000000007, 0.5, 4.4663000000000008E-06, 1.0350000000000001E-12, -4.4398E-06, 4.4663000000000008E-06, 1.0350000000000001E-12, 4.4398E-06
DataValue, 0.59000000000000008, 0.5, 4.4641E-06, 1.835E-12, -4.4617000000000008E-06, 4.4641E-06, 1.835E-12, 4.4617000000000008E-06
DataValue, 0.6, 0.5, 4.4807E-06, 2.3550000000000004E-12, -4.4727E-06, 4.4807E-06, 2.3550000000000004E-12, 4.4727E-06
DataValue, 0.61, 0.5, 4.5088000000000008E-06, 1.5550000000000001E-12, -4.5226000000000005E-06, 4.5088000000000008E-06, 1.5550000000000001E-12, 4.5226000000000005E-06
DataValue, 0.62, 0.5, 4.5184000000000006E-06, 9.75E-13, -4.4899000000000008E-06, 4.5184000000000006E-06, 9.75E-13, 4.4899000000000008E-06
DataValue, 0.63, 0.5, 4.5428000000000008E-06, 1.535E-12, -4.5046E-06, 4.5428000000000008E-06, 1.535E-12, 4.5046E-06
DataValue, 0.64, 0.5, 4.5446000000000005E-06, 2.535E-12, -4.5694000000000007E-06, 4.5446000000000005E-06, 2.535E-12, 4.5694000000000007E-06
DataValue, 0.65, 0.5, 4.5396000000000005E-06, 1.485E-12, -4.5271E-06, 4.5396000000000005E-06, 1.485E-12, 4.5271E-06
DataValue, 0.66, 0.5, 4.5847E-06, 1.205E-12, -4.5753E-06, 4.5847E-06, 1.205E-12, 4.5753E-06
DataValue, 0.67, 0.5, 4.6005E-06, 1.6550000000000001E-12, -4.6346000000000005E-06, 4.6005E-06, 1.6550000000000001E-12, 4.6346000000000005E-06
DataValue, 0.68, 0.5, 4.6301000000000008E-06, 1.985E-12, -4.6130000000000006E-06, 4.6301000000000008E-06, 1.985E-12, 4.6130000000000006E-06
DataValue, 0.69000000000000006, 0.5, 4.6377000000000005E-06, 1.875E-12, -4.6246000000000006E-06, 4.6377000000000005E-06, 1.875E-12, 4.6246000000000006E-06
DataValue, 0.70000000000000007, 0.5, 4.6718000000000007E-06, 1.105E-12, -4.6457E-06, 4.6718000000000007E-06, 1.105E-12, 4.6457E-06
DataValue, 0.71000000000000008, 0.5, 4.7072000000000004E-06, 1.675E-12, -4.6762E-06, 4.7072000000000004E-06, 1.675E-12, 4.6762E-06
DataValue, 0.72000000000000008, 0.5, 4.7367000000000007E-06, 2.265E-12, -4.7403E-06, 4.7367000000000007E-06, 2.265E-12, 4.7403E-06
DataValue, 0.73, 0.5, 4.7511E-06, 1.3250000000000001E-12, -4.7099000000000004E-06, 4.7511E-06, 1.3250000000000001E-12, 4.7099000000000004E-06
DataValue, 0.74, 0.5, 4.7371000000000008E-06, 9.3500000000000016E-13, -4.74E-06, 4.7371000000000008E-06, 9.3500000000000016E-13, 4.74E-06
DataValue, 0.75, 0.5, 4.7080000000000005E-06, 2.015E-12, -4.6919000000000008E-06, 4.7080000000000005E-06, 2.015E-12, 4.6919000000000008E-06
DataValue, 0.76, 0.5, 4.7320000000000006E-06, 2.185E-12, -4.7760000000000005E-06, 4.7320000000000006E-06, 2.185E-12, 4.7760000000000005E-06
DataValue, 0.77, 0.5, 4.735E-06, 7.25E-13, -4.7499000000000009E-06, 4.735E-06, 7.25E-13, 4.7499000000000009E-06
DataValue, 0.78, 0.5, 4.755E-06, 1.4950000000000002E-12, -4.7377E-06, 4.755E-06, 1.4950000000000002E-12, 4.7377E-06
DataValue, 0.79, 0.5, 4.7364E-06, 2.565E-12, -4.7625000000000006E-06, 4.7364E-06, 2.565E-12, 4.7625000000000006E-06
DataValue, 0.8, 0.5, 4.7589E-06, 1.195E-12, -4.7923000000000007E-06, 4.7589E-06, 1.195E-12, 4.7923000000000007E-06
DataValue, 0.81, 0.5, 4.7912000000000008E-06, 1.295E-12, -4.8027000000000006E-06, 4.7912000000000008E-06, 1.295E-12, 4.8027000000000006E-06
DataValue, 0.82000000000000006, 0.5, 4.8865000000000006E-06, 1.565E-12, -4.8291000000000009E-06, 4.8865000000000006E-06, 1.565E-12, 4.8291000000000009E-06
DataValue, 0.83000000000000007, 0.5, 4.8287000000000009E-06, 2.4050000000000004E-12, -4.7943000000000008E-06, 4.8287000000000009E-06, 2.4050000000000004E-12, 4.7943000000000008E-06
DataValue, 0.84000000000000008, 0.5, 4.8141E-06, 1.1750000000000001E-12, -4.8274000000000006E-06, 4.8141E-06, 1.1750000000000001E-12, 4.8274000000000006E-06
DataValue, 0.85000000000000009, 0.5, 4.8529000000000006E-06, 1.5450000000000002E-12, -4.8045E-06, 4.8529000000000006E-06, 1.5450000000000002E-12, 4.8045E-06
DataValue, 0.86, 0.5, 4.8987E-06, 1.6850000000000002E-12, -4.8973000000000005E-06, 4.8987E-06, 1.6850000000000002E-12, 4.8973000000000005E-06
DataValue, 0.87, 0.5, 4.8844E-06, 2.055E-12, -4.9084E-06, 4.8844E-06, 2.055E-12, 4.9084E-06
DataValue, 0.88, 0.5, 4.8777000000000008E-06, 7.6500000000000007E-13, -4.8796000000000007E-06, 4.8777000000000008E-06, 7.6500000000000007E-13, 4.8796000000000007E-06
DataValue, 0.89, 0.5, 4.8958000000000006E-06, 1.885E-12, -4.9322000000000008E-06, 4.8958000000000006E-06, 1.885E-12, 4.9322000000000008E-06
DataValue, 0.9, 0.5, 4.9203E-06, 2.155E-12, -4.9226E-06, 4.9203E-06, 2.155E-12, 4.9226E-06
DataValue, 0.91, 0.5, 4.9278000000000005E-06, 1.6950000000000002E-12, -4.9336000000000005E-06, 4.9278000000000005E-06, 1.6950000000000002E-12, 4.9336000000000005E-06
DataValue, 0.92, 0.5, 4.9176E-06, 1.3550000000000002E-12, -4.9678E-06, 4.9176E-06, 1.3550000000000002E-12, 4.9678E-06
DataValue, 0.93, 0.5, 4.9459E-06, 1.9950000000000003E-12, -4.9765000000000005E-06, 4.9459E-06, 1.9950000000000003E-12, 4.9765000000000005E-06
DataValue, 0.94000000000000006, 0.5, 4.9393E-06, 2.435E-12, -4.9691E-06, 4.9393E-06, 2.435E-12, 4.9691E-06
