
SetupTitle, IdVd_Vg_par
PrimitiveTest, I/V Sweep
TestParameter, Context.MainFrame, B1500A
TestParameter, Channel.UnitType, SMU, SMU, SMU
TestParameter, Channel.Unit, SMU3:HR, SMU2:HR, SMU1:HR
TestParameter, Channel.IName, Id, Ig, Is
TestParameter, Channel.VName, Vd, Vg, Vs
TestParameter, Channel.Mode, V, V, V
TestParameter, Channel.Func, VAR1, VAR2, CONST
TestParameter, Channel.Index, 
TestParameter, Channel.Time, 
TestParameter, Measurement.Port.Unit, SMU3:HR, SMU2:HR, SMU1:HR
TestParameter, Measurement.Port.SeriesResistor, NONE, NONE, NONE
TestParameter, Measurement.Port.Filter, ON, ON, ON
TestParameter, Measurement.Port.OutputVoltageComparison, 0, 0, 0
TestParameter, Measurement.Primary.Locus, Double
TestParameter, Measurement.Primary.Scale, LINEAR
TestParameter, Measurement.Primary.Start, 0
TestParameter, Measurement.Primary.Stop, 1
TestParameter, Measurement.Primary.Step, 0.01
TestParameter, Measurement.Primary.Compliance, 0.01
TestParameter, Measurement.Primary.PowerCompliance, 0
TestParameter, Measurement.Aborting.Condition, CONTINUE AT ANY
TestParameter, Measurement.PostOutput.Value, START
TestParameter, Measurement.PostOutput.Retention, OFF
TestParameter, Measurement.Secondary.Start, 0.5
TestParameter, Measurement.Secondary.Count, 7
TestParameter, Measurement.Secondary.Step, 0.25
TestParameter, Measurement.Secondary.Compliance, 0.01
TestParameter, Measurement.Secondary.PowerCompliance, 0
TestParameter, Measurement.Bias.Source, 0, 0.5, 0
TestParameter, Measurement.Bias.Compliance, 0.01, 0.01, 0.01
TestParameter, Measurement.Monitor.Unit, SMU3:HR, SMU2:HR, SMU1:HR
TestParameter, Measurement.Monitor.Adc, HR ADC, HR ADC, HR ADC
TestParameter, Measurement.Monitor.Measurement, Compliance Side, Compliance Side, Compliance Side
TestParameter, Measurement.Monitor.RangingMode, LIMITED, LIMITED, LIMITED
TestParameter, Measurement.Monitor.RangeBoundary, 1nA, 1nA, 1nA
TestParameter, Measurement.Monitor.RangeRating, BY FULL RANGE, BY FULL RANGE, BY FULL RANGE
TestParameter, Measurement.Monitor.RangeRatingCoeff, 50, 50, 50
TestParameter, Measurement.Timing.Hold, 0
TestParameter, Measurement.Timing.Delay, 0
TestParameter, Measurement.Adc.HighSpeed.Mode, AUTO
TestParameter, Measurement.Adc.HighSpeed.Coeff, 1
TestParameter, Measurement.Adc.HighResolution.AutoZero, OFF
TestParameter, Measurement.Adc.HighResolution.Mode, AUTO
TestParameter, Measurement.Adc.HighResolution.Coeff, 6
TestParameter, Measurement.WaitTime.Source.Coeff, 1
TestParameter, Measurement.WaitTime.Source.Offset, 0
TestParameter, Measurement.WaitTime.Monitor.Coeff, 1
TestParameter, Measurement.WaitTime.Monitor.Offset, 0
TestParameter, Function.User.Name, absId, absIg, absIs
TestParameter, Function.User.Unit, A, A, A
TestParameter, Function.User.Definition, abs(Id), abs(Ig), abs(Is)
TestParameter, Output.Graph.Enabled, true
TestParameter, Output.Graph.AutoScaling, false
TestParameter, Output.Graph.XAxis.Data, Vd
TestParameter, Output.Graph.XAxis.Scale, Linear
TestParameter, Output.Graph.XAxis.Left, 0
TestParameter, Output.Graph.XAxis.Right, 2
TestParameter, Output.Graph.XAxis.RunTimeAutoScale, false
TestParameter, Output.Graph.YAxis.Data, absId, absIs
TestParameter, Output.Graph.YAxis.Scale, Linear, Linear
TestParameter, Output.Graph.YAxis.Bottom, 1E-15, 1E-15
TestParameter, Output.Graph.YAxis.Top, 0.001, 0.001
TestParameter, Output.Graph.YAxis.Group, , 
TestParameter, Output.Graph.YAxis.RunTimeAutoScale, true, true
TestParameter, Output.List.Data, Vg, Vd, Id, Is, Ig, absId, absIs, absIg
TestParameter, AutoAnalysis.Interpolation, false
TestParameter, AutoAnalysis.Var2StepCount, 1
TestParameter, AutoAnalysis.Var2StepScript, 
TestParameter, AutoAnalysis.Line1.Enabled, false
TestParameter, AutoAnalysis.Line1.Type, 1
TestParameter, AutoAnalysis.Line1.Fix, True
TestParameter, AutoAnalysis.Line1.YAxis, 0
TestParameter, AutoAnalysis.Line1.Point1.Type, 0
TestParameter, AutoAnalysis.Line1.Point1.XY.X, 
TestParameter, AutoAnalysis.Line1.Point1.XY.Y, 
TestParameter, AutoAnalysis.Line1.Point1.Data.Var, 
TestParameter, AutoAnalysis.Line1.Point1.Data.Condition, 
TestParameter, AutoAnalysis.Line1.Point1.Data.Start, false
TestParameter, AutoAnalysis.Line1.Point1.Data.StartVar, 
TestParameter, AutoAnalysis.Line1.Point1.Data.StartCondition, 
TestParameter, AutoAnalysis.Line1.Point2.Type, 0
TestParameter, AutoAnalysis.Line1.Point2.XY.X, 
TestParameter, AutoAnalysis.Line1.Point2.XY.Y, 
TestParameter, AutoAnalysis.Line1.Point2.Data.Var, 
TestParameter, AutoAnalysis.Line1.Point2.Data.Condition, 
TestParameter, AutoAnalysis.Line1.Point2.Data.Start, false
TestParameter, AutoAnalysis.Line1.Point2.Data.StartVar, 
TestParameter, AutoAnalysis.Line1.Point2.Data.StartCondition, 
TestParameter, AutoAnalysis.Line1.GradientExpr, 0
TestParameter, AutoAnalysis.Line2.Enabled, false
TestParameter, AutoAnalysis.Line2.Type, 1
TestParameter, AutoAnalysis.Line2.Fix, True
TestParameter, AutoAnalysis.Line2.YAxis, 0
TestParameter, AutoAnalysis.Line2.Point1.Type, 0
TestParameter, AutoAnalysis.Line2.Point1.XY.X, 
TestParameter, AutoAnalysis.Line2.Point1.XY.Y, 
TestParameter, AutoAnalysis.Line2.Point1.Data.Var, 
TestParameter, AutoAnalysis.Line2.Point1.Data.Condition, 
TestParameter, AutoAnalysis.Line2.Point1.Data.Start, false
TestParameter, AutoAnalysis.Line2.Point1.Data.StartVar, 
TestParameter, AutoAnalysis.Line2.Point1.Data.StartCondition, 
TestParameter, AutoAnalysis.Line2.Point2.Type, 0
TestParameter, AutoAnalysis.Line2.Point2.XY.X, 
TestParameter, AutoAnalysis.Line2.Point2.XY.Y, 
TestParameter, AutoAnalysis.Line2.Point2.Data.Var, 
TestParameter, AutoAnalysis.Line2.Point2.Data.Condition, 
TestParameter, AutoAnalysis.Line2.Point2.Data.Start, false
TestParameter, AutoAnalysis.Line2.Point2.Data.StartVar, 
TestParameter, AutoAnalysis.Line2.Point2.Data.StartCondition, 
TestParameter, AutoAnalysis.Line2.GradientExpr, 0
TestParameter, AutoAnalysis.Marker.Enabled, false
TestParameter, AutoAnalysis.Marker.Data.Var, 
TestParameter, AutoAnalysis.Marker.Data.Condition, 
TestParameter, AutoAnalysis.Marker.Data.Start, false
TestParameter, AutoAnalysis.Marker.Data.StartVar, 
TestParameter, AutoAnalysis.Marker.Data.StartCondition, 
MetaData, TestRecord.EntryPoint, true
MetaData, TestRecord.RecordTime, 06/03/2025 15:26:08
MetaData, TestRecord.TestTarget, R[5R]_D[5]_L[60]
MetaData, TestRecord.IterationIndex, 1
MetaData, TestRecord.Preservation, true
MetaData, TestRecord.Flag, !
MetaData, TestRecord.Remarks, 
MetaData, TestRecord.LinkKey, bc04b62f-6b08-439e-868d-3c5545226a90
MetaData, TestRecord.Parameters, 
Dimension1, 202, 202, 202, 202, 202, 202, 202, 202
Dimension2, 7, 7, 7, 7, 7, 7, 7, 7
DataName, Vd, Vg, Id, Ig, Is, absId, absIg, absIs
DataValue, 0, 0.5, 1.30807E-09, 1.335E-12, -9.3615600000000017E-10, 1.30807E-09, 1.335E-12, 9.3615600000000017E-10
DataValue, 0.01, 0.5, 6.033E-07, 1.875E-12, -6.0622E-07, 6.033E-07, 1.875E-12, 6.0622E-07
DataValue, 0.02, 0.5, 1.1894000000000002E-06, 1.35E-13, -1.2001000000000002E-06, 1.1894000000000002E-06, 1.35E-13, 1.2001000000000002E-06
DataValue, 0.030000000000000002, 0.5, 1.7559000000000002E-06, 7.95E-13, -1.7647000000000002E-06, 1.7559000000000002E-06, 7.95E-13, 1.7647000000000002E-06
DataValue, 0.04, 0.5, 2.2965000000000004E-06, 1.5450000000000002E-12, -2.2961000000000003E-06, 2.2965000000000004E-06, 1.5450000000000002E-12, 2.2961000000000003E-06
DataValue, 0.05, 0.5, 2.8463E-06, 9.15E-13, -2.8268E-06, 2.8463E-06, 9.15E-13, 2.8268E-06
DataValue, 0.060000000000000005, 0.5, 3.3517000000000005E-06, 5.2500000000000009E-13, -3.3371E-06, 3.3517000000000005E-06, 5.2500000000000009E-13, 3.3371E-06
DataValue, 0.07, 0.5, 3.848E-06, 1.665E-12, -3.8341E-06, 3.848E-06, 1.665E-12, 3.8341E-06
DataValue, 0.08, 0.5, 4.317E-06, 1.3550000000000002E-12, -4.3031E-06, 4.317E-06, 1.3550000000000002E-12, 4.3031E-06
DataValue, 0.090000000000000011, 0.5, 4.767E-06, 1.4500000000000001E-13, -4.7726000000000007E-06, 4.767E-06, 1.4500000000000001E-13, 4.7726000000000007E-06
DataValue, 0.1, 0.5, 5.2517000000000009E-06, 5.0500000000000007E-13, -5.2415000000000006E-06, 5.2517000000000009E-06, 5.0500000000000007E-13, 5.2415000000000006E-06
DataValue, 0.11, 0.5, 5.6622000000000006E-06, 1.765E-12, -5.6830000000000005E-06, 5.6622000000000006E-06, 1.765E-12, 5.6830000000000005E-06
DataValue, 0.12000000000000001, 0.5, 6.0860000000000007E-06, 1.2150000000000002E-12, -6.0456E-06, 6.0860000000000007E-06, 1.2150000000000002E-12, 6.0456E-06
DataValue, 0.13, 0.5, 6.4432E-06, 2.2500000000000003E-13, -6.4700000000000007E-06, 6.4432E-06, 2.2500000000000003E-13, 6.4700000000000007E-06
DataValue, 0.14, 0.5, 6.8378000000000008E-06, 7.55E-13, -6.8753000000000009E-06, 6.8378000000000008E-06, 7.55E-13, 6.8753000000000009E-06
DataValue, 0.15, 0.5, 7.2671000000000011E-06, 1.875E-12, -7.2018000000000011E-06, 7.2671000000000011E-06, 1.875E-12, 7.2018000000000011E-06
DataValue, 0.16, 0.5, 7.609700000000001E-06, 9.3500000000000016E-13, -7.6109000000000011E-06, 7.609700000000001E-06, 9.3500000000000016E-13, 7.6109000000000011E-06
DataValue, 0.17, 0.5, 7.956600000000001E-06, 7.1500000000000008E-13, -8.0232000000000014E-06, 7.956600000000001E-06, 7.1500000000000008E-13, 8.0232000000000014E-06
DataValue, 0.18000000000000002, 0.5, 8.407000000000001E-06, 1.565E-12, -8.3589E-06, 8.407000000000001E-06, 1.565E-12, 8.3589E-06
DataValue, 0.19, 0.5, 8.6756E-06, 1.485E-12, -8.6827E-06, 8.6756E-06, 1.485E-12, 8.6827E-06
DataValue, 0.2, 0.5, 9.0138000000000017E-06, 5.2500000000000009E-13, -9.0514000000000011E-06, 9.0138000000000017E-06, 5.2500000000000009E-13, 9.0514000000000011E-06
DataValue, 0.21000000000000002, 0.5, 9.4197E-06, 7.350000000000001E-13, -9.3347E-06, 9.4197E-06, 7.350000000000001E-13, 9.3347E-06
DataValue, 0.22, 0.5, 9.6958000000000013E-06, 1.4150000000000001E-12, -9.6281E-06, 9.6958000000000013E-06, 1.4150000000000001E-12, 9.6281E-06
DataValue, 0.23, 0.5, 9.9923000000000009E-06, 1.255E-12, -9.9758E-06, 9.9923000000000009E-06, 1.255E-12, 9.9758E-06
DataValue, 0.24000000000000002, 0.5, 1.0250000000000002E-05, 4.5500000000000008E-13, -1.03685E-05, 1.0250000000000002E-05, 4.5500000000000008E-13, 1.03685E-05
DataValue, 0.25, 0.5, 1.06443E-05, 1.015E-12, -1.0580600000000002E-05, 1.06443E-05, 1.015E-12, 1.0580600000000002E-05
DataValue, 0.26, 0.5, 1.0929100000000002E-05, 1.295E-12, -1.0932700000000001E-05, 1.0929100000000002E-05, 1.295E-12, 1.0932700000000001E-05
DataValue, 0.27, 0.5, 1.11457E-05, 1.3250000000000001E-12, -1.1137700000000002E-05, 1.11457E-05, 1.3250000000000001E-12, 1.1137700000000002E-05
DataValue, 0.28, 0.5, 1.1403400000000002E-05, 3.4500000000000004E-13, -1.14826E-05, 1.1403400000000002E-05, 3.4500000000000004E-13, 1.14826E-05
DataValue, 0.29000000000000004, 0.5, 1.161E-05, 6.35E-13, -1.1628000000000001E-05, 1.161E-05, 6.35E-13, 1.1628000000000001E-05
DataValue, 0.3, 0.5, 1.1926E-05, 1.295E-12, -1.1948E-05, 1.1926E-05, 1.295E-12, 1.1948E-05
DataValue, 0.31, 0.5, 1.2174E-05, 4.35E-13, -1.2184E-05, 1.2174E-05, 4.35E-13, 1.2184E-05
DataValue, 0.32, 0.5, 1.2378E-05, 1.205E-12, -1.2376E-05, 1.2378E-05, 1.205E-12, 1.2376E-05
DataValue, 0.33, 0.5, 1.2614E-05, 1.5550000000000001E-12, -1.2636E-05, 1.2614E-05, 1.5550000000000001E-12, 1.2636E-05
DataValue, 0.34, 0.5, 1.2826E-05, 2.85E-13, -1.302E-05, 1.2826E-05, 2.85E-13, 1.302E-05
DataValue, 0.35000000000000003, 0.5, 1.3170000000000001E-05, 1.3550000000000002E-12, -1.3206E-05, 1.3170000000000001E-05, 1.3550000000000002E-12, 1.3206E-05
DataValue, 0.36000000000000004, 0.5, 1.3474E-05, 1.6950000000000002E-12, -1.3496000000000001E-05, 1.3474E-05, 1.6950000000000002E-12, 1.3496000000000001E-05
DataValue, 0.37, 0.5, 1.3680000000000001E-05, 8.3500000000000008E-13, -1.3756E-05, 1.3680000000000001E-05, 8.3500000000000008E-13, 1.3756E-05
DataValue, 0.38, 0.5, 1.3824E-05, 1.335E-12, -1.3880000000000001E-05, 1.3824E-05, 1.335E-12, 1.3880000000000001E-05
DataValue, 0.39, 0.5, 1.4166000000000001E-05, 1.2150000000000002E-12, -1.4230000000000001E-05, 1.4166000000000001E-05, 1.2150000000000002E-12, 1.4230000000000001E-05
DataValue, 0.4, 0.5, 1.4464E-05, 6.15E-13, -1.4464E-05, 1.4464E-05, 6.15E-13, 1.4464E-05
DataValue, 0.41000000000000003, 0.5, 1.4616E-05, 1.155E-12, -1.4654E-05, 1.4616E-05, 1.155E-12, 1.4654E-05
DataValue, 0.42000000000000004, 0.5, 1.5002000000000001E-05, 1.3250000000000001E-12, -1.4988000000000001E-05, 1.5002000000000001E-05, 1.3250000000000001E-12, 1.4988000000000001E-05
DataValue, 0.43, 0.5, 1.5184E-05, 5.35E-13, -1.5164E-05, 1.5184E-05, 5.35E-13, 1.5164E-05
DataValue, 0.44, 0.5, 1.5250000000000001E-05, 1.3550000000000002E-12, -1.5432E-05, 1.5250000000000001E-05, 1.3550000000000002E-12, 1.5432E-05
DataValue, 0.45, 0.5, 1.565E-05, 1.4950000000000002E-12, -1.5658E-05, 1.565E-05, 1.4950000000000002E-12, 1.5658E-05
DataValue, 0.46, 0.5, 1.5822000000000002E-05, 3.9500000000000003E-13, -1.5854E-05, 1.5822000000000002E-05, 3.9500000000000003E-13, 1.5854E-05
DataValue, 0.47000000000000003, 0.5, 1.6114000000000002E-05, 1.5850000000000002E-12, -1.6118E-05, 1.6114000000000002E-05, 1.5850000000000002E-12, 1.6118E-05
DataValue, 0.48000000000000004, 0.5, 1.6262E-05, 8.3500000000000008E-13, -1.6326E-05, 1.6262E-05, 8.3500000000000008E-13, 1.6326E-05
DataValue, 0.49000000000000005, 0.5, 1.647E-05, 2.35E-13, -1.6336E-05, 1.647E-05, 2.35E-13, 1.6336E-05
DataValue, 0.5, 0.5, 1.6526E-05, 1.4650000000000001E-12, -1.6504E-05, 1.6526E-05, 1.4650000000000001E-12, 1.6504E-05
DataValue, 0.51, 0.5, 1.6752E-05, 9.75E-13, -1.6764E-05, 1.6752E-05, 9.75E-13, 1.6764E-05
DataValue, 0.52, 0.5, 1.6884E-05, 4.45E-13, -1.7160000000000002E-05, 1.6884E-05, 4.45E-13, 1.7160000000000002E-05
DataValue, 0.53, 0.5, 1.7386E-05, 1.3150000000000002E-12, -1.73E-05, 1.7386E-05, 1.3150000000000002E-12, 1.73E-05
DataValue, 0.54, 0.5, 1.7404E-05, 1.0350000000000001E-12, -1.7356E-05, 1.7404E-05, 1.0350000000000001E-12, 1.7356E-05
DataValue, 0.55, 0.5, 1.7578E-05, 1.5500000000000002E-13, -1.7622000000000002E-05, 1.7578E-05, 1.5500000000000002E-13, 1.7622000000000002E-05
DataValue, 0.56, 0.5, 1.7718000000000002E-05, 1.285E-12, -1.7630000000000002E-05, 1.7718000000000002E-05, 1.285E-12, 1.7630000000000002E-05
DataValue, 0.57000000000000006, 0.5, 1.7724000000000002E-05, 1.105E-12, -1.7998E-05, 1.7724000000000002E-05, 1.105E-12, 1.7998E-05
DataValue, 0.58000000000000007, 0.5, 1.797E-05, 2.45E-13, -1.8030000000000002E-05, 1.797E-05, 2.45E-13, 1.8030000000000002E-05
DataValue, 0.59000000000000008, 0.5, 1.812E-05, 1.485E-12, -1.823E-05, 1.812E-05, 1.485E-12, 1.823E-05
DataValue, 0.6, 0.5, 1.8370000000000002E-05, 9.15E-13, -1.8472000000000002E-05, 1.8370000000000002E-05, 9.15E-13, 1.8472000000000002E-05
DataValue, 0.61, 0.5, 1.8464E-05, 8.050000000000001E-13, -1.8538E-05, 1.8464E-05, 8.050000000000001E-13, 1.8538E-05
DataValue, 0.62, 0.5, 1.8690000000000002E-05, 1.6050000000000001E-12, -1.8704E-05, 1.8690000000000002E-05, 1.6050000000000001E-12, 1.8704E-05
DataValue, 0.63, 0.5, 1.8908E-05, 5.65E-13, -1.8878E-05, 1.8908E-05, 5.65E-13, 1.8878E-05
DataValue, 0.64, 0.5, 1.9050000000000002E-05, 7.55E-13, -1.9068E-05, 1.9050000000000002E-05, 7.55E-13, 1.9068E-05
DataValue, 0.65, 0.5, 1.9364E-05, 1.435E-12, -1.9556E-05, 1.9364E-05, 1.435E-12, 1.9556E-05
DataValue, 0.66, 0.5, 1.9552000000000002E-05, 5.0500000000000007E-13, -1.9514E-05, 1.9552000000000002E-05, 5.0500000000000007E-13, 1.9514E-05
DataValue, 0.67, 0.5, 1.964E-05, 5.45E-13, -1.9476E-05, 1.964E-05, 5.45E-13, 1.9476E-05
DataValue, 0.68, 0.5, 1.9734E-05, 1.825E-12, -1.9778E-05, 1.9734E-05, 1.825E-12, 1.9778E-05
DataValue, 0.69000000000000006, 0.5, 1.9986E-05, 1.8500000000000002E-13, -2.0146E-05, 1.9986E-05, 1.8500000000000002E-13, 2.0146E-05
DataValue, 0.70000000000000007, 0.5, 2.0318E-05, 1.5550000000000001E-12, -2.0322E-05, 2.0318E-05, 1.5550000000000001E-12, 2.0322E-05
DataValue, 0.71000000000000008, 0.5, 2.0474E-05, 1.525E-12, -2.0422000000000002E-05, 2.0474E-05, 1.525E-12, 2.0422000000000002E-05
DataValue, 0.72000000000000008, 0.5, 2.0758E-05, 6.2500000000000006E-13, -2.0702E-05, 2.0758E-05, 6.2500000000000006E-13, 2.0702E-05
DataValue, 0.73, 0.5, 2.0908E-05, 1.435E-12, -2.0826E-05, 2.0908E-05, 1.435E-12, 2.0826E-05
DataValue, 0.74, 0.5, 2.09E-05, 1.045E-12, -2.0768000000000002E-05, 2.09E-05, 1.045E-12, 2.0768000000000002E-05
DataValue, 0.75, 0.5, 2.0986000000000002E-05, 4.95E-13, -2.1052E-05, 2.0986000000000002E-05, 4.95E-13, 2.1052E-05
DataValue, 0.76, 0.5, 2.1000000000000002E-05, 1.5450000000000002E-12, -2.1234E-05, 2.1000000000000002E-05, 1.5450000000000002E-12, 2.1234E-05
DataValue, 0.77, 0.5, 2.1436E-05, 6.9500000000000007E-13, -2.1504E-05, 2.1436E-05, 6.9500000000000007E-13, 2.1504E-05
DataValue, 0.78, 0.5, 2.1538E-05, 1.185E-12, -2.1576E-05, 2.1538E-05, 1.185E-12, 2.1576E-05
DataValue, 0.79, 0.5, 2.1668E-05, 1.3550000000000002E-12, -2.1568E-05, 2.1668E-05, 1.3550000000000002E-12, 2.1568E-05
DataValue, 0.8, 0.5, 2.1796E-05, 3.9500000000000003E-13, -2.1954E-05, 2.1796E-05, 3.9500000000000003E-13, 2.1954E-05
DataValue, 0.81, 0.5, 2.184E-05, 1.2150000000000002E-12, -2.1898E-05, 2.184E-05, 1.2150000000000002E-12, 2.1898E-05
DataValue, 0.82000000000000006, 0.5, 2.2088E-05, 7.4500000000000006E-13, -2.2006000000000002E-05, 2.2088E-05, 7.4500000000000006E-13, 2.2006000000000002E-05
DataValue, 0.83000000000000007, 0.5, 2.2250000000000002E-05, 9.75E-13, -2.1976E-05, 2.2250000000000002E-05, 9.75E-13, 2.1976E-05
DataValue, 0.84000000000000008, 0.5, 2.2124E-05, 1.765E-12, -2.2096E-05, 2.2124E-05, 1.765E-12, 2.2096E-05
DataValue, 0.85000000000000009, 0.5, 2.2246E-05, 4.8500000000000005E-13, -2.2306E-05, 2.2246E-05, 4.8500000000000005E-13, 2.2306E-05
DataValue, 0.86, 0.5, 2.2478E-05, 9.55E-13, -2.2602E-05, 2.2478E-05, 9.55E-13, 2.2602E-05
DataValue, 0.87, 0.5, 2.2836E-05, 1.335E-12, -2.2908E-05, 2.2836E-05, 1.335E-12, 2.2908E-05
DataValue, 0.88, 0.5, 2.2902000000000002E-05, 4.75E-13, -2.3142E-05, 2.2902000000000002E-05, 4.75E-13, 2.3142E-05
DataValue, 0.89, 0.5, 2.3236000000000003E-05, 1.8450000000000003E-12, -2.339E-05, 2.3236000000000003E-05, 1.8450000000000003E-12, 2.339E-05
DataValue, 0.9, 0.5, 2.3472E-05, 1.2250000000000001E-12, -2.3228000000000002E-05, 2.3472E-05, 1.2250000000000001E-12, 2.3228000000000002E-05
DataValue, 0.91, 0.5, 2.3472E-05, 4.1500000000000005E-13, -2.3270000000000003E-05, 2.3472E-05, 4.1500000000000005E-13, 2.3270000000000003E-05
DataValue, 0.92, 0.5, 2.3598E-05, 1.815E-12, -2.3506E-05, 2.3598E-05, 1.815E-12, 2.3506E-05
DataValue, 0.93, 0.5, 2.3618E-05, 5.0500000000000007E-13, -2.3766000000000003E-05, 2.3618E-05, 5.0500000000000007E-13, 2.3766000000000003E-05
DataValue, 0.94000000000000006, 0.5, 2.3822E-05, 1.335E-12, -2.3908000000000002E-05, 2.3822E-05, 1.335E-12, 2.3908000000000002E-05
DataValue, 0.95000000000000007, 0.5, 2.3928000000000002E-05, 1.4550000000000002E-12, -2.3918E-05, 2.3928000000000002E-05, 1.4550000000000002E-12, 2.3918E-05
DataValue, 0.96000000000000008, 0.5, 2.4104E-05, 3.8500000000000003E-13, -2.4014E-05, 2.4104E-05, 3.8500000000000003E-13, 2.4014E-05
DataValue, 0.97000000000000008, 0.5, 2.4108E-05, 1.5950000000000002E-12, -2.421E-05, 2.4108E-05, 1.5950000000000002E-12, 2.421E-05
DataValue, 0.98000000000000009, 0.5, 2.434E-05, 9.15E-13, -2.4362E-05, 2.434E-05, 9.15E-13, 2.4362E-05
DataValue, 0.9900000000000001, 0.5, 2.451E-05, 5.9500000000000009E-13, -2.4278E-05, 2.451E-05, 5.9500000000000009E-13, 2.4278E-05
DataValue, 1, 0.5, 2.4642000000000002E-05, 1.255E-12, -2.4532E-05, 2.4642000000000002E-05, 1.255E-12, 2.4532E-05
DataValue, 1, 0.5, 2.4676000000000002E-05, 7.25E-13, -2.4814E-05, 2.4676000000000002E-05, 7.25E-13, 2.4814E-05
DataValue, 0.9900000000000001, 0.5, 2.4564E-05, 1.4550000000000002E-12, -2.4488E-05, 2.4564E-05, 1.4550000000000002E-12, 2.4488E-05
DataValue, 0.98000000000000009, 0.5, 2.4634E-05, 8.95E-13, -2.4284E-05, 2.4634E-05, 8.95E-13, 2.4284E-05
