
SetupTitle, IdVd_Vg_par
PrimitiveTest, I/V Sweep
TestParameter, Context.MainFrame, B1500A
TestParameter, Channel.UnitType, SMU, SMU, SMU
TestParameter, Channel.Unit, SMU3:HR, SMU2:HR, SMU1:HR
TestParameter, Channel.IName, Id, Ig, Is
TestParameter, Channel.VName, Vd, Vg, Vs
TestParameter, Channel.Mode, V, V, V
TestParameter, Channel.Func, VAR1, VAR2, CONST
TestParameter, Channel.Index, 
TestParameter, Channel.Time, 
TestParameter, Measurement.Port.Unit, SMU3:HR, SMU2:HR, SMU1:HR
TestParameter, Measurement.Port.SeriesResistor, NONE, NONE, NONE
TestParameter, Measurement.Port.Filter, ON, ON, ON
TestParameter, Measurement.Port.OutputVoltageComparison, 0, 0, 0
TestParameter, Measurement.Primary.Locus, Double
TestParameter, Measurement.Primary.Scale, LINEAR
TestParameter, Measurement.Primary.Start, 0
TestParameter, Measurement.Primary.Stop, 1
TestParameter, Measurement.Primary.Step, 0.01
TestParameter, Measurement.Primary.Compliance, 0.01
TestParameter, Measurement.Primary.PowerCompliance, 0
TestParameter, Measurement.Aborting.Condition, CONTINUE AT ANY
TestParameter, Measurement.PostOutput.Value, START
TestParameter, Measurement.PostOutput.Retention, OFF
TestParameter, Measurement.Secondary.Start, 0.5
TestParameter, Measurement.Secondary.Count, 7
TestParameter, Measurement.Secondary.Step, 0.25
TestParameter, Measurement.Secondary.Compliance, 0.01
TestParameter, Measurement.Secondary.PowerCompliance, 0
TestParameter, Measurement.Bias.Source, 0, 0.5, 0
TestParameter, Measurement.Bias.Compliance, 0.01, 0.01, 0.01
TestParameter, Measurement.Monitor.Unit, SMU3:HR, SMU2:HR, SMU1:HR
TestParameter, Measurement.Monitor.Adc, HR ADC, HR ADC, HR ADC
TestParameter, Measurement.Monitor.Measurement, Compliance Side, Compliance Side, Compliance Side
TestParameter, Measurement.Monitor.RangingMode, LIMITED, LIMITED, LIMITED
TestParameter, Measurement.Monitor.RangeBoundary, 1nA, 1nA, 1nA
TestParameter, Measurement.Monitor.RangeRating, BY FULL RANGE, BY FULL RANGE, BY FULL RANGE
TestParameter, Measurement.Monitor.RangeRatingCoeff, 50, 50, 50
TestParameter, Measurement.Timing.Hold, 0
TestParameter, Measurement.Timing.Delay, 0
TestParameter, Measurement.Adc.HighSpeed.Mode, AUTO
TestParameter, Measurement.Adc.HighSpeed.Coeff, 1
TestParameter, Measurement.Adc.HighResolution.AutoZero, OFF
TestParameter, Measurement.Adc.HighResolution.Mode, AUTO
TestParameter, Measurement.Adc.HighResolution.Coeff, 6
TestParameter, Measurement.WaitTime.Source.Coeff, 1
TestParameter, Measurement.WaitTime.Source.Offset, 0
TestParameter, Measurement.WaitTime.Monitor.Coeff, 1
TestParameter, Measurement.WaitTime.Monitor.Offset, 0
TestParameter, Function.User.Name, absId, absIg, absIs
TestParameter, Function.User.Unit, A, A, A
TestParameter, Function.User.Definition, abs(Id), abs(Ig), abs(Is)
TestParameter, Output.Graph.Enabled, true
TestParameter, Output.Graph.AutoScaling, false
TestParameter, Output.Graph.XAxis.Data, Vd
TestParameter, Output.Graph.XAxis.Scale, Linear
TestParameter, Output.Graph.XAxis.Left, 0
TestParameter, Output.Graph.XAxis.Right, 2
TestParameter, Output.Graph.XAxis.RunTimeAutoScale, false
TestParameter, Output.Graph.YAxis.Data, absId, absIs
TestParameter, Output.Graph.YAxis.Scale, Linear, Linear
TestParameter, Output.Graph.YAxis.Bottom, 1E-15, 1E-15
TestParameter, Output.Graph.YAxis.Top, 0.001, 0.001
TestParameter, Output.Graph.YAxis.Group, , 
TestParameter, Output.Graph.YAxis.RunTimeAutoScale, true, true
TestParameter, Output.List.Data, Vg, Vd, Id, Is, Ig, absId, absIs, absIg
TestParameter, AutoAnalysis.Interpolation, false
TestParameter, AutoAnalysis.Var2StepCount, 1
TestParameter, AutoAnalysis.Var2StepScript, 
TestParameter, AutoAnalysis.Line1.Enabled, false
TestParameter, AutoAnalysis.Line1.Type, 1
TestParameter, AutoAnalysis.Line1.Fix, True
TestParameter, AutoAnalysis.Line1.YAxis, 0
TestParameter, AutoAnalysis.Line1.Point1.Type, 0
TestParameter, AutoAnalysis.Line1.Point1.XY.X, 
TestParameter, AutoAnalysis.Line1.Point1.XY.Y, 
TestParameter, AutoAnalysis.Line1.Point1.Data.Var, 
TestParameter, AutoAnalysis.Line1.Point1.Data.Condition, 
TestParameter, AutoAnalysis.Line1.Point1.Data.Start, false
TestParameter, AutoAnalysis.Line1.Point1.Data.StartVar, 
TestParameter, AutoAnalysis.Line1.Point1.Data.StartCondition, 
TestParameter, AutoAnalysis.Line1.Point2.Type, 0
TestParameter, AutoAnalysis.Line1.Point2.XY.X, 
TestParameter, AutoAnalysis.Line1.Point2.XY.Y, 
TestParameter, AutoAnalysis.Line1.Point2.Data.Var, 
TestParameter, AutoAnalysis.Line1.Point2.Data.Condition, 
TestParameter, AutoAnalysis.Line1.Point2.Data.Start, false
TestParameter, AutoAnalysis.Line1.Point2.Data.StartVar, 
TestParameter, AutoAnalysis.Line1.Point2.Data.StartCondition, 
TestParameter, AutoAnalysis.Line1.GradientExpr, 0
TestParameter, AutoAnalysis.Line2.Enabled, false
TestParameter, AutoAnalysis.Line2.Type, 1
TestParameter, AutoAnalysis.Line2.Fix, True
TestParameter, AutoAnalysis.Line2.YAxis, 0
TestParameter, AutoAnalysis.Line2.Point1.Type, 0
TestParameter, AutoAnalysis.Line2.Point1.XY.X, 
TestParameter, AutoAnalysis.Line2.Point1.XY.Y, 
TestParameter, AutoAnalysis.Line2.Point1.Data.Var, 
TestParameter, AutoAnalysis.Line2.Point1.Data.Condition, 
TestParameter, AutoAnalysis.Line2.Point1.Data.Start, false
TestParameter, AutoAnalysis.Line2.Point1.Data.StartVar, 
TestParameter, AutoAnalysis.Line2.Point1.Data.StartCondition, 
TestParameter, AutoAnalysis.Line2.Point2.Type, 0
TestParameter, AutoAnalysis.Line2.Point2.XY.X, 
TestParameter, AutoAnalysis.Line2.Point2.XY.Y, 
TestParameter, AutoAnalysis.Line2.Point2.Data.Var, 
TestParameter, AutoAnalysis.Line2.Point2.Data.Condition, 
TestParameter, AutoAnalysis.Line2.Point2.Data.Start, false
TestParameter, AutoAnalysis.Line2.Point2.Data.StartVar, 
TestParameter, AutoAnalysis.Line2.Point2.Data.StartCondition, 
TestParameter, AutoAnalysis.Line2.GradientExpr, 0
TestParameter, AutoAnalysis.Marker.Enabled, false
TestParameter, AutoAnalysis.Marker.Data.Var, 
TestParameter, AutoAnalysis.Marker.Data.Condition, 
TestParameter, AutoAnalysis.Marker.Data.Start, false
TestParameter, AutoAnalysis.Marker.Data.StartVar, 
TestParameter, AutoAnalysis.Marker.Data.StartCondition, 
MetaData, TestRecord.EntryPoint, true
MetaData, TestRecord.RecordTime, 06/03/2025 16:12:52
MetaData, TestRecord.TestTarget, R[5]_D[6]_L[500]
MetaData, TestRecord.IterationIndex, 1
MetaData, TestRecord.Preservation, true
MetaData, TestRecord.Flag, !
MetaData, TestRecord.Remarks, 
MetaData, TestRecord.LinkKey, 303b5324-3fbe-4cda-ac98-bb7ab5a4e51e
MetaData, TestRecord.Parameters, 
Dimension1, 202, 202, 202, 202, 202, 202, 202, 202
Dimension2, 7, 7, 7, 7, 7, 7, 7, 7
DataName, Vd, Vg, Id, Ig, Is, absId, absIg, absIs
DataValue, 0, 0.5, 1.1002700000000001E-10, 1.385E-12, -4.6196000000000004E-11, 1.1002700000000001E-10, 1.385E-12, 4.6196000000000004E-11
DataValue, 0.01, 0.5, 2.32088E-08, 1.475E-12, -2.32246E-08, 2.32088E-08, 1.475E-12, 2.32246E-08
DataValue, 0.02, 0.5, 4.4473599999999997E-08, 1.565E-12, -4.4554199999999994E-08, 4.4473599999999997E-08, 1.565E-12, 4.4554199999999994E-08
DataValue, 0.030000000000000002, 0.5, 6.43318E-08, 1.8950000000000003E-12, -6.4161799999999992E-08, 6.43318E-08, 1.8950000000000003E-12, 6.4161799999999992E-08
DataValue, 0.04, 0.5, 8.23598E-08, 1.425E-12, -8.2334999999999989E-08, 8.23598E-08, 1.425E-12, 8.2334999999999989E-08
DataValue, 0.05, 0.5, 9.898659999999999E-08, 1.6050000000000001E-12, -9.8891E-08, 9.898659999999999E-08, 1.6050000000000001E-12, 9.8891E-08
DataValue, 0.060000000000000005, 0.5, 1.141952E-07, 1.905E-12, -1.1412399999999998E-07, 1.141952E-07, 1.905E-12, 1.1412399999999998E-07
DataValue, 0.07, 0.5, 1.2782E-07, 1.6450000000000002E-12, -1.2766E-07, 1.2782E-07, 1.6450000000000002E-12, 1.2766E-07
DataValue, 0.08, 0.5, 1.4046E-07, 1.4550000000000002E-12, -1.4052E-07, 1.4046E-07, 1.4550000000000002E-12, 1.4052E-07
DataValue, 0.090000000000000011, 0.5, 1.5184E-07, 1.6950000000000002E-12, -1.5143999999999999E-07, 1.5184E-07, 1.6950000000000002E-12, 1.5143999999999999E-07
DataValue, 0.1, 0.5, 1.6156E-07, 1.5050000000000002E-12, -1.614E-07, 1.6156E-07, 1.5050000000000002E-12, 1.614E-07
DataValue, 0.11, 0.5, 1.7124E-07, 1.9150000000000002E-12, -1.7111999999999999E-07, 1.7124E-07, 1.9150000000000002E-12, 1.7111999999999999E-07
DataValue, 0.12000000000000001, 0.5, 1.7906E-07, 1.4050000000000002E-12, -1.7912E-07, 1.7906E-07, 1.4050000000000002E-12, 1.7912E-07
DataValue, 0.13, 0.5, 1.8666E-07, 1.575E-12, -1.8652E-07, 1.8666E-07, 1.575E-12, 1.8652E-07
DataValue, 0.14, 0.5, 1.93E-07, 1.4050000000000002E-12, -1.926E-07, 1.93E-07, 1.4050000000000002E-12, 1.926E-07
DataValue, 0.15, 0.5, 1.9807999999999998E-07, 1.4050000000000002E-12, -1.98E-07, 1.9807999999999998E-07, 1.4050000000000002E-12, 1.98E-07
DataValue, 0.16, 0.5, 2.0332E-07, 1.3150000000000002E-12, -2.0304E-07, 2.0332E-07, 1.3150000000000002E-12, 2.0304E-07
DataValue, 0.17, 0.5, 2.0798E-07, 1.7750000000000002E-12, -2.0806E-07, 2.0798E-07, 1.7750000000000002E-12, 2.0806E-07
DataValue, 0.18000000000000002, 0.5, 2.1184E-07, 1.535E-12, -2.1147999999999999E-07, 2.1184E-07, 1.535E-12, 2.1147999999999999E-07
DataValue, 0.19, 0.5, 2.1446E-07, 1.335E-12, -2.1458E-07, 2.1446E-07, 1.335E-12, 2.1458E-07
DataValue, 0.2, 0.5, 2.1761999999999999E-07, 1.4550000000000002E-12, -2.1746E-07, 2.1761999999999999E-07, 1.4550000000000002E-12, 2.1746E-07
DataValue, 0.21000000000000002, 0.5, 2.203E-07, 1.5950000000000002E-12, -2.2044E-07, 2.203E-07, 1.5950000000000002E-12, 2.2044E-07
DataValue, 0.22, 0.5, 2.2265999999999998E-07, 1.8650000000000002E-12, -2.2314E-07, 2.2265999999999998E-07, 1.8650000000000002E-12, 2.2314E-07
DataValue, 0.23, 0.5, 2.2458E-07, 1.7750000000000002E-12, -2.2526E-07, 2.2458E-07, 1.7750000000000002E-12, 2.2526E-07
DataValue, 0.24000000000000002, 0.5, 2.2655999999999999E-07, 1.4550000000000002E-12, -2.2627999999999999E-07, 2.2655999999999999E-07, 1.4550000000000002E-12, 2.2627999999999999E-07
DataValue, 0.25, 0.5, 2.2851999999999998E-07, 1.6550000000000001E-12, -2.2786E-07, 2.2851999999999998E-07, 1.6550000000000001E-12, 2.2786E-07
DataValue, 0.26, 0.5, 2.2949999999999998E-07, 1.855E-12, -2.2958E-07, 2.2949999999999998E-07, 1.855E-12, 2.2958E-07
DataValue, 0.27, 0.5, 2.3096E-07, 1.4550000000000002E-12, -2.3033999999999998E-07, 2.3096E-07, 1.4550000000000002E-12, 2.3033999999999998E-07
DataValue, 0.28, 0.5, 2.3134E-07, 1.6350000000000002E-12, -2.3102E-07, 2.3134E-07, 1.6350000000000002E-12, 2.3102E-07
DataValue, 0.29000000000000004, 0.5, 2.3126E-07, 1.5150000000000001E-12, -2.3126E-07, 2.3126E-07, 1.5150000000000001E-12, 2.3126E-07
DataValue, 0.3, 0.5, 2.3164E-07, 1.755E-12, -2.3145999999999998E-07, 2.3164E-07, 1.755E-12, 2.3145999999999998E-07
DataValue, 0.31, 0.5, 2.3213999999999999E-07, 1.4550000000000002E-12, -2.3131999999999998E-07, 2.3213999999999999E-07, 1.4550000000000002E-12, 2.3131999999999998E-07
DataValue, 0.32, 0.5, 2.3126E-07, 1.625E-12, -2.3185999999999999E-07, 2.3126E-07, 1.625E-12, 2.3185999999999999E-07
DataValue, 0.33, 0.5, 2.3136E-07, 1.7350000000000002E-12, -2.321E-07, 2.3136E-07, 1.7350000000000002E-12, 2.321E-07
DataValue, 0.34, 0.5, 2.3226E-07, 1.4050000000000002E-12, -2.321E-07, 2.3226E-07, 1.4050000000000002E-12, 2.321E-07
DataValue, 0.35000000000000003, 0.5, 2.3268E-07, 1.8950000000000003E-12, -2.3342E-07, 2.3268E-07, 1.8950000000000003E-12, 2.3342E-07
DataValue, 0.36000000000000004, 0.5, 2.3367999999999999E-07, 1.245E-12, -2.3302E-07, 2.3367999999999999E-07, 1.245E-12, 2.3302E-07
DataValue, 0.37, 0.5, 2.3364E-07, 1.575E-12, -2.3398E-07, 2.3364E-07, 1.575E-12, 2.3398E-07
DataValue, 0.38, 0.5, 2.337E-07, 1.7750000000000002E-12, -2.3381999999999999E-07, 2.337E-07, 1.7750000000000002E-12, 2.3381999999999999E-07
DataValue, 0.39, 0.5, 2.3406E-07, 1.4050000000000002E-12, -2.335E-07, 2.3406E-07, 1.4050000000000002E-12, 2.335E-07
DataValue, 0.4, 0.5, 2.3402E-07, 1.835E-12, -2.3346E-07, 2.3402E-07, 1.835E-12, 2.3346E-07
DataValue, 0.41000000000000003, 0.5, 2.3353999999999999E-07, 1.825E-12, -2.3328E-07, 2.3353999999999999E-07, 1.825E-12, 2.3328E-07
DataValue, 0.42000000000000004, 0.5, 2.336E-07, 1.2750000000000001E-12, -2.3406E-07, 2.336E-07, 1.2750000000000001E-12, 2.3406E-07
DataValue, 0.43, 0.5, 2.3428E-07, 1.6850000000000002E-12, -2.3418E-07, 2.3428E-07, 1.6850000000000002E-12, 2.3418E-07
DataValue, 0.44, 0.5, 2.3432E-07, 1.6950000000000002E-12, -2.3456E-07, 2.3432E-07, 1.6950000000000002E-12, 2.3456E-07
DataValue, 0.45, 0.5, 2.3388E-07, 1.665E-12, -2.3416E-07, 2.3388E-07, 1.665E-12, 2.3416E-07
DataValue, 0.46, 0.5, 2.346E-07, 1.6350000000000002E-12, -2.3488E-07, 2.346E-07, 1.6350000000000002E-12, 2.3488E-07
DataValue, 0.47000000000000003, 0.5, 2.349E-07, 1.535E-12, -2.3476E-07, 2.349E-07, 1.535E-12, 2.3476E-07
DataValue, 0.48000000000000004, 0.5, 2.3538E-07, 1.615E-12, -2.3434E-07, 2.3538E-07, 1.615E-12, 2.3434E-07
DataValue, 0.49000000000000005, 0.5, 2.3493999999999999E-07, 1.565E-12, -2.347E-07, 2.3493999999999999E-07, 1.565E-12, 2.347E-07
DataValue, 0.5, 0.5, 2.3442E-07, 1.7950000000000001E-12, -2.3432E-07, 2.3442E-07, 1.7950000000000001E-12, 2.3432E-07
DataValue, 0.51, 0.5, 2.3412E-07, 1.295E-12, -2.3465999999999999E-07, 2.3412E-07, 1.295E-12, 2.3465999999999999E-07
DataValue, 0.52, 0.5, 2.3479999999999999E-07, 1.485E-12, -2.3476E-07, 2.3479999999999999E-07, 1.485E-12, 2.3476E-07
DataValue, 0.53, 0.5, 2.344E-07, 1.6050000000000001E-12, -2.3482E-07, 2.344E-07, 1.6050000000000001E-12, 2.3482E-07
DataValue, 0.54, 0.5, 2.3493999999999999E-07, 1.5050000000000002E-12, -2.3588E-07, 2.3493999999999999E-07, 1.5050000000000002E-12, 2.3588E-07
DataValue, 0.55, 0.5, 2.3556E-07, 1.7050000000000001E-12, -2.3566E-07, 2.3556E-07, 1.7050000000000001E-12, 2.3566E-07
DataValue, 0.56, 0.5, 2.3524E-07, 1.535E-12, -2.3482E-07, 2.3524E-07, 1.535E-12, 2.3482E-07
DataValue, 0.57000000000000006, 0.5, 2.3506E-07, 1.6550000000000001E-12, -2.3484E-07, 2.3506E-07, 1.6550000000000001E-12, 2.3484E-07
DataValue, 0.58000000000000007, 0.5, 2.36E-07, 2.005E-12, -2.3524E-07, 2.36E-07, 2.005E-12, 2.3524E-07
DataValue, 0.59000000000000008, 0.5, 2.3493999999999999E-07, 1.5050000000000002E-12, -2.3507999999999999E-07, 2.3493999999999999E-07, 1.5050000000000002E-12, 2.3507999999999999E-07
DataValue, 0.6, 0.5, 2.3514E-07, 1.535E-12, -2.347E-07, 2.3514E-07, 1.535E-12, 2.347E-07
DataValue, 0.61, 0.5, 2.3493999999999999E-07, 1.2750000000000001E-12, -2.3446E-07, 2.3493999999999999E-07, 1.2750000000000001E-12, 2.3446E-07
DataValue, 0.62, 0.5, 2.3434E-07, 1.6950000000000002E-12, -2.3416E-07, 2.3434E-07, 1.6950000000000002E-12, 2.3416E-07
DataValue, 0.63, 0.5, 2.3465999999999999E-07, 1.6850000000000002E-12, -2.3514E-07, 2.3465999999999999E-07, 1.6850000000000002E-12, 2.3514E-07
DataValue, 0.64, 0.5, 2.3526E-07, 1.7950000000000001E-12, -2.3549999999999999E-07, 2.3526E-07, 1.7950000000000001E-12, 2.3549999999999999E-07
DataValue, 0.65, 0.5, 2.3478E-07, 1.7750000000000002E-12, -2.3442E-07, 2.3478E-07, 1.7750000000000002E-12, 2.3442E-07
DataValue, 0.66, 0.5, 2.3376E-07, 1.535E-12, -2.3404E-07, 2.3376E-07, 1.535E-12, 2.3404E-07
DataValue, 0.67, 0.5, 2.3432E-07, 1.955E-12, -2.3358E-07, 2.3432E-07, 1.955E-12, 2.3358E-07
DataValue, 0.68, 0.5, 2.3366E-07, 1.9450000000000003E-12, -2.3414E-07, 2.3366E-07, 1.9450000000000003E-12, 2.3414E-07
DataValue, 0.69000000000000006, 0.5, 2.3409999999999999E-07, 1.375E-12, -2.3346E-07, 2.3409999999999999E-07, 1.375E-12, 2.3346E-07
DataValue, 0.70000000000000007, 0.5, 2.3406E-07, 1.855E-12, -2.3296E-07, 2.3406E-07, 1.855E-12, 2.3296E-07
DataValue, 0.71000000000000008, 0.5, 2.3274E-07, 1.4150000000000001E-12, -2.3283999999999999E-07, 2.3274E-07, 1.4150000000000001E-12, 2.3283999999999999E-07
DataValue, 0.72000000000000008, 0.5, 2.3414E-07, 1.525E-12, -2.337E-07, 2.3414E-07, 1.525E-12, 2.337E-07
DataValue, 0.73, 0.5, 2.3432E-07, 1.875E-12, -2.3493999999999999E-07, 2.3432E-07, 1.875E-12, 2.3493999999999999E-07
DataValue, 0.74, 0.5, 2.3414E-07, 1.575E-12, -2.3428E-07, 2.3414E-07, 1.575E-12, 2.3428E-07
DataValue, 0.75, 0.5, 2.3451999999999999E-07, 1.9150000000000002E-12, -2.3372E-07, 2.3451999999999999E-07, 1.9150000000000002E-12, 2.3372E-07
DataValue, 0.76, 0.5, 2.3388E-07, 1.6550000000000001E-12, -2.3451999999999999E-07, 2.3388E-07, 1.6550000000000001E-12, 2.3451999999999999E-07
DataValue, 0.77, 0.5, 2.3358E-07, 1.6550000000000001E-12, -2.3322E-07, 2.3358E-07, 1.6550000000000001E-12, 2.3322E-07
DataValue, 0.78, 0.5, 2.3328E-07, 1.385E-12, -2.3334E-07, 2.3328E-07, 1.385E-12, 2.3334E-07
DataValue, 0.79, 0.5, 2.3334E-07, 1.675E-12, -2.335E-07, 2.3334E-07, 1.675E-12, 2.335E-07
DataValue, 0.8, 0.5, 2.3376E-07, 1.615E-12, -2.3338E-07, 2.3376E-07, 1.615E-12, 2.3338E-07
DataValue, 0.81, 0.5, 2.3328E-07, 1.285E-12, -2.3408E-07, 2.3328E-07, 1.285E-12, 2.3408E-07
DataValue, 0.82000000000000006, 0.5, 2.3414E-07, 1.4050000000000002E-12, -2.339E-07, 2.3414E-07, 1.4050000000000002E-12, 2.339E-07
DataValue, 0.83000000000000007, 0.5, 2.3398E-07, 1.5450000000000002E-12, -2.3376E-07, 2.3398E-07, 1.5450000000000002E-12, 2.3376E-07
DataValue, 0.84000000000000008, 0.5, 2.3386E-07, 1.565E-12, -2.3416E-07, 2.3386E-07, 1.565E-12, 2.3416E-07
DataValue, 0.85000000000000009, 0.5, 2.3476E-07, 1.7950000000000001E-12, -2.3408E-07, 2.3476E-07, 1.7950000000000001E-12, 2.3408E-07
DataValue, 0.86, 0.5, 2.3348E-07, 1.565E-12, -2.3297999999999999E-07, 2.3348E-07, 1.565E-12, 2.3297999999999999E-07
DataValue, 0.87, 0.5, 2.3408E-07, 1.3550000000000002E-12, -2.3384E-07, 2.3408E-07, 1.3550000000000002E-12, 2.3384E-07
DataValue, 0.88, 0.5, 2.3328E-07, 1.3150000000000002E-12, -2.3344E-07, 2.3328E-07, 1.3150000000000002E-12, 2.3344E-07
DataValue, 0.89, 0.5, 2.3456E-07, 1.715E-12, -2.3412E-07, 2.3456E-07, 1.715E-12, 2.3412E-07
DataValue, 0.9, 0.5, 2.3302E-07, 1.4550000000000002E-12, -2.3332E-07, 2.3302E-07, 1.4550000000000002E-12, 2.3332E-07
DataValue, 0.91, 0.5, 2.3314E-07, 1.9150000000000002E-12, -2.3346E-07, 2.3314E-07, 1.9150000000000002E-12, 2.3346E-07
DataValue, 0.92, 0.5, 2.3334E-07, 1.6450000000000002E-12, -2.3358E-07, 2.3334E-07, 1.6450000000000002E-12, 2.3358E-07
DataValue, 0.93, 0.5, 2.3328E-07, 1.3050000000000002E-12, -2.3325999999999999E-07, 2.3328E-07, 1.3050000000000002E-12, 2.3325999999999999E-07
DataValue, 0.94000000000000006, 0.5, 2.3402E-07, 1.755E-12, -2.3456E-07, 2.3402E-07, 1.755E-12, 2.3456E-07
DataValue, 0.95000000000000007, 0.5, 2.3394E-07, 1.7950000000000001E-12, -2.3353999999999999E-07, 2.3394E-07, 1.7950000000000001E-12, 2.3353999999999999E-07
DataValue, 0.96000000000000008, 0.5, 2.3328E-07, 1.385E-12, -2.3314E-07, 2.3328E-07, 1.385E-12, 2.3314E-07
DataValue, 0.97000000000000008, 0.5, 2.3227999999999999E-07, 1.475E-12, -2.3229999999999998E-07, 2.3227999999999999E-07, 1.475E-12, 2.3229999999999998E-07
DataValue, 0.98000000000000009, 0.5, 2.332E-07, 1.5150000000000001E-12, -2.3269999999999999E-07, 2.332E-07, 1.5150000000000001E-12, 2.3269999999999999E-07
DataValue, 0.9900000000000001, 0.5, 2.3296E-07, 1.0850000000000001E-12, -2.3282E-07, 2.3296E-07, 1.0850000000000001E-12, 2.3282E-07
DataValue, 1, 0.5, 2.3342E-07, 1.6550000000000001E-12, -2.333E-07, 2.3342E-07, 1.6550000000000001E-12, 2.333E-07
DataValue, 1, 0.5, 2.3366E-07, 1.2750000000000001E-12, -2.3325999999999999E-07, 2.3366E-07, 1.2750000000000001E-12, 2.3325999999999999E-07
DataValue, 0.9900000000000001, 0.5, 2.3322E-07, 1.835E-12, -2.3241999999999999E-07, 2.3322E-07, 1.835E-12, 2.3241999999999999E-07
DataValue, 0.98000000000000009, 0.5, 2.3254E-07, 1.575E-12, -2.331E-07, 2.3254E-07, 1.575E-12, 2.331E-07
DataValue, 0.97000000000000008, 0.5, 2.3338E-07, 1.7750000000000002E-12, -2.3358E-07, 2.3338E-07, 1.7750000000000002E-12, 2.3358E-07
DataValue, 0.96000000000000008, 0.5, 2.3328E-07, 2.065E-12, -2.337E-07, 2.3328E-07, 2.065E-12, 2.337E-07
