
SetupTitle, IdVd_Vg_par
PrimitiveTest, I/V Sweep
TestParameter, Context.MainFrame, B1500A
TestParameter, Channel.UnitType, SMU, SMU, SMU
TestParameter, Channel.Unit, SMU3:HR, SMU2:HR, SMU1:HR
TestParameter, Channel.IName, Id, Ig, Is
TestParameter, Channel.VName, Vd, Vg, Vs
TestParameter, Channel.Mode, V, V, V
TestParameter, Channel.Func, VAR1, VAR2, CONST
TestParameter, Channel.Index, 
TestParameter, Channel.Time, 
TestParameter, Measurement.Port.Unit, SMU3:HR, SMU2:HR, SMU1:HR
TestParameter, Measurement.Port.SeriesResistor, NONE, NONE, NONE
TestParameter, Measurement.Port.Filter, ON, ON, ON
TestParameter, Measurement.Port.OutputVoltageComparison, 0, 0, 0
TestParameter, Measurement.Primary.Locus, Double
TestParameter, Measurement.Primary.Scale, LINEAR
TestParameter, Measurement.Primary.Start, 0
TestParameter, Measurement.Primary.Stop, 1
TestParameter, Measurement.Primary.Step, 0.01
TestParameter, Measurement.Primary.Compliance, 0.01
TestParameter, Measurement.Primary.PowerCompliance, 0
TestParameter, Measurement.Aborting.Condition, CONTINUE AT ANY
TestParameter, Measurement.PostOutput.Value, START
TestParameter, Measurement.PostOutput.Retention, OFF
TestParameter, Measurement.Secondary.Start, 0.5
TestParameter, Measurement.Secondary.Count, 7
TestParameter, Measurement.Secondary.Step, 0.25
TestParameter, Measurement.Secondary.Compliance, 0.01
TestParameter, Measurement.Secondary.PowerCompliance, 0
TestParameter, Measurement.Bias.Source, 0, 0.5, 0
TestParameter, Measurement.Bias.Compliance, 0.01, 0.01, 0.01
TestParameter, Measurement.Monitor.Unit, SMU3:HR, SMU2:HR, SMU1:HR
TestParameter, Measurement.Monitor.Adc, HR ADC, HR ADC, HR ADC
TestParameter, Measurement.Monitor.Measurement, Compliance Side, Compliance Side, Compliance Side
TestParameter, Measurement.Monitor.RangingMode, LIMITED, LIMITED, LIMITED
TestParameter, Measurement.Monitor.RangeBoundary, 1nA, 1nA, 1nA
TestParameter, Measurement.Monitor.RangeRating, BY FULL RANGE, BY FULL RANGE, BY FULL RANGE
TestParameter, Measurement.Monitor.RangeRatingCoeff, 50, 50, 50
TestParameter, Measurement.Timing.Hold, 0
TestParameter, Measurement.Timing.Delay, 0
TestParameter, Measurement.Adc.HighSpeed.Mode, AUTO
TestParameter, Measurement.Adc.HighSpeed.Coeff, 1
TestParameter, Measurement.Adc.HighResolution.AutoZero, OFF
TestParameter, Measurement.Adc.HighResolution.Mode, AUTO
TestParameter, Measurement.Adc.HighResolution.Coeff, 6
TestParameter, Measurement.WaitTime.Source.Coeff, 1
TestParameter, Measurement.WaitTime.Source.Offset, 0
TestParameter, Measurement.WaitTime.Monitor.Coeff, 1
TestParameter, Measurement.WaitTime.Monitor.Offset, 0
TestParameter, Function.User.Name, absId, absIg, absIs
TestParameter, Function.User.Unit, A, A, A
TestParameter, Function.User.Definition, abs(Id), abs(Ig), abs(Is)
TestParameter, Output.Graph.Enabled, true
TestParameter, Output.Graph.AutoScaling, false
TestParameter, Output.Graph.XAxis.Data, Vd
TestParameter, Output.Graph.XAxis.Scale, Linear
TestParameter, Output.Graph.XAxis.Left, 0
TestParameter, Output.Graph.XAxis.Right, 2
TestParameter, Output.Graph.XAxis.RunTimeAutoScale, false
TestParameter, Output.Graph.YAxis.Data, absId, absIs
TestParameter, Output.Graph.YAxis.Scale, Linear, Linear
TestParameter, Output.Graph.YAxis.Bottom, 1E-15, 1E-15
TestParameter, Output.Graph.YAxis.Top, 0.001, 0.001
TestParameter, Output.Graph.YAxis.Group, , 
TestParameter, Output.Graph.YAxis.RunTimeAutoScale, true, true
TestParameter, Output.List.Data, Vg, Vd, Id, Is, Ig, absId, absIs, absIg
TestParameter, AutoAnalysis.Interpolation, false
TestParameter, AutoAnalysis.Var2StepCount, 1
TestParameter, AutoAnalysis.Var2StepScript, 
TestParameter, AutoAnalysis.Line1.Enabled, false
TestParameter, AutoAnalysis.Line1.Type, 1
TestParameter, AutoAnalysis.Line1.Fix, True
TestParameter, AutoAnalysis.Line1.YAxis, 0
TestParameter, AutoAnalysis.Line1.Point1.Type, 0
TestParameter, AutoAnalysis.Line1.Point1.XY.X, 
TestParameter, AutoAnalysis.Line1.Point1.XY.Y, 
TestParameter, AutoAnalysis.Line1.Point1.Data.Var, 
TestParameter, AutoAnalysis.Line1.Point1.Data.Condition, 
TestParameter, AutoAnalysis.Line1.Point1.Data.Start, false
TestParameter, AutoAnalysis.Line1.Point1.Data.StartVar, 
TestParameter, AutoAnalysis.Line1.Point1.Data.StartCondition, 
TestParameter, AutoAnalysis.Line1.Point2.Type, 0
TestParameter, AutoAnalysis.Line1.Point2.XY.X, 
TestParameter, AutoAnalysis.Line1.Point2.XY.Y, 
TestParameter, AutoAnalysis.Line1.Point2.Data.Var, 
TestParameter, AutoAnalysis.Line1.Point2.Data.Condition, 
TestParameter, AutoAnalysis.Line1.Point2.Data.Start, false
TestParameter, AutoAnalysis.Line1.Point2.Data.StartVar, 
TestParameter, AutoAnalysis.Line1.Point2.Data.StartCondition, 
TestParameter, AutoAnalysis.Line1.GradientExpr, 0
TestParameter, AutoAnalysis.Line2.Enabled, false
TestParameter, AutoAnalysis.Line2.Type, 1
TestParameter, AutoAnalysis.Line2.Fix, True
TestParameter, AutoAnalysis.Line2.YAxis, 0
TestParameter, AutoAnalysis.Line2.Point1.Type, 0
TestParameter, AutoAnalysis.Line2.Point1.XY.X, 
TestParameter, AutoAnalysis.Line2.Point1.XY.Y, 
TestParameter, AutoAnalysis.Line2.Point1.Data.Var, 
TestParameter, AutoAnalysis.Line2.Point1.Data.Condition, 
TestParameter, AutoAnalysis.Line2.Point1.Data.Start, false
TestParameter, AutoAnalysis.Line2.Point1.Data.StartVar, 
TestParameter, AutoAnalysis.Line2.Point1.Data.StartCondition, 
TestParameter, AutoAnalysis.Line2.Point2.Type, 0
TestParameter, AutoAnalysis.Line2.Point2.XY.X, 
TestParameter, AutoAnalysis.Line2.Point2.XY.Y, 
TestParameter, AutoAnalysis.Line2.Point2.Data.Var, 
TestParameter, AutoAnalysis.Line2.Point2.Data.Condition, 
TestParameter, AutoAnalysis.Line2.Point2.Data.Start, false
TestParameter, AutoAnalysis.Line2.Point2.Data.StartVar, 
TestParameter, AutoAnalysis.Line2.Point2.Data.StartCondition, 
TestParameter, AutoAnalysis.Line2.GradientExpr, 0
TestParameter, AutoAnalysis.Marker.Enabled, false
TestParameter, AutoAnalysis.Marker.Data.Var, 
TestParameter, AutoAnalysis.Marker.Data.Condition, 
TestParameter, AutoAnalysis.Marker.Data.Start, false
TestParameter, AutoAnalysis.Marker.Data.StartVar, 
TestParameter, AutoAnalysis.Marker.Data.StartCondition, 
MetaData, TestRecord.EntryPoint, true
MetaData, TestRecord.RecordTime, 06/03/2025 15:34:05
MetaData, TestRecord.TestTarget, R[4]_D[6]_L[70]
MetaData, TestRecord.IterationIndex, 1
MetaData, TestRecord.Preservation, true
MetaData, TestRecord.Flag, !
MetaData, TestRecord.Remarks, 
MetaData, TestRecord.LinkKey, 63361735-438b-4811-ad34-f26f3f5dffb8
MetaData, TestRecord.Parameters, 
Dimension1, 202, 202, 202, 202, 202, 202, 202, 202
Dimension2, 7, 7, 7, 7, 7, 7, 7, 7
DataName, Vd, Vg, Id, Ig, Is, absId, absIg, absIs
DataValue, 0, 0.5, 1.20777E-09, 8.25E-13, -8.35956E-10, 1.20777E-09, 8.25E-13, 8.35956E-10
DataValue, 0.01, 0.5, 4.9613999999999994E-07, 8.7500000000000011E-13, -4.9389999999999994E-07, 4.9613999999999994E-07, 8.7500000000000011E-13, 4.9389999999999994E-07
DataValue, 0.02, 0.5, 9.6746E-07, 1.055E-12, -9.6938E-07, 9.6746E-07, 1.055E-12, 9.6938E-07
DataValue, 0.030000000000000002, 0.5, 1.4225000000000001E-06, 9.65E-13, -1.4230000000000002E-06, 1.4225000000000001E-06, 9.65E-13, 1.4230000000000002E-06
DataValue, 0.04, 0.5, 1.8652000000000002E-06, 7.55E-13, -1.8610000000000003E-06, 1.8652000000000002E-06, 7.55E-13, 1.8610000000000003E-06
DataValue, 0.05, 0.5, 2.2909000000000004E-06, 1.4550000000000002E-12, -2.2899000000000003E-06, 2.2909000000000004E-06, 1.4550000000000002E-12, 2.2899000000000003E-06
DataValue, 0.060000000000000005, 0.5, 2.6875E-06, 1.245E-12, -2.7098000000000003E-06, 2.6875E-06, 1.245E-12, 2.7098000000000003E-06
DataValue, 0.07, 0.5, 3.0745000000000004E-06, 1.3650000000000001E-12, -3.0921000000000004E-06, 3.0745000000000004E-06, 1.3650000000000001E-12, 3.0921000000000004E-06
DataValue, 0.08, 0.5, 3.4811000000000004E-06, 1.395E-12, -3.4667E-06, 3.4811000000000004E-06, 1.395E-12, 3.4667E-06
DataValue, 0.090000000000000011, 0.5, 3.8272E-06, 9.8500000000000014E-13, -3.8163E-06, 3.8272E-06, 9.8500000000000014E-13, 3.8163E-06
DataValue, 0.1, 0.5, 4.1717E-06, 1.2250000000000001E-12, -4.1518000000000006E-06, 4.1717E-06, 1.2250000000000001E-12, 4.1518000000000006E-06
DataValue, 0.11, 0.5, 4.4735000000000005E-06, 1.0350000000000001E-12, -4.4795E-06, 4.4735000000000005E-06, 1.0350000000000001E-12, 4.4795E-06
DataValue, 0.12000000000000001, 0.5, 4.7974000000000009E-06, 1.155E-12, -4.8107E-06, 4.7974000000000009E-06, 1.155E-12, 4.8107E-06
DataValue, 0.13, 0.5, 5.1360000000000005E-06, 9.65E-13, -5.1539000000000007E-06, 5.1360000000000005E-06, 9.65E-13, 5.1539000000000007E-06
DataValue, 0.14, 0.5, 5.4433000000000009E-06, 1.255E-12, -5.4502000000000008E-06, 5.4433000000000009E-06, 1.255E-12, 5.4502000000000008E-06
DataValue, 0.15, 0.5, 5.723800000000001E-06, 1.0750000000000002E-12, -5.7009000000000008E-06, 5.723800000000001E-06, 1.0750000000000002E-12, 5.7009000000000008E-06
DataValue, 0.16, 0.5, 6.0043E-06, 9.0500000000000008E-13, -6.0104000000000009E-06, 6.0043E-06, 9.0500000000000008E-13, 6.0104000000000009E-06
DataValue, 0.17, 0.5, 6.2537000000000008E-06, 1.055E-12, -6.2864000000000005E-06, 6.2537000000000008E-06, 1.055E-12, 6.2864000000000005E-06
DataValue, 0.18000000000000002, 0.5, 6.541200000000001E-06, 1.155E-12, -6.5944000000000008E-06, 6.541200000000001E-06, 1.155E-12, 6.5944000000000008E-06
DataValue, 0.19, 0.5, 6.8746000000000011E-06, 9.25E-13, -6.7963000000000005E-06, 6.8746000000000011E-06, 9.25E-13, 6.7963000000000005E-06
DataValue, 0.2, 0.5, 7.0683000000000006E-06, 8.7500000000000011E-13, -7.0861000000000006E-06, 7.0683000000000006E-06, 8.7500000000000011E-13, 7.0861000000000006E-06
DataValue, 0.21000000000000002, 0.5, 7.2919000000000004E-06, 9.55E-13, -7.2981000000000005E-06, 7.2919000000000004E-06, 9.55E-13, 7.2981000000000005E-06
DataValue, 0.22, 0.5, 7.5067000000000005E-06, 9.8500000000000014E-13, -7.4833000000000008E-06, 7.5067000000000005E-06, 9.8500000000000014E-13, 7.4833000000000008E-06
DataValue, 0.23, 0.5, 7.7068E-06, 8.8500000000000007E-13, -7.693900000000001E-06, 7.7068E-06, 8.8500000000000007E-13, 7.693900000000001E-06
DataValue, 0.24000000000000002, 0.5, 7.8941000000000012E-06, 1.3150000000000002E-12, -7.9082000000000016E-06, 7.8941000000000012E-06, 1.3150000000000002E-12, 7.9082000000000016E-06
DataValue, 0.25, 0.5, 8.1119000000000011E-06, 1.065E-12, -8.1437000000000013E-06, 8.1119000000000011E-06, 1.065E-12, 8.1437000000000013E-06
DataValue, 0.26, 0.5, 8.2768E-06, 1.115E-12, -8.2652E-06, 8.2768E-06, 1.115E-12, 8.2652E-06
DataValue, 0.27, 0.5, 8.5211E-06, 7.95E-13, -8.4985E-06, 8.5211E-06, 7.95E-13, 8.4985E-06
DataValue, 0.28, 0.5, 8.6597000000000011E-06, 1.195E-12, -8.7249E-06, 8.6597000000000011E-06, 1.195E-12, 8.7249E-06
DataValue, 0.29000000000000004, 0.5, 8.875E-06, 1.065E-12, -8.9022000000000009E-06, 8.875E-06, 1.065E-12, 8.9022000000000009E-06
DataValue, 0.3, 0.5, 9.0188E-06, 9.55E-13, -8.9858000000000013E-06, 9.0188E-06, 9.55E-13, 8.9858000000000013E-06
DataValue, 0.31, 0.5, 9.1733E-06, 1.185E-12, -9.1265000000000015E-06, 9.1733E-06, 1.185E-12, 9.1265000000000015E-06
DataValue, 0.32, 0.5, 9.3107E-06, 1.105E-12, -9.2944E-06, 9.3107E-06, 1.105E-12, 9.2944E-06
DataValue, 0.33, 0.5, 9.4631000000000009E-06, 9.75E-13, -9.4683E-06, 9.4631000000000009E-06, 9.75E-13, 9.4683E-06
DataValue, 0.34, 0.5, 9.5582000000000011E-06, 1.4450000000000002E-12, -9.6461E-06, 9.5582000000000011E-06, 1.4450000000000002E-12, 9.6461E-06
DataValue, 0.35000000000000003, 0.5, 9.856E-06, 8.1500000000000006E-13, -9.8735000000000013E-06, 9.856E-06, 8.1500000000000006E-13, 9.8735000000000013E-06
DataValue, 0.36000000000000004, 0.5, 9.9585000000000013E-06, 1.185E-12, -9.9023000000000017E-06, 9.9585000000000013E-06, 1.185E-12, 9.9023000000000017E-06
DataValue, 0.37, 0.5, 1.0103100000000002E-05, 1.045E-12, -1.0100100000000002E-05, 1.0103100000000002E-05, 1.045E-12, 1.0100100000000002E-05
DataValue, 0.38, 0.5, 1.02711E-05, 1.3150000000000002E-12, -1.03152E-05, 1.02711E-05, 1.3150000000000002E-12, 1.03152E-05
DataValue, 0.39, 0.5, 1.0424E-05, 8.65E-13, -1.03907E-05, 1.0424E-05, 8.65E-13, 1.03907E-05
DataValue, 0.4, 0.5, 1.0470100000000002E-05, 1.065E-12, -1.05207E-05, 1.0470100000000002E-05, 1.065E-12, 1.05207E-05
DataValue, 0.41000000000000003, 0.5, 1.0593700000000002E-05, 1.145E-12, -1.0639000000000001E-05, 1.0593700000000002E-05, 1.145E-12, 1.0639000000000001E-05
DataValue, 0.42000000000000004, 0.5, 1.0707800000000001E-05, 9.55E-13, -1.0814500000000001E-05, 1.0707800000000001E-05, 9.55E-13, 1.0814500000000001E-05
DataValue, 0.43, 0.5, 1.09208E-05, 1.115E-12, -1.09015E-05, 1.09208E-05, 1.115E-12, 1.09015E-05
DataValue, 0.44, 0.5, 1.0953600000000001E-05, 1.095E-12, -1.1038700000000002E-05, 1.0953600000000001E-05, 1.095E-12, 1.1038700000000002E-05
DataValue, 0.45, 0.5, 1.1047100000000001E-05, 1.435E-12, -1.1078600000000001E-05, 1.1047100000000001E-05, 1.435E-12, 1.1078600000000001E-05
DataValue, 0.46, 0.5, 1.11635E-05, 1.195E-12, -1.1207000000000001E-05, 1.11635E-05, 1.195E-12, 1.1207000000000001E-05
DataValue, 0.47000000000000003, 0.5, 1.1436400000000001E-05, 1.0350000000000001E-12, -1.1389300000000001E-05, 1.1436400000000001E-05, 1.0350000000000001E-12, 1.1389300000000001E-05
DataValue, 0.48000000000000004, 0.5, 1.153E-05, 1.4950000000000002E-12, -1.1519800000000001E-05, 1.153E-05, 1.4950000000000002E-12, 1.1519800000000001E-05
DataValue, 0.49000000000000005, 0.5, 1.1574E-05, 1.235E-12, -1.1514500000000001E-05, 1.1574E-05, 1.235E-12, 1.1514500000000001E-05
DataValue, 0.5, 0.5, 1.163E-05, 1.105E-12, -1.1692000000000001E-05, 1.163E-05, 1.105E-12, 1.1692000000000001E-05
DataValue, 0.51, 0.5, 1.1812E-05, 1.2750000000000001E-12, -1.1716000000000001E-05, 1.1812E-05, 1.2750000000000001E-12, 1.1716000000000001E-05
DataValue, 0.52, 0.5, 1.1866000000000001E-05, 9.950000000000001E-13, -1.1866000000000001E-05, 1.1866000000000001E-05, 9.950000000000001E-13, 1.1866000000000001E-05
DataValue, 0.53, 0.5, 1.2018E-05, 1.0750000000000002E-12, -1.2012000000000001E-05, 1.2018E-05, 1.0750000000000002E-12, 1.2012000000000001E-05
DataValue, 0.54, 0.5, 1.2014E-05, 1.1250000000000002E-12, -1.2124000000000001E-05, 1.2014E-05, 1.1250000000000002E-12, 1.2124000000000001E-05
DataValue, 0.55, 0.5, 1.2186E-05, 1.295E-12, -1.2222000000000001E-05, 1.2186E-05, 1.295E-12, 1.2222000000000001E-05
DataValue, 0.56, 0.5, 1.2254E-05, 1.2250000000000001E-12, -1.2322E-05, 1.2254E-05, 1.2250000000000001E-12, 1.2322E-05
DataValue, 0.57000000000000006, 0.5, 1.2334E-05, 1.2250000000000001E-12, -1.2264E-05, 1.2334E-05, 1.2250000000000001E-12, 1.2264E-05
DataValue, 0.58000000000000007, 0.5, 1.2422E-05, 1.1250000000000002E-12, -1.2408E-05, 1.2422E-05, 1.1250000000000002E-12, 1.2408E-05
DataValue, 0.59000000000000008, 0.5, 1.2532E-05, 1.045E-12, -1.2498000000000001E-05, 1.2532E-05, 1.045E-12, 1.2498000000000001E-05
DataValue, 0.6, 0.5, 1.2626E-05, 1.3050000000000002E-12, -1.2648E-05, 1.2626E-05, 1.3050000000000002E-12, 1.2648E-05
DataValue, 0.61, 0.5, 1.2626E-05, 1.3650000000000001E-12, -1.2706E-05, 1.2626E-05, 1.3650000000000001E-12, 1.2706E-05
DataValue, 0.62, 0.5, 1.2822E-05, 1.0750000000000002E-12, -1.2844000000000001E-05, 1.2822E-05, 1.0750000000000002E-12, 1.2844000000000001E-05
DataValue, 0.63, 0.5, 1.2820000000000001E-05, 1.2250000000000001E-12, -1.2728E-05, 1.2820000000000001E-05, 1.2250000000000001E-12, 1.2728E-05
DataValue, 0.64, 0.5, 1.2868000000000001E-05, 9.75E-13, -1.2872E-05, 1.2868000000000001E-05, 9.75E-13, 1.2872E-05
DataValue, 0.65, 0.5, 1.2896E-05, 1.0750000000000002E-12, -1.2960000000000001E-05, 1.2896E-05, 1.0750000000000002E-12, 1.2960000000000001E-05
DataValue, 0.66, 0.5, 1.3004000000000001E-05, 1.045E-12, -1.294E-05, 1.3004000000000001E-05, 1.045E-12, 1.294E-05
DataValue, 0.67, 0.5, 1.3132E-05, 8.7500000000000011E-13, -1.3086E-05, 1.3132E-05, 8.7500000000000011E-13, 1.3086E-05
DataValue, 0.68, 0.5, 1.3152E-05, 1.255E-12, -1.3228000000000001E-05, 1.3152E-05, 1.255E-12, 1.3228000000000001E-05
DataValue, 0.69000000000000006, 0.5, 1.325E-05, 7.6500000000000007E-13, -1.3188E-05, 1.325E-05, 7.6500000000000007E-13, 1.3188E-05
DataValue, 0.70000000000000007, 0.5, 1.3314E-05, 1.1350000000000001E-12, -1.3292E-05, 1.3314E-05, 1.1350000000000001E-12, 1.3292E-05
DataValue, 0.71000000000000008, 0.5, 1.3286000000000001E-05, 1.055E-12, -1.3320000000000001E-05, 1.3286000000000001E-05, 1.055E-12, 1.3320000000000001E-05
DataValue, 0.72000000000000008, 0.5, 1.3332E-05, 1.105E-12, -1.3432000000000001E-05, 1.3332E-05, 1.105E-12, 1.3432000000000001E-05
DataValue, 0.73, 0.5, 1.3552E-05, 1.1650000000000002E-12, -1.3438E-05, 1.3552E-05, 1.1650000000000002E-12, 1.3438E-05
DataValue, 0.74, 0.5, 1.3518E-05, 9.4500000000000011E-13, -1.364E-05, 1.3518E-05, 9.4500000000000011E-13, 1.364E-05
DataValue, 0.75, 0.5, 1.3638E-05, 8.7500000000000011E-13, -1.3594E-05, 1.3638E-05, 8.7500000000000011E-13, 1.3594E-05
DataValue, 0.76, 0.5, 1.3572E-05, 1.3550000000000002E-12, -1.3574E-05, 1.3572E-05, 1.3550000000000002E-12, 1.3574E-05
DataValue, 0.77, 0.5, 1.376E-05, 1.185E-12, -1.3766E-05, 1.376E-05, 1.185E-12, 1.3766E-05
DataValue, 0.78, 0.5, 1.3818E-05, 1.3550000000000002E-12, -1.3886E-05, 1.3818E-05, 1.3550000000000002E-12, 1.3886E-05
DataValue, 0.79, 0.5, 1.3938000000000001E-05, 1.0250000000000002E-12, -1.3898E-05, 1.3938000000000001E-05, 1.0250000000000002E-12, 1.3898E-05
DataValue, 0.8, 0.5, 1.3858E-05, 9.8500000000000014E-13, -1.3984E-05, 1.3858E-05, 9.8500000000000014E-13, 1.3984E-05
DataValue, 0.81, 0.5, 1.409E-05, 1.1350000000000001E-12, -1.4044E-05, 1.409E-05, 1.1350000000000001E-12, 1.4044E-05
DataValue, 0.82000000000000006, 0.5, 1.4148E-05, 1.105E-12, -1.4098000000000001E-05, 1.4148E-05, 1.105E-12, 1.4098000000000001E-05
DataValue, 0.83000000000000007, 0.5, 1.4194E-05, 1.2250000000000001E-12, -1.413E-05, 1.4194E-05, 1.2250000000000001E-12, 1.413E-05
DataValue, 0.84000000000000008, 0.5, 1.414E-05, 8.7500000000000011E-13, -1.4244000000000001E-05, 1.414E-05, 8.7500000000000011E-13, 1.4244000000000001E-05
DataValue, 0.85000000000000009, 0.5, 1.4198E-05, 1.185E-12, -1.4294E-05, 1.4198E-05, 1.185E-12, 1.4294E-05
DataValue, 0.86, 0.5, 1.4408E-05, 1.155E-12, -1.4392E-05, 1.4408E-05, 1.155E-12, 1.4392E-05
DataValue, 0.87, 0.5, 1.4518E-05, 7.95E-13, -1.4488000000000001E-05, 1.4518E-05, 7.95E-13, 1.4488000000000001E-05
DataValue, 0.88, 0.5, 1.4636E-05, 1.0350000000000001E-12, -1.4646E-05, 1.4636E-05, 1.0350000000000001E-12, 1.4646E-05
DataValue, 0.89, 0.5, 1.4712E-05, 7.4500000000000006E-13, -1.451E-05, 1.4712E-05, 7.4500000000000006E-13, 1.451E-05
DataValue, 0.9, 0.5, 1.4574E-05, 1.1750000000000001E-12, -1.4580000000000001E-05, 1.4574E-05, 1.1750000000000001E-12, 1.4580000000000001E-05
DataValue, 0.91, 0.5, 1.4592E-05, 8.5500000000000009E-13, -1.4668000000000001E-05, 1.4592E-05, 8.5500000000000009E-13, 1.4668000000000001E-05
DataValue, 0.92, 0.5, 1.4684E-05, 9.8500000000000014E-13, -1.4726000000000001E-05, 1.4684E-05, 9.8500000000000014E-13, 1.4726000000000001E-05
DataValue, 0.93, 0.5, 1.4734E-05, 1.3650000000000001E-12, -1.4732E-05, 1.4734E-05, 1.3650000000000001E-12, 1.4732E-05
DataValue, 0.94000000000000006, 0.5, 1.4852000000000001E-05, 1.095E-12, -1.4848E-05, 1.4852000000000001E-05, 1.095E-12, 1.4848E-05
DataValue, 0.95000000000000007, 0.5, 1.4906000000000001E-05, 8.5500000000000009E-13, -1.4916E-05, 1.4906000000000001E-05, 8.5500000000000009E-13, 1.4916E-05
DataValue, 0.96000000000000008, 0.5, 1.5080000000000001E-05, 1.0250000000000002E-12, -1.4986E-05, 1.5080000000000001E-05, 1.0250000000000002E-12, 1.4986E-05
DataValue, 0.97000000000000008, 0.5, 1.5174E-05, 7.95E-13, -1.5088E-05, 1.5174E-05, 7.95E-13, 1.5088E-05
DataValue, 0.98000000000000009, 0.5, 1.5122E-05, 1.1250000000000002E-12, -1.5144000000000001E-05, 1.5122E-05, 1.1250000000000002E-12, 1.5144000000000001E-05
