
SetupTitle, IdVg_Vd_par
PrimitiveTest, I/V Sweep
TestParameter, Context.MainFrame, B1500A
TestParameter, Channel.UnitType, SMU, SMU, SMU
TestParameter, Channel.Unit, SMU3:HR, SMU2:HR, SMU1:HR
TestParameter, Channel.IName, Id, Ig, Is
TestParameter, Channel.VName, Vd, Vg, Vs
TestParameter, Channel.Mode, V, V, V
TestParameter, Channel.Func, VAR2, VAR1, CONST
TestParameter, Channel.Index, 
TestParameter, Channel.Time, 
TestParameter, Measurement.Port.Unit, SMU3:HR, SMU2:HR, SMU1:HR
TestParameter, Measurement.Port.SeriesResistor, NONE, NONE, NONE
TestParameter, Measurement.Port.Filter, ON, ON, ON
TestParameter, Measurement.Port.OutputVoltageComparison, 0, 0, 0
TestParameter, Measurement.Primary.Locus, Double
TestParameter, Measurement.Primary.Scale, LINEAR
TestParameter, Measurement.Primary.Start, -1
TestParameter, Measurement.Primary.Stop, 2
TestParameter, Measurement.Primary.Step, 0.025
TestParameter, Measurement.Primary.Compliance, 0.1
TestParameter, Measurement.Primary.PowerCompliance, 0
TestParameter, Measurement.Aborting.Condition, STOP AT ANY ABNORMAL
TestParameter, Measurement.PostOutput.Value, START
TestParameter, Measurement.PostOutput.Retention, OFF
TestParameter, Measurement.Secondary.Start, 0.05
TestParameter, Measurement.Secondary.Count, 2
TestParameter, Measurement.Secondary.Step, 0.95000000000000007
TestParameter, Measurement.Secondary.Compliance, 0.1
TestParameter, Measurement.Secondary.PowerCompliance, 0
TestParameter, Measurement.Bias.Source, 0.05, -1, 0
TestParameter, Measurement.Bias.Compliance, 0.1, 0.1, 0.1
TestParameter, Measurement.Monitor.Unit, SMU3:HR, SMU2:HR, SMU1:HR
TestParameter, Measurement.Monitor.Adc, HR ADC, HR ADC, HR ADC
TestParameter, Measurement.Monitor.Measurement, Compliance Side, Compliance Side, Compliance Side
TestParameter, Measurement.Monitor.RangingMode, LIMITED, LIMITED, LIMITED
TestParameter, Measurement.Monitor.RangeBoundary, 1nA, 1nA, 1nA
TestParameter, Measurement.Monitor.RangeRating, BY FULL RANGE, BY FULL RANGE, BY FULL RANGE
TestParameter, Measurement.Monitor.RangeRatingCoeff, 50, 50, 50
TestParameter, Measurement.Timing.Hold, 0
TestParameter, Measurement.Timing.Delay, 0
TestParameter, Measurement.Adc.HighSpeed.Mode, AUTO
TestParameter, Measurement.Adc.HighSpeed.Coeff, 1
TestParameter, Measurement.Adc.HighResolution.AutoZero, OFF
TestParameter, Measurement.Adc.HighResolution.Mode, AUTO
TestParameter, Measurement.Adc.HighResolution.Coeff, 6
TestParameter, Measurement.WaitTime.Source.Coeff, 1
TestParameter, Measurement.WaitTime.Source.Offset, 0
TestParameter, Measurement.WaitTime.Monitor.Coeff, 1
TestParameter, Measurement.WaitTime.Monitor.Offset, 0
TestParameter, Function.User.Name, absId, absIg, absIs, gm
TestParameter, Function.User.Unit, A, A, A, S
TestParameter, Function.User.Definition, abs(Id), abs(Ig), abs(Is), diff(abs(Id))/diff(Vg)
TestParameter, Output.Graph.Enabled, true
TestParameter, Output.Graph.AutoScaling, false
TestParameter, Output.Graph.XAxis.Data, Vg
TestParameter, Output.Graph.XAxis.Scale, Linear
TestParameter, Output.Graph.XAxis.Left, -1
TestParameter, Output.Graph.XAxis.Right, 2
TestParameter, Output.Graph.XAxis.RunTimeAutoScale, false
TestParameter, Output.Graph.YAxis.Data, absId, gm, absIg, absIs
TestParameter, Output.Graph.YAxis.Scale, Log, Linear, Log, Log
TestParameter, Output.Graph.YAxis.Bottom, 1E-15, 0, 1E-15, 1E-15
TestParameter, Output.Graph.YAxis.Top, 0.001, 1, 0.001, 0.001
TestParameter, Output.Graph.YAxis.Group, , , , 
TestParameter, Output.Graph.YAxis.RunTimeAutoScale, false, true, false, false
TestParameter, Output.List.Data, Vg, Vd, Id, Is, Ig, absId, absIs, absIg, gm
TestParameter, AutoAnalysis.Interpolation, false
TestParameter, AutoAnalysis.Var2StepCount, 1
TestParameter, AutoAnalysis.Var2StepScript, 
TestParameter, AutoAnalysis.Line1.Enabled, false
TestParameter, AutoAnalysis.Line1.Type, 1
TestParameter, AutoAnalysis.Line1.Fix, True
TestParameter, AutoAnalysis.Line1.YAxis, 0
TestParameter, AutoAnalysis.Line1.Point1.Type, 0
TestParameter, AutoAnalysis.Line1.Point1.XY.X, 
TestParameter, AutoAnalysis.Line1.Point1.XY.Y, 
TestParameter, AutoAnalysis.Line1.Point1.Data.Var, 
TestParameter, AutoAnalysis.Line1.Point1.Data.Condition, 
TestParameter, AutoAnalysis.Line1.Point1.Data.Start, false
TestParameter, AutoAnalysis.Line1.Point1.Data.StartVar, 
TestParameter, AutoAnalysis.Line1.Point1.Data.StartCondition, 
TestParameter, AutoAnalysis.Line1.Point2.Type, 0
TestParameter, AutoAnalysis.Line1.Point2.XY.X, 
TestParameter, AutoAnalysis.Line1.Point2.XY.Y, 
TestParameter, AutoAnalysis.Line1.Point2.Data.Var, 
TestParameter, AutoAnalysis.Line1.Point2.Data.Condition, 
TestParameter, AutoAnalysis.Line1.Point2.Data.Start, false
TestParameter, AutoAnalysis.Line1.Point2.Data.StartVar, 
TestParameter, AutoAnalysis.Line1.Point2.Data.StartCondition, 
TestParameter, AutoAnalysis.Line1.GradientExpr, 0
TestParameter, AutoAnalysis.Line2.Enabled, false
TestParameter, AutoAnalysis.Line2.Type, 1
TestParameter, AutoAnalysis.Line2.Fix, True
TestParameter, AutoAnalysis.Line2.YAxis, 0
TestParameter, AutoAnalysis.Line2.Point1.Type, 0
TestParameter, AutoAnalysis.Line2.Point1.XY.X, 
TestParameter, AutoAnalysis.Line2.Point1.XY.Y, 
TestParameter, AutoAnalysis.Line2.Point1.Data.Var, 
TestParameter, AutoAnalysis.Line2.Point1.Data.Condition, 
TestParameter, AutoAnalysis.Line2.Point1.Data.Start, false
TestParameter, AutoAnalysis.Line2.Point1.Data.StartVar, 
TestParameter, AutoAnalysis.Line2.Point1.Data.StartCondition, 
TestParameter, AutoAnalysis.Line2.Point2.Type, 0
TestParameter, AutoAnalysis.Line2.Point2.XY.X, 
TestParameter, AutoAnalysis.Line2.Point2.XY.Y, 
TestParameter, AutoAnalysis.Line2.Point2.Data.Var, 
TestParameter, AutoAnalysis.Line2.Point2.Data.Condition, 
TestParameter, AutoAnalysis.Line2.Point2.Data.Start, false
TestParameter, AutoAnalysis.Line2.Point2.Data.StartVar, 
TestParameter, AutoAnalysis.Line2.Point2.Data.StartCondition, 
TestParameter, AutoAnalysis.Line2.GradientExpr, 0
TestParameter, AutoAnalysis.Marker.Enabled, false
TestParameter, AutoAnalysis.Marker.Data.Var, 
TestParameter, AutoAnalysis.Marker.Data.Condition, 
TestParameter, AutoAnalysis.Marker.Data.Start, false
TestParameter, AutoAnalysis.Marker.Data.StartVar, 
TestParameter, AutoAnalysis.Marker.Data.StartCondition, 
MetaData, TestRecord.EntryPoint, true
MetaData, TestRecord.RecordTime, 06/03/2025 15:42:41
MetaData, TestRecord.TestTarget, R[4]_D[5]_L[90]
MetaData, TestRecord.IterationIndex, 2
MetaData, TestRecord.Preservation, true
MetaData, TestRecord.Flag, !
MetaData, TestRecord.Remarks, 
MetaData, TestRecord.LinkKey, 5df0a6ec-93b6-4deb-8f8b-758103964ba7
MetaData, TestRecord.Parameters, 
Dimension1, 242, 242, 242, 242, 242, 242, 242, 242, 242
Dimension2, 2, 2, 2, 2, 2, 2, 2, 2, 2
DataName, Vg, Vd, Id, Ig, Is, absId, absIg, absIs, gm
DataValue, -1, 0.05, 4.0700000000000003E-13, 1.1250000000000002E-12, -1.9160000000000003E-12, 4.0700000000000003E-13, 1.1250000000000002E-12, 1.9160000000000003E-12, 
DataValue, -0.97500000000000009, 0.05, -1.1300000000000001E-13, 1.1750000000000001E-12, -2.436E-12, 1.1300000000000001E-13, 1.1750000000000001E-12, 2.436E-12, -1.1760000000000042E-11
DataValue, -0.95000000000000007, 0.05, 5.700000000000001E-14, 1.0850000000000001E-12, -1.896E-12, 5.700000000000001E-14, 1.0850000000000001E-12, 1.896E-12, -2.2399999999999981E-12
DataValue, -0.925, 0.05, -2.83E-13, 9.65E-13, -1.896E-12, 2.83E-13, 9.65E-13, 1.896E-12, 9.0399999999999922E-12
DataValue, -0.9, 0.05, -7.3E-14, 8.25E-13, -1.7960000000000002E-12, 7.3E-14, 8.25E-13, 1.7960000000000002E-12, -8.3999999999999933E-12
DataValue, -0.875, 0.05, 1.9700000000000002E-13, 1.5450000000000002E-12, -2.0160000000000003E-12, 1.9700000000000002E-13, 1.5450000000000002E-12, 2.0160000000000003E-12, 4.9599999999999966E-12
DataValue, -0.85000000000000009, 0.05, 3.7E-14, 1.385E-12, -2.026E-12, 3.7E-14, 1.385E-12, 2.026E-12, -6.4000000000000236E-12
DataValue, -0.82500000000000007, 0.05, -1.23E-13, 1.1650000000000002E-12, -2.226E-12, 1.23E-13, 1.1650000000000002E-12, 2.226E-12, 3.4399999999999975E-12
DataValue, -0.8, 0.05, -2.6300000000000004E-13, 1.235E-12, -2.406E-12, 2.6300000000000004E-13, 1.235E-12, 2.406E-12, 5.5999999999999963E-12
DataValue, -0.775, 0.05, -3.0000000000000002E-15, 1.105E-12, -2.1460000000000003E-12, 3.0000000000000002E-15, 1.105E-12, 2.1460000000000003E-12, -1.0399999999999993E-11
DataValue, -0.75, 0.05, 6.7E-14, 1.1650000000000002E-12, -2.406E-12, 6.7E-14, 1.1650000000000002E-12, 2.406E-12, 2.559999999999998E-12
DataValue, -0.72500000000000009, 0.05, 1.77E-13, 1.1650000000000002E-12, -2.386E-12, 1.77E-13, 1.1650000000000002E-12, 2.386E-12, 4.4000000000000152E-12
DataValue, -0.70000000000000007, 0.05, 2.17E-13, 1.235E-12, -2.506E-12, 2.17E-13, 1.235E-12, 2.506E-12, 1.5999999999999988E-12
DataValue, -0.675, 0.05, -1.4300000000000002E-13, 1.335E-12, -2.306E-12, 1.4300000000000002E-13, 1.335E-12, 2.306E-12, -2.9599999999999967E-12
DataValue, -0.65, 0.05, -5.3E-14, 1.055E-12, -2.3960000000000003E-12, 5.3E-14, 1.055E-12, 2.3960000000000003E-12, -3.5999999999999976E-12
DataValue, -0.625, 0.05, -2.6300000000000004E-13, 1.0350000000000001E-12, -2.1660000000000003E-12, 2.6300000000000004E-13, 1.0350000000000001E-12, 2.1660000000000003E-12, 8.3999999999999949E-12
DataValue, -0.6, 0.05, 4.7E-14, 9.3500000000000016E-13, -2.0160000000000003E-12, 4.7E-14, 9.3500000000000016E-13, 2.0160000000000003E-12, -8.6399999999999939E-12
DataValue, -0.57500000000000007, 0.05, 1.87E-13, 1.1750000000000001E-12, -2.0660000000000003E-12, 1.87E-13, 1.1750000000000001E-12, 2.0660000000000003E-12, 5.6000000000000206E-12
DataValue, -0.55, 0.05, -3.53E-13, 1.1350000000000001E-12, -2.0960000000000004E-12, 3.53E-13, 1.1350000000000001E-12, 2.0960000000000004E-12, 6.6399999999999943E-12
DataValue, -0.525, 0.05, -3.3000000000000005E-14, 1.255E-12, -1.9660000000000003E-12, 3.3000000000000005E-14, 1.255E-12, 1.9660000000000003E-12, -1.2799999999999989E-11
DataValue, -0.5, 0.05, -1.63E-13, 1.1350000000000001E-12, -2.386E-12, 1.63E-13, 1.1350000000000001E-12, 2.386E-12, 5.1999999999999956E-12
DataValue, -0.47500000000000003, 0.05, -8.3000000000000012E-14, 1.105E-12, -2.046E-12, 8.3000000000000012E-14, 1.105E-12, 2.046E-12, -3.2000000000000041E-12
DataValue, -0.45, 0.05, -9.3000000000000008E-14, 1.045E-12, -2.056E-12, 9.3000000000000008E-14, 1.045E-12, 2.056E-12, 3.9999999999999946E-13
DataValue, -0.42500000000000004, 0.05, 2.17E-13, 8.050000000000001E-13, -2.106E-12, 2.17E-13, 8.050000000000001E-13, 2.106E-12, 4.9600000000000063E-12
DataValue, -0.4, 0.05, 1.77E-13, 1.0250000000000002E-12, -2.1460000000000003E-12, 1.77E-13, 1.0250000000000002E-12, 2.1460000000000003E-12, -1.5999999999999988E-12
DataValue, -0.375, 0.05, -1.83E-13, 1.205E-12, -2.2460000000000003E-12, 1.83E-13, 1.205E-12, 2.2460000000000003E-12, 2.3999999999999979E-13
DataValue, -0.35000000000000003, 0.05, -1.23E-13, 7.6500000000000007E-13, -2.406E-12, 1.23E-13, 7.6500000000000007E-13, 2.406E-12, -2.4000000000000031E-12
DataValue, -0.325, 0.05, -1.4300000000000002E-13, 7.4500000000000006E-13, -2.206E-12, 1.4300000000000002E-13, 7.4500000000000006E-13, 2.206E-12, 7.9999999999999992E-13
DataValue, -0.3, 0.05, 7.7E-14, 1.1650000000000002E-12, -2.2460000000000003E-12, 7.7E-14, 1.1650000000000002E-12, 2.2460000000000003E-12, -2.6399999999999984E-12
DataValue, -0.275, 0.05, 3.7E-14, 1.0350000000000001E-12, -2.086E-12, 3.7E-14, 1.0350000000000001E-12, 2.086E-12, -1.6000000000000021E-12
DataValue, -0.25, 0.05, 3.87E-13, 1.1350000000000001E-12, -2.206E-12, 3.87E-13, 1.1350000000000001E-12, 2.206E-12, 1.3999999999999989E-11
DataValue, -0.225, 0.05, 2.9700000000000005E-13, 1.3550000000000002E-12, -2.4460000000000003E-12, 2.9700000000000005E-13, 1.3550000000000002E-12, 2.4460000000000003E-12, -3.5999999999999996E-12
DataValue, -0.2, 0.05, 2.2700000000000002E-13, 1.4050000000000002E-12, -2.846E-12, 2.2700000000000002E-13, 1.4050000000000002E-12, 2.846E-12, -2.8000000000000018E-12
DataValue, -0.17500000000000002, 0.05, 1.2270000000000001E-12, 1.3650000000000001E-12, -3.666E-12, 1.2270000000000001E-12, 1.3650000000000001E-12, 3.666E-12, 4.0000000000000017E-11
DataValue, -0.15, 0.05, 3.797E-12, 8.5500000000000009E-13, -5.706E-12, 3.797E-12, 8.5500000000000009E-13, 5.706E-12, 1.0279999999999989E-10
DataValue, -0.125, 0.05, 9.747E-12, 1.095E-12, -1.1916E-11, 9.747E-12, 1.095E-12, 1.1916E-11, 2.3800000000000006E-10
DataValue, -0.1, 0.05, 2.3017000000000002E-11, 1.3250000000000001E-12, -2.4986E-11, 2.3017000000000002E-11, 1.3250000000000001E-12, 2.4986E-11, 5.3080000000000017E-10
DataValue, -0.075, 0.05, 5.4967000000000005E-11, 1.0250000000000002E-12, -5.6826000000000004E-11, 5.4967000000000005E-11, 1.0250000000000002E-12, 5.6826000000000004E-11, 1.2779999999999997E-09
DataValue, -0.05, 0.05, 1.35607E-10, 1.255E-12, -1.33976E-10, 1.35607E-10, 1.255E-12, 1.33976E-10, 3.2256000000000009E-09
DataValue, -0.025, 0.05, 3.11037E-10, 1.235E-12, -3.11186E-10, 3.11037E-10, 1.235E-12, 3.11186E-10, 7.0172E-09
DataValue, 0, 0.05, 7.13317E-10, 1.3150000000000002E-12, -7.16896E-10, 7.13317E-10, 1.3150000000000002E-12, 7.16896E-10, 1.60912E-08
DataValue, 0.025, 0.05, 1.53957E-09, 1.0250000000000002E-12, -1.50884E-09, 1.53957E-09, 1.0250000000000002E-12, 1.50884E-09, 3.305012E-08
DataValue, 0.05, 0.05, 3.28637E-09, 9.25E-13, -3.30484E-09, 3.28637E-09, 9.25E-13, 3.30484E-09, 6.9871999999999992E-08
DataValue, 0.075, 0.05, 6.49097E-09, 1.205E-12, -6.48234E-09, 6.49097E-09, 1.205E-12, 6.48234E-09, 1.2818400000000003E-07
DataValue, 0.1, 0.05, 1.23272E-08, 9.75E-13, -1.23898E-08, 1.23272E-08, 9.75E-13, 1.23898E-08, 2.3344919999999989E-07
DataValue, 0.125, 0.05, 2.1286999999999997E-08, 1.0250000000000002E-12, -2.1571E-08, 2.1286999999999997E-08, 1.0250000000000002E-12, 2.1571E-08, 3.58392E-07
DataValue, 0.15, 0.05, 3.5178999999999994E-08, 1.1350000000000001E-12, -3.4939E-08, 3.5178999999999994E-08, 1.1350000000000001E-12, 3.4939E-08, 5.5568E-07
DataValue, 0.17500000000000002, 0.05, 5.4844E-08, 9.55E-13, -5.48254E-08, 5.4844E-08, 9.55E-13, 5.48254E-08, 7.8659999999999949E-07
DataValue, 0.2, 0.05, 7.96406E-08, 1.3650000000000001E-12, -7.8843999999999988E-08, 7.96406E-08, 1.3650000000000001E-12, 7.8843999999999988E-08, 9.9186400000000026E-07
DataValue, 0.225, 0.05, 1.1045759999999999E-07, 1.3650000000000001E-12, -1.1112179999999998E-07, 1.1045759999999999E-07, 1.3650000000000001E-12, 1.1112179999999998E-07, 1.23268E-06
DataValue, 0.25, 0.05, 1.5438E-07, 1.105E-12, -1.54E-07, 1.5438E-07, 1.105E-12, 1.54E-07, 1.7568960000000012E-06
DataValue, 0.275, 0.05, 2.0183999999999999E-07, 9.15E-13, -2.0304E-07, 2.0183999999999999E-07, 9.15E-13, 2.0304E-07, 1.8983999999999974E-06
DataValue, 0.3, 0.05, 2.6144E-07, 1.145E-12, -2.6106E-07, 2.6144E-07, 1.145E-12, 2.6106E-07, 2.3840000000000033E-06
DataValue, 0.325, 0.05, 3.2614E-07, 1.065E-12, -3.2836E-07, 3.2614E-07, 1.065E-12, 3.2836E-07, 2.5879999999999975E-06
DataValue, 0.35000000000000003, 0.05, 4.0712E-07, 1.195E-12, -4.077E-07, 4.0712E-07, 1.195E-12, 4.077E-07, 3.2391999999999981E-06
DataValue, 0.375, 0.05, 4.922E-07, 1.095E-12, -4.9106E-07, 4.922E-07, 1.095E-12, 4.9106E-07, 3.4032000000000054E-06
DataValue, 0.4, 0.05, 5.9146E-07, 9.75E-13, -5.8768E-07, 5.9146E-07, 9.75E-13, 5.8768E-07, 3.9703999999999967E-06
DataValue, 0.42500000000000004, 0.05, 6.9286E-07, 9.75E-13, -6.978E-07, 6.9286E-07, 9.75E-13, 6.978E-07, 4.0559999999999964E-06
DataValue, 0.45, 0.05, 8.1686E-07, 1.255E-12, -8.1712E-07, 8.1686E-07, 1.255E-12, 8.1712E-07, 4.9600000000000067E-06
DataValue, 0.47500000000000003, 0.05, 9.429E-07, 1.2250000000000001E-12, -9.4265999999999995E-07, 9.429E-07, 1.2250000000000001E-12, 9.4265999999999995E-07, 5.0415999999999951E-06
DataValue, 0.5, 0.05, 1.07424E-06, 1.255E-12, -1.07898E-06, 1.07424E-06, 1.255E-12, 1.07898E-06, 5.2536000000000093E-06
DataValue, 0.525, 0.05, 1.2235000000000002E-06, 1.1350000000000001E-12, -1.2186E-06, 1.2235000000000002E-06, 1.1350000000000001E-12, 1.2186E-06, 5.9704000000000013E-06
DataValue, 0.55, 0.05, 1.3757000000000002E-06, 1.235E-12, -1.3685000000000001E-06, 1.3757000000000002E-06, 1.235E-12, 1.3685000000000001E-06, 6.0879999999999949E-06
DataValue, 0.57500000000000007, 0.05, 1.5375E-06, 1.5150000000000001E-12, -1.5347E-06, 1.5375E-06, 1.5150000000000001E-12, 1.5347E-06, 6.471999999999989E-06
DataValue, 0.6, 0.05, 1.7114000000000003E-06, 1.2750000000000001E-12, -1.7109000000000002E-06, 1.7114000000000003E-06, 1.2750000000000001E-12, 1.7109000000000002E-06, 6.9560000000000305E-06
DataValue, 0.625, 0.05, 1.8970000000000002E-06, 1.285E-12, -1.9014000000000001E-06, 1.8970000000000002E-06, 1.285E-12, 1.9014000000000001E-06, 7.4239999999999919E-06
DataValue, 0.65, 0.05, 2.0982E-06, 1.0350000000000001E-12, -2.1051000000000004E-06, 2.0982E-06, 1.0350000000000001E-12, 2.1051000000000004E-06, 8.047999999999988E-06
DataValue, 0.675, 0.05, 2.307E-06, 1.195E-12, -2.3042000000000003E-06, 2.307E-06, 1.195E-12, 2.3042000000000003E-06, 8.3519999999999939E-06
DataValue, 0.70000000000000007, 0.05, 2.5209000000000003E-06, 7.05E-13, -2.5234000000000003E-06, 2.5209000000000003E-06, 7.05E-13, 2.5234000000000003E-06, 8.556E-06
DataValue, 0.72500000000000009, 0.05, 2.7542000000000002E-06, 8.8500000000000007E-13, -2.7624000000000004E-06, 2.7542000000000002E-06, 8.8500000000000007E-13, 2.7624000000000004E-06, 9.33199999999999E-06
DataValue, 0.75, 0.05, 2.9817E-06, 1.245E-12, -2.9927E-06, 2.9817E-06, 1.245E-12, 2.9927E-06, 9.10000000000003E-06
DataValue, 0.775, 0.05, 3.2310000000000005E-06, 1.195E-12, -3.2271000000000004E-06, 3.2310000000000005E-06, 1.195E-12, 3.2271000000000004E-06, 9.9720000000000038E-06
DataValue, 0.8, 0.05, 3.5029000000000004E-06, 9.8500000000000014E-13, -3.4981000000000004E-06, 3.5029000000000004E-06, 9.8500000000000014E-13, 3.4981000000000004E-06, 1.0875999999999985E-05
DataValue, 0.82500000000000007, 0.05, 3.7824000000000004E-06, 1.0750000000000002E-12, -3.7731000000000003E-06, 3.7824000000000004E-06, 1.0750000000000002E-12, 3.7731000000000003E-06, 1.1179999999999991E-05
DataValue, 0.85000000000000009, 0.05, 4.0503E-06, 8.25E-13, -4.0336000000000006E-06, 4.0503E-06, 8.25E-13, 4.0336000000000006E-06, 1.0715999999999973E-05
DataValue, 0.875, 0.05, 4.3207000000000008E-06, 9.65E-13, -4.3160000000000007E-06, 4.3207000000000008E-06, 9.65E-13, 4.3160000000000007E-06, 1.0816000000000072E-05
DataValue, 0.9, 0.05, 4.6233E-06, 1.4550000000000002E-12, -4.6247000000000008E-06, 4.6233E-06, 1.4550000000000002E-12, 4.6247000000000008E-06, 1.2103999999999968E-05
DataValue, 0.925, 0.05, 4.9410000000000006E-06, 1.335E-12, -4.94E-06, 4.9410000000000006E-06, 1.335E-12, 4.94E-06, 1.2708000000000003E-05
DataValue, 0.95000000000000007, 0.05, 5.2617000000000008E-06, 1.4550000000000002E-12, -5.2643000000000006E-06, 5.2617000000000008E-06, 1.4550000000000002E-12, 5.2643000000000006E-06, 1.2827999999999995E-05
DataValue, 0.97500000000000009, 0.05, 5.588200000000001E-06, 1.435E-12, -5.5990000000000009E-06, 5.588200000000001E-06, 1.435E-12, 5.5990000000000009E-06, 1.3059999999999995E-05
DataValue, 1, 0.05, 5.9387E-06, 1.2750000000000001E-12, -5.943200000000001E-06, 5.9387E-06, 1.2750000000000001E-12, 5.943200000000001E-06, 1.4020000000000027E-05
DataValue, 1.0250000000000001, 0.05, 6.2828E-06, 1.0350000000000001E-12, -6.2726000000000007E-06, 6.2828E-06, 1.0350000000000001E-12, 6.2726000000000007E-06, 1.3763999999999919E-05
DataValue, 1.05, 0.05, 6.6110000000000007E-06, 1.155E-12, -6.6122000000000008E-06, 6.6110000000000007E-06, 1.155E-12, 6.6122000000000008E-06, 1.3128000000000068E-05
DataValue, 1.075, 0.05, 7.0068E-06, 1.045E-12, -6.9869000000000008E-06, 7.0068E-06, 1.045E-12, 6.9869000000000008E-06, 1.5832000000000044E-05
