
SetupTitle, IdVg_Vd_par
PrimitiveTest, I/V Sweep
TestParameter, Context.MainFrame, B1500A
TestParameter, Channel.UnitType, SMU, SMU, SMU
TestParameter, Channel.Unit, SMU3:HR, SMU2:HR, SMU1:HR
TestParameter, Channel.IName, Id, Ig, Is
TestParameter, Channel.VName, Vd, Vg, Vs
TestParameter, Channel.Mode, V, V, V
TestParameter, Channel.Func, VAR2, VAR1, CONST
TestParameter, Channel.Index, 
TestParameter, Channel.Time, 
TestParameter, Measurement.Port.Unit, SMU3:HR, SMU2:HR, SMU1:HR
TestParameter, Measurement.Port.SeriesResistor, NONE, NONE, NONE
TestParameter, Measurement.Port.Filter, ON, ON, ON
TestParameter, Measurement.Port.OutputVoltageComparison, 0, 0, 0
TestParameter, Measurement.Primary.Locus, Double
TestParameter, Measurement.Primary.Scale, LINEAR
TestParameter, Measurement.Primary.Start, -1
TestParameter, Measurement.Primary.Stop, 2
TestParameter, Measurement.Primary.Step, 0.025
TestParameter, Measurement.Primary.Compliance, 0.1
TestParameter, Measurement.Primary.PowerCompliance, 0
TestParameter, Measurement.Aborting.Condition, STOP AT ANY ABNORMAL
TestParameter, Measurement.PostOutput.Value, START
TestParameter, Measurement.PostOutput.Retention, OFF
TestParameter, Measurement.Secondary.Start, 0.05
TestParameter, Measurement.Secondary.Count, 2
TestParameter, Measurement.Secondary.Step, 0.95000000000000007
TestParameter, Measurement.Secondary.Compliance, 0.1
TestParameter, Measurement.Secondary.PowerCompliance, 0
TestParameter, Measurement.Bias.Source, 0.05, -1, 0
TestParameter, Measurement.Bias.Compliance, 0.1, 0.1, 0.1
TestParameter, Measurement.Monitor.Unit, SMU3:HR, SMU2:HR, SMU1:HR
TestParameter, Measurement.Monitor.Adc, HR ADC, HR ADC, HR ADC
TestParameter, Measurement.Monitor.Measurement, Compliance Side, Compliance Side, Compliance Side
TestParameter, Measurement.Monitor.RangingMode, LIMITED, LIMITED, LIMITED
TestParameter, Measurement.Monitor.RangeBoundary, 1nA, 1nA, 1nA
TestParameter, Measurement.Monitor.RangeRating, BY FULL RANGE, BY FULL RANGE, BY FULL RANGE
TestParameter, Measurement.Monitor.RangeRatingCoeff, 50, 50, 50
TestParameter, Measurement.Timing.Hold, 0
TestParameter, Measurement.Timing.Delay, 0
TestParameter, Measurement.Adc.HighSpeed.Mode, AUTO
TestParameter, Measurement.Adc.HighSpeed.Coeff, 1
TestParameter, Measurement.Adc.HighResolution.AutoZero, OFF
TestParameter, Measurement.Adc.HighResolution.Mode, AUTO
TestParameter, Measurement.Adc.HighResolution.Coeff, 6
TestParameter, Measurement.WaitTime.Source.Coeff, 1
TestParameter, Measurement.WaitTime.Source.Offset, 0
TestParameter, Measurement.WaitTime.Monitor.Coeff, 1
TestParameter, Measurement.WaitTime.Monitor.Offset, 0
TestParameter, Function.User.Name, absId, absIg, absIs, gm
TestParameter, Function.User.Unit, A, A, A, S
TestParameter, Function.User.Definition, abs(Id), abs(Ig), abs(Is), diff(abs(Id))/diff(Vg)
TestParameter, Output.Graph.Enabled, true
TestParameter, Output.Graph.AutoScaling, false
TestParameter, Output.Graph.XAxis.Data, Vg
TestParameter, Output.Graph.XAxis.Scale, Linear
TestParameter, Output.Graph.XAxis.Left, -1
TestParameter, Output.Graph.XAxis.Right, 2
TestParameter, Output.Graph.XAxis.RunTimeAutoScale, false
TestParameter, Output.Graph.YAxis.Data, absId, gm, absIg, absIs
TestParameter, Output.Graph.YAxis.Scale, Log, Linear, Log, Log
TestParameter, Output.Graph.YAxis.Bottom, 1E-15, 0, 1E-15, 1E-15
TestParameter, Output.Graph.YAxis.Top, 0.001, 1, 0.001, 0.001
TestParameter, Output.Graph.YAxis.Group, , , , 
TestParameter, Output.Graph.YAxis.RunTimeAutoScale, false, true, false, false
TestParameter, Output.List.Data, Vg, Vd, Id, Is, Ig, absId, absIs, absIg, gm
TestParameter, AutoAnalysis.Interpolation, false
TestParameter, AutoAnalysis.Var2StepCount, 1
TestParameter, AutoAnalysis.Var2StepScript, 
TestParameter, AutoAnalysis.Line1.Enabled, false
TestParameter, AutoAnalysis.Line1.Type, 1
TestParameter, AutoAnalysis.Line1.Fix, True
TestParameter, AutoAnalysis.Line1.YAxis, 0
TestParameter, AutoAnalysis.Line1.Point1.Type, 0
TestParameter, AutoAnalysis.Line1.Point1.XY.X, 
TestParameter, AutoAnalysis.Line1.Point1.XY.Y, 
TestParameter, AutoAnalysis.Line1.Point1.Data.Var, 
TestParameter, AutoAnalysis.Line1.Point1.Data.Condition, 
TestParameter, AutoAnalysis.Line1.Point1.Data.Start, false
TestParameter, AutoAnalysis.Line1.Point1.Data.StartVar, 
TestParameter, AutoAnalysis.Line1.Point1.Data.StartCondition, 
TestParameter, AutoAnalysis.Line1.Point2.Type, 0
TestParameter, AutoAnalysis.Line1.Point2.XY.X, 
TestParameter, AutoAnalysis.Line1.Point2.XY.Y, 
TestParameter, AutoAnalysis.Line1.Point2.Data.Var, 
TestParameter, AutoAnalysis.Line1.Point2.Data.Condition, 
TestParameter, AutoAnalysis.Line1.Point2.Data.Start, false
TestParameter, AutoAnalysis.Line1.Point2.Data.StartVar, 
TestParameter, AutoAnalysis.Line1.Point2.Data.StartCondition, 
TestParameter, AutoAnalysis.Line1.GradientExpr, 0
TestParameter, AutoAnalysis.Line2.Enabled, false
TestParameter, AutoAnalysis.Line2.Type, 1
TestParameter, AutoAnalysis.Line2.Fix, True
TestParameter, AutoAnalysis.Line2.YAxis, 0
TestParameter, AutoAnalysis.Line2.Point1.Type, 0
TestParameter, AutoAnalysis.Line2.Point1.XY.X, 
TestParameter, AutoAnalysis.Line2.Point1.XY.Y, 
TestParameter, AutoAnalysis.Line2.Point1.Data.Var, 
TestParameter, AutoAnalysis.Line2.Point1.Data.Condition, 
TestParameter, AutoAnalysis.Line2.Point1.Data.Start, false
TestParameter, AutoAnalysis.Line2.Point1.Data.StartVar, 
TestParameter, AutoAnalysis.Line2.Point1.Data.StartCondition, 
TestParameter, AutoAnalysis.Line2.Point2.Type, 0
TestParameter, AutoAnalysis.Line2.Point2.XY.X, 
TestParameter, AutoAnalysis.Line2.Point2.XY.Y, 
TestParameter, AutoAnalysis.Line2.Point2.Data.Var, 
TestParameter, AutoAnalysis.Line2.Point2.Data.Condition, 
TestParameter, AutoAnalysis.Line2.Point2.Data.Start, false
TestParameter, AutoAnalysis.Line2.Point2.Data.StartVar, 
TestParameter, AutoAnalysis.Line2.Point2.Data.StartCondition, 
TestParameter, AutoAnalysis.Line2.GradientExpr, 0
TestParameter, AutoAnalysis.Marker.Enabled, false
TestParameter, AutoAnalysis.Marker.Data.Var, 
TestParameter, AutoAnalysis.Marker.Data.Condition, 
TestParameter, AutoAnalysis.Marker.Data.Start, false
TestParameter, AutoAnalysis.Marker.Data.StartVar, 
TestParameter, AutoAnalysis.Marker.Data.StartCondition, 
MetaData, TestRecord.EntryPoint, true
MetaData, TestRecord.RecordTime, 06/03/2025 14:18:51
MetaData, TestRecord.TestTarget, R[5]_D[6]_L[60]
MetaData, TestRecord.IterationIndex, 2
MetaData, TestRecord.Preservation, true
MetaData, TestRecord.Flag, !
MetaData, TestRecord.Remarks, 
MetaData, TestRecord.LinkKey, 3ef10c57-5856-44f0-acda-6bebfce4b785
MetaData, TestRecord.Parameters, 
Dimension1, 242, 242, 242, 242, 242, 242, 242, 242, 242
Dimension2, 2, 2, 2, 2, 2, 2, 2, 2, 2
DataName, Vg, Vd, Id, Ig, Is, absId, absIg, absIs, gm
DataValue, -1, 0.05, 9.7E-14, 2.0250000000000004E-12, -1.7660000000000002E-12, 9.7E-14, 2.0250000000000004E-12, 1.7660000000000002E-12, 
DataValue, -0.97500000000000009, 0.05, -2.93E-13, 1.6450000000000002E-12, -2.0960000000000004E-12, 2.93E-13, 1.6450000000000002E-12, 2.0960000000000004E-12, 7.840000000000028E-12
DataValue, -0.95000000000000007, 0.05, -4.3000000000000006E-14, 2.035E-12, -1.896E-12, 4.3000000000000006E-14, 2.035E-12, 1.896E-12, -9.9999999999999913E-12
DataValue, -0.925, 0.05, 9.7E-14, 1.975E-12, -1.8360000000000003E-12, 9.7E-14, 1.975E-12, 1.8360000000000003E-12, 2.1599999999999981E-12
DataValue, -0.9, 0.05, 5.4700000000000009E-13, 2.0450000000000003E-12, -1.976E-12, 5.4700000000000009E-13, 2.0450000000000003E-12, 1.976E-12, 1.799999999999999E-11
DataValue, -0.875, 0.05, -5.3E-14, 1.985E-12, -2.3960000000000003E-12, 5.3E-14, 1.985E-12, 2.3960000000000003E-12, -1.9759999999999989E-11
DataValue, -0.85000000000000009, 0.05, -1.1300000000000001E-13, 1.8650000000000002E-12, -2.186E-12, 1.1300000000000001E-13, 1.8650000000000002E-12, 2.186E-12, 2.4000000000000088E-12
DataValue, -0.82500000000000007, 0.05, 7.7E-14, 1.9650000000000002E-12, -1.896E-12, 7.7E-14, 1.9650000000000002E-12, 1.896E-12, -1.4399999999999991E-12
DataValue, -0.8, 0.05, 2.47E-13, 2.1250000000000003E-12, -2.006E-12, 2.47E-13, 2.1250000000000003E-12, 2.006E-12, 6.7999999999999945E-12
DataValue, -0.775, 0.05, 3.07E-13, 1.885E-12, -2.006E-12, 3.07E-13, 1.885E-12, 2.006E-12, 2.3999999999999979E-12
DataValue, -0.75, 0.05, -1.93E-13, 1.8650000000000002E-12, -1.7760000000000001E-12, 1.93E-13, 1.8650000000000002E-12, 1.7760000000000001E-12, -4.5599999999999959E-12
DataValue, -0.72500000000000009, 0.05, -9.3000000000000008E-14, 1.9650000000000002E-12, -2.2160000000000003E-12, 9.3000000000000008E-14, 1.9650000000000002E-12, 2.2160000000000003E-12, -4.0000000000000145E-12
DataValue, -0.70000000000000007, 0.05, -1.4300000000000002E-13, 1.7250000000000002E-12, -1.976E-12, 1.4300000000000002E-13, 1.7250000000000002E-12, 1.976E-12, 1.9999999999999987E-12
DataValue, -0.675, 0.05, -3.9300000000000004E-13, 1.955E-12, -1.736E-12, 3.9300000000000004E-13, 1.955E-12, 1.736E-12, 9.9999999999999929E-12
DataValue, -0.65, 0.05, 5.700000000000001E-14, 2.035E-12, -1.696E-12, 5.700000000000001E-14, 2.035E-12, 1.696E-12, -1.343999999999999E-11
DataValue, -0.625, 0.05, 1.87E-13, 2.1250000000000003E-12, -1.876E-12, 1.87E-13, 2.1250000000000003E-12, 1.876E-12, 5.1999999999999956E-12
DataValue, -0.6, 0.05, 3.17E-13, 2.015E-12, -1.9860000000000002E-12, 3.17E-13, 2.015E-12, 1.9860000000000002E-12, 5.1999999999999956E-12
DataValue, -0.57500000000000007, 0.05, -2.83E-13, 1.985E-12, -1.896E-12, 2.83E-13, 1.985E-12, 1.896E-12, -1.3600000000000051E-12
DataValue, -0.55, 0.05, -1.1300000000000001E-13, 2.015E-12, -1.976E-12, 1.1300000000000001E-13, 2.015E-12, 1.976E-12, -6.7999999999999936E-12
DataValue, -0.525, 0.05, -1.4300000000000002E-13, 1.925E-12, -2.2160000000000003E-12, 1.4300000000000002E-13, 1.925E-12, 2.2160000000000003E-12, 1.1999999999999993E-12
DataValue, -0.5, 0.05, -3.3000000000000005E-14, 2.2450000000000002E-12, -2.156E-12, 3.3000000000000005E-14, 2.2450000000000002E-12, 2.156E-12, -4.3999999999999966E-12
DataValue, -0.47500000000000003, 0.05, 6.7E-14, 1.835E-12, -2.086E-12, 6.7E-14, 1.835E-12, 2.086E-12, 1.3600000000000019E-12
DataValue, -0.45, 0.05, 3.3700000000000003E-13, 2.4750000000000003E-12, -1.736E-12, 3.3700000000000003E-13, 2.4750000000000003E-12, 1.736E-12, 1.0799999999999991E-11
DataValue, -0.42500000000000004, 0.05, 9.7E-14, 2.265E-12, -1.736E-12, 9.7E-14, 2.265E-12, 1.736E-12, -9.600000000000014E-12
DataValue, -0.4, 0.05, -1.63E-13, 1.7450000000000001E-12, -2.1660000000000003E-12, 1.63E-13, 1.7450000000000001E-12, 2.1660000000000003E-12, 2.639999999999998E-12
DataValue, -0.375, 0.05, -2.23E-13, 1.675E-12, -2.2960000000000003E-12, 2.23E-13, 1.675E-12, 2.2960000000000003E-12, 2.3999999999999979E-12
DataValue, -0.35000000000000003, 0.05, 2.2700000000000002E-13, 2.005E-12, -2.2160000000000003E-12, 2.2700000000000002E-13, 2.005E-12, 2.2160000000000003E-12, 1.6000000000000053E-13
DataValue, -0.325, 0.05, 3.07E-13, 2.1250000000000003E-12, -1.956E-12, 3.07E-13, 2.1250000000000003E-12, 1.956E-12, 3.1999999999999965E-12
DataValue, -0.3, 0.05, 7.77E-13, 2.065E-12, -1.906E-12, 7.77E-13, 2.065E-12, 1.906E-12, 1.8799999999999983E-11
DataValue, -0.275, 0.05, 8.7000000000000008E-14, 1.715E-12, -2.4960000000000003E-12, 8.7000000000000008E-14, 1.715E-12, 2.4960000000000003E-12, -2.7600000000000036E-11
DataValue, -0.25, 0.05, 4.47E-13, 1.8950000000000003E-12, -2.286E-12, 4.47E-13, 1.8950000000000003E-12, 2.286E-12, 1.4399999999999987E-11
DataValue, -0.225, 0.05, 8.070000000000001E-13, 1.935E-12, -3.1660000000000004E-12, 8.070000000000001E-13, 1.935E-12, 3.1660000000000004E-12, 1.4400000000000007E-11
DataValue, -0.2, 0.05, 2.5970000000000003E-12, 1.925E-12, -4.346E-12, 2.5970000000000003E-12, 1.925E-12, 4.346E-12, 7.1600000000000029E-11
DataValue, -0.17500000000000002, 0.05, 5.0970000000000006E-12, 1.9650000000000002E-12, -7.2460000000000004E-12, 5.0970000000000006E-12, 1.9650000000000002E-12, 7.2460000000000004E-12, 1.0000000000000003E-10
DataValue, -0.15, 0.05, 1.0637000000000002E-11, 1.765E-12, -1.2176000000000001E-11, 1.0637000000000002E-11, 1.765E-12, 1.2176000000000001E-11, 2.2159999999999983E-10
DataValue, -0.125, 0.05, 2.3877000000000003E-11, 2.265E-12, -2.5026E-11, 2.3877000000000003E-11, 2.265E-12, 2.5026E-11, 5.2960000000000012E-10
DataValue, -0.1, 0.05, 4.9937000000000004E-11, 2.115E-12, -5.0336E-11, 4.9937000000000004E-11, 2.115E-12, 5.0336E-11, 1.0424000000000003E-09
DataValue, -0.075, 0.05, 1.07057E-10, 1.755E-12, -1.1156600000000001E-10, 1.07057E-10, 1.755E-12, 1.1156600000000001E-10, 2.2847999999999994E-09
DataValue, -0.05, 0.05, 2.2991700000000002E-10, 2.0950000000000003E-12, -2.3144600000000003E-10, 2.2991700000000002E-10, 2.0950000000000003E-12, 2.3144600000000003E-10, 4.914400000000002E-09
DataValue, -0.025, 0.05, 4.69117E-10, 2.0450000000000003E-12, -4.8667600000000009E-10, 4.69117E-10, 2.0450000000000003E-12, 4.8667600000000009E-10, 9.5679999999999984E-09
DataValue, 0, 0.05, 9.7837700000000017E-10, 2.0950000000000003E-12, -9.60146E-10, 9.7837700000000017E-10, 2.0950000000000003E-12, 9.60146E-10, 2.0370400000000005E-08
DataValue, 0.025, 0.05, 1.85247E-09, 1.7750000000000002E-12, -1.92124E-09, 1.85247E-09, 1.7750000000000002E-12, 1.92124E-09, 3.4963719999999985E-08
DataValue, 0.05, 0.05, 3.62537E-09, 2.365E-12, -3.57284E-09, 3.62537E-09, 2.365E-12, 3.57284E-09, 7.0916E-08
DataValue, 0.075, 0.05, 6.71747E-09, 2.0750000000000003E-12, -6.79934E-09, 6.71747E-09, 2.0750000000000003E-12, 6.79934E-09, 1.2368400000000004E-07
DataValue, 0.1, 0.05, 1.17474E-08, 1.7750000000000002E-12, -1.1748799999999999E-08, 1.17474E-08, 1.7750000000000002E-12, 1.1748799999999999E-08, 2.011971999999999E-07
DataValue, 0.125, 0.05, 1.98844E-08, 2.005E-12, -2.01822E-08, 1.98844E-08, 2.005E-12, 2.01822E-08, 3.2548000000000008E-07
DataValue, 0.15, 0.05, 3.3034599999999996E-08, 1.875E-12, -3.3148999999999995E-08, 3.3034599999999996E-08, 1.875E-12, 3.3148999999999995E-08, 5.2600799999999993E-07
DataValue, 0.17500000000000002, 0.05, 5.1333999999999995E-08, 2.015E-12, -5.22142E-08, 5.1333999999999995E-08, 2.015E-12, 5.22142E-08, 7.3197599999999927E-07
DataValue, 0.2, 0.05, 7.62798E-08, 2.015E-12, -7.637859999999999E-08, 7.62798E-08, 2.015E-12, 7.637859999999999E-08, 9.9783200000000025E-07
DataValue, 0.225, 0.05, 1.089542E-07, 1.925E-12, -1.0906479999999999E-07, 1.089542E-07, 1.925E-12, 1.0906479999999999E-07, 1.3069760000000003E-06
DataValue, 0.25, 0.05, 1.4838E-07, 2.0250000000000004E-12, -1.5014E-07, 1.4838E-07, 2.0250000000000004E-12, 1.5014E-07, 1.577032000000001E-06
DataValue, 0.275, 0.05, 2.0244E-07, 2.0250000000000004E-12, -1.9863999999999998E-07, 2.0244E-07, 2.0250000000000004E-12, 1.9863999999999998E-07, 2.1623999999999977E-06
DataValue, 0.3, 0.05, 2.6096E-07, 2.055E-12, -2.62E-07, 2.6096E-07, 2.055E-12, 2.62E-07, 2.3408000000000018E-06
DataValue, 0.325, 0.05, 3.3868E-07, 2.135E-12, -3.3666E-07, 3.3868E-07, 2.135E-12, 3.3666E-07, 3.1087999999999985E-06
DataValue, 0.35000000000000003, 0.05, 4.228E-07, 2.385E-12, -4.2256E-07, 4.228E-07, 2.385E-12, 4.2256E-07, 3.3647999999999966E-06
DataValue, 0.375, 0.05, 5.275E-07, 2.215E-12, -5.243E-07, 5.275E-07, 2.215E-12, 5.243E-07, 4.1880000000000072E-06
DataValue, 0.4, 0.05, 6.3842E-07, 2.055E-12, -6.378E-07, 6.3842E-07, 2.055E-12, 6.378E-07, 4.4367999999999954E-06
DataValue, 0.42500000000000004, 0.05, 7.6159999999999994E-07, 1.9150000000000002E-12, -7.6406E-07, 7.6159999999999994E-07, 1.9150000000000002E-12, 7.6406E-07, 4.9271999999999924E-06
DataValue, 0.45, 0.05, 9.033E-07, 1.935E-12, -9.0147999999999994E-07, 9.033E-07, 1.935E-12, 9.0147999999999994E-07, 5.66800000000001E-06
DataValue, 0.47500000000000003, 0.05, 1.06024E-06, 2.1250000000000003E-12, -1.05878E-06, 1.06024E-06, 2.1250000000000003E-12, 1.05878E-06, 6.2775999999999973E-06
DataValue, 0.5, 0.05, 1.2184E-06, 1.9950000000000003E-12, -1.1962E-06, 1.2184E-06, 1.9950000000000003E-12, 1.1962E-06, 6.3264000000000077E-06
DataValue, 0.525, 0.05, 1.3789E-06, 2.015E-12, -1.3875E-06, 1.3789E-06, 2.015E-12, 1.3875E-06, 6.4199999999999936E-06
DataValue, 0.55, 0.05, 1.571E-06, 2.065E-12, -1.5619000000000002E-06, 1.571E-06, 2.065E-12, 1.5619000000000002E-06, 7.6839999999999945E-06
DataValue, 0.57500000000000007, 0.05, 1.7667000000000002E-06, 1.855E-12, -1.7778000000000002E-06, 1.7667000000000002E-06, 1.855E-12, 1.7778000000000002E-06, 7.8279999999999969E-06
DataValue, 0.6, 0.05, 2.0053E-06, 2.115E-12, -1.9921000000000004E-06, 2.0053E-06, 2.115E-12, 1.9921000000000004E-06, 9.5440000000000309E-06
DataValue, 0.625, 0.05, 2.2523E-06, 1.975E-12, -2.261E-06, 2.2523E-06, 1.975E-12, 2.261E-06, 9.8799999999999884E-06
DataValue, 0.65, 0.05, 2.5401000000000005E-06, 1.755E-12, -2.5259000000000002E-06, 2.5401000000000005E-06, 1.755E-12, 2.5259000000000002E-06, 1.1512000000000008E-05
DataValue, 0.675, 0.05, 2.814E-06, 1.765E-12, -2.7999E-06, 2.814E-06, 1.765E-12, 2.7999E-06, 1.0955999999999974E-05
DataValue, 0.70000000000000007, 0.05, 3.0797000000000003E-06, 1.805E-12, -3.0980000000000002E-06, 3.0797000000000003E-06, 1.805E-12, 3.0980000000000002E-06, 1.0628E-05
DataValue, 0.72500000000000009, 0.05, 3.4117000000000003E-06, 2.0250000000000004E-12, -3.3891000000000003E-06, 3.4117000000000003E-06, 2.0250000000000004E-12, 3.3891000000000003E-06, 1.3279999999999986E-05
DataValue, 0.75, 0.05, 3.7424000000000004E-06, 1.6950000000000002E-12, -3.7381000000000003E-06, 3.7424000000000004E-06, 1.6950000000000002E-12, 3.7381000000000003E-06, 1.322800000000005E-05
DataValue, 0.775, 0.05, 4.0492E-06, 2.215E-12, -4.0581E-06, 4.0492E-06, 2.215E-12, 4.0581E-06, 1.227199999999998E-05
DataValue, 0.8, 0.05, 4.4025000000000006E-06, 2.165E-12, -4.4172000000000007E-06, 4.4025000000000006E-06, 2.165E-12, 4.4172000000000007E-06, 1.4132000000000008E-05
DataValue, 0.82500000000000007, 0.05, 4.7838000000000007E-06, 1.935E-12, -4.7895000000000005E-06, 4.7838000000000007E-06, 1.935E-12, 4.7895000000000005E-06, 1.5251999999999989E-05
DataValue, 0.85000000000000009, 0.05, 5.1194000000000005E-06, 2.415E-12, -5.1420000000000009E-06, 5.1194000000000005E-06, 2.415E-12, 5.1420000000000009E-06, 1.342399999999998E-05
DataValue, 0.875, 0.05, 5.5587000000000007E-06, 2.2750000000000003E-12, -5.5680000000000007E-06, 5.5587000000000007E-06, 2.2750000000000003E-12, 5.5680000000000007E-06, 1.7572000000000068E-05
DataValue, 0.9, 0.05, 5.9427000000000007E-06, 2.1750000000000003E-12, -5.9654000000000005E-06, 5.9427000000000007E-06, 2.1750000000000003E-12, 5.9654000000000005E-06, 1.5359999999999988E-05
DataValue, 0.925, 0.05, 6.3671E-06, 1.815E-12, -6.3932000000000009E-06, 6.3671E-06, 1.815E-12, 6.3932000000000009E-06, 1.6975999999999974E-05
DataValue, 0.95000000000000007, 0.05, 6.814300000000001E-06, 1.7250000000000002E-12, -6.8024E-06, 6.814300000000001E-06, 1.7250000000000002E-12, 6.8024E-06, 1.7888000000000006E-05
DataValue, 0.97500000000000009, 0.05, 7.2477000000000009E-06, 1.7750000000000002E-12, -7.2623000000000008E-06, 7.2477000000000009E-06, 1.7750000000000002E-12, 7.2623000000000008E-06, 1.7335999999999981E-05
DataValue, 1, 0.05, 7.6729E-06, 2.055E-12, -7.6901000000000011E-06, 7.6729E-06, 2.055E-12, 7.6901000000000011E-06, 1.7008000000000051E-05
DataValue, 1.0250000000000001, 0.05, 8.2078000000000013E-06, 2.115E-12, -8.1573E-06, 8.2078000000000013E-06, 2.115E-12, 8.1573E-06, 2.1395999999999908E-05
DataValue, 1.05, 0.05, 8.6844000000000011E-06, 1.7950000000000001E-12, -8.6775000000000012E-06, 8.6844000000000011E-06, 1.7950000000000001E-12, 8.6775000000000012E-06, 1.906400000000006E-05
DataValue, 1.075, 0.05, 9.18E-06, 2.3250000000000003E-12, -9.1662E-06, 9.18E-06, 2.3250000000000003E-12, 9.1662E-06, 1.9824000000000036E-05
DataValue, 1.1, 0.05, 9.7224E-06, 2.135E-12, -9.7073000000000011E-06, 9.7224E-06, 2.135E-12, 9.7073000000000011E-06, 2.1695999999999888E-05
