
SetupTitle, IdVg_Vd_par
PrimitiveTest, I/V Sweep
TestParameter, Context.MainFrame, B1500A
TestParameter, Channel.UnitType, SMU, SMU, SMU
TestParameter, Channel.Unit, SMU3:HR, SMU2:HR, SMU1:HR
TestParameter, Channel.IName, Id, Ig, Is
TestParameter, Channel.VName, Vd, Vg, Vs
TestParameter, Channel.Mode, V, V, V
TestParameter, Channel.Func, VAR2, VAR1, CONST
TestParameter, Channel.Index, 
TestParameter, Channel.Time, 
TestParameter, Measurement.Port.Unit, SMU3:HR, SMU2:HR, SMU1:HR
TestParameter, Measurement.Port.SeriesResistor, NONE, NONE, NONE
TestParameter, Measurement.Port.Filter, ON, ON, ON
TestParameter, Measurement.Port.OutputVoltageComparison, 0, 0, 0
TestParameter, Measurement.Primary.Locus, Double
TestParameter, Measurement.Primary.Scale, LINEAR
TestParameter, Measurement.Primary.Start, -1
TestParameter, Measurement.Primary.Stop, 2
TestParameter, Measurement.Primary.Step, 0.025
TestParameter, Measurement.Primary.Compliance, 0.1
TestParameter, Measurement.Primary.PowerCompliance, 0
TestParameter, Measurement.Aborting.Condition, STOP AT ANY ABNORMAL
TestParameter, Measurement.PostOutput.Value, START
TestParameter, Measurement.PostOutput.Retention, OFF
TestParameter, Measurement.Secondary.Start, 0.05
TestParameter, Measurement.Secondary.Count, 2
TestParameter, Measurement.Secondary.Step, 0.95000000000000007
TestParameter, Measurement.Secondary.Compliance, 0.1
TestParameter, Measurement.Secondary.PowerCompliance, 0
TestParameter, Measurement.Bias.Source, 0.05, -1, 0
TestParameter, Measurement.Bias.Compliance, 0.1, 0.1, 0.1
TestParameter, Measurement.Monitor.Unit, SMU3:HR, SMU2:HR, SMU1:HR
TestParameter, Measurement.Monitor.Adc, HR ADC, HR ADC, HR ADC
TestParameter, Measurement.Monitor.Measurement, Compliance Side, Compliance Side, Compliance Side
TestParameter, Measurement.Monitor.RangingMode, LIMITED, LIMITED, LIMITED
TestParameter, Measurement.Monitor.RangeBoundary, 1nA, 1nA, 1nA
TestParameter, Measurement.Monitor.RangeRating, BY FULL RANGE, BY FULL RANGE, BY FULL RANGE
TestParameter, Measurement.Monitor.RangeRatingCoeff, 50, 50, 50
TestParameter, Measurement.Timing.Hold, 0
TestParameter, Measurement.Timing.Delay, 0
TestParameter, Measurement.Adc.HighSpeed.Mode, AUTO
TestParameter, Measurement.Adc.HighSpeed.Coeff, 1
TestParameter, Measurement.Adc.HighResolution.AutoZero, OFF
TestParameter, Measurement.Adc.HighResolution.Mode, AUTO
TestParameter, Measurement.Adc.HighResolution.Coeff, 6
TestParameter, Measurement.WaitTime.Source.Coeff, 1
TestParameter, Measurement.WaitTime.Source.Offset, 0
TestParameter, Measurement.WaitTime.Monitor.Coeff, 1
TestParameter, Measurement.WaitTime.Monitor.Offset, 0
TestParameter, Function.User.Name, absId, absIg, absIs, gm
TestParameter, Function.User.Unit, A, A, A, S
TestParameter, Function.User.Definition, abs(Id), abs(Ig), abs(Is), diff(abs(Id))/diff(Vg)
TestParameter, Output.Graph.Enabled, true
TestParameter, Output.Graph.AutoScaling, false
TestParameter, Output.Graph.XAxis.Data, Vg
TestParameter, Output.Graph.XAxis.Scale, Linear
TestParameter, Output.Graph.XAxis.Left, -1
TestParameter, Output.Graph.XAxis.Right, 2
TestParameter, Output.Graph.XAxis.RunTimeAutoScale, false
TestParameter, Output.Graph.YAxis.Data, gm, absId, absIg, absIs
TestParameter, Output.Graph.YAxis.Scale, Linear, Log, Log, Log
TestParameter, Output.Graph.YAxis.Bottom, 0, 1E-15, 1E-15, 1E-15
TestParameter, Output.Graph.YAxis.Top, 1, 0.001, 0.001, 0.001
TestParameter, Output.Graph.YAxis.Group, , , , 
TestParameter, Output.Graph.YAxis.RunTimeAutoScale, true, false, false, false
TestParameter, Output.List.Data, Vg, Vd, Id, Is, Ig, absId, absIs, absIg, gm
TestParameter, AutoAnalysis.Interpolation, false
TestParameter, AutoAnalysis.Var2StepCount, 1
TestParameter, AutoAnalysis.Var2StepScript, 
TestParameter, AutoAnalysis.Line1.Enabled, false
TestParameter, AutoAnalysis.Line1.Type, 1
TestParameter, AutoAnalysis.Line1.Fix, True
TestParameter, AutoAnalysis.Line1.YAxis, 0
TestParameter, AutoAnalysis.Line1.Point1.Type, 0
TestParameter, AutoAnalysis.Line1.Point1.XY.X, 
TestParameter, AutoAnalysis.Line1.Point1.XY.Y, 
TestParameter, AutoAnalysis.Line1.Point1.Data.Var, 
TestParameter, AutoAnalysis.Line1.Point1.Data.Condition, 
TestParameter, AutoAnalysis.Line1.Point1.Data.Start, false
TestParameter, AutoAnalysis.Line1.Point1.Data.StartVar, 
TestParameter, AutoAnalysis.Line1.Point1.Data.StartCondition, 
TestParameter, AutoAnalysis.Line1.Point2.Type, 0
TestParameter, AutoAnalysis.Line1.Point2.XY.X, 
TestParameter, AutoAnalysis.Line1.Point2.XY.Y, 
TestParameter, AutoAnalysis.Line1.Point2.Data.Var, 
TestParameter, AutoAnalysis.Line1.Point2.Data.Condition, 
TestParameter, AutoAnalysis.Line1.Point2.Data.Start, false
TestParameter, AutoAnalysis.Line1.Point2.Data.StartVar, 
TestParameter, AutoAnalysis.Line1.Point2.Data.StartCondition, 
TestParameter, AutoAnalysis.Line1.GradientExpr, 0
TestParameter, AutoAnalysis.Line2.Enabled, false
TestParameter, AutoAnalysis.Line2.Type, 1
TestParameter, AutoAnalysis.Line2.Fix, True
TestParameter, AutoAnalysis.Line2.YAxis, 0
TestParameter, AutoAnalysis.Line2.Point1.Type, 0
TestParameter, AutoAnalysis.Line2.Point1.XY.X, 
TestParameter, AutoAnalysis.Line2.Point1.XY.Y, 
TestParameter, AutoAnalysis.Line2.Point1.Data.Var, 
TestParameter, AutoAnalysis.Line2.Point1.Data.Condition, 
TestParameter, AutoAnalysis.Line2.Point1.Data.Start, false
TestParameter, AutoAnalysis.Line2.Point1.Data.StartVar, 
TestParameter, AutoAnalysis.Line2.Point1.Data.StartCondition, 
TestParameter, AutoAnalysis.Line2.Point2.Type, 0
TestParameter, AutoAnalysis.Line2.Point2.XY.X, 
TestParameter, AutoAnalysis.Line2.Point2.XY.Y, 
TestParameter, AutoAnalysis.Line2.Point2.Data.Var, 
TestParameter, AutoAnalysis.Line2.Point2.Data.Condition, 
TestParameter, AutoAnalysis.Line2.Point2.Data.Start, false
TestParameter, AutoAnalysis.Line2.Point2.Data.StartVar, 
TestParameter, AutoAnalysis.Line2.Point2.Data.StartCondition, 
TestParameter, AutoAnalysis.Line2.GradientExpr, 0
TestParameter, AutoAnalysis.Marker.Enabled, false
TestParameter, AutoAnalysis.Marker.Data.Var, 
TestParameter, AutoAnalysis.Marker.Data.Condition, 
TestParameter, AutoAnalysis.Marker.Data.Start, false
TestParameter, AutoAnalysis.Marker.Data.StartVar, 
TestParameter, AutoAnalysis.Marker.Data.StartCondition, 
MetaData, TestRecord.EntryPoint, true
MetaData, TestRecord.RecordTime, 06/03/2025 13:00:15
MetaData, TestRecord.TestTarget, R[6]_D[6]_L[1000]
MetaData, TestRecord.IterationIndex, 2
MetaData, TestRecord.Preservation, true
MetaData, TestRecord.Flag, !
MetaData, TestRecord.Remarks, 
MetaData, TestRecord.LinkKey, dc833a92-33e0-4d1d-89a1-fb070e66f22e
MetaData, TestRecord.Parameters, 
Dimension1, 242, 242, 242, 242, 242, 242, 242, 242, 242
Dimension2, 2, 2, 2, 2, 2, 2, 2, 2, 2
DataName, Vg, Vd, Id, Ig, Is, absId, absIg, absIs, gm
DataValue, -1, 0.05, 3.4E-13, -2.3300000000000004E-12, -1.55E-12, 3.4E-13, 2.3300000000000004E-12, 1.55E-12, 
DataValue, -0.97500000000000009, 0.05, -6.0000000000000009E-14, -2.2500000000000003E-12, -1.51E-12, 6.0000000000000009E-14, 2.2500000000000003E-12, 1.51E-12, -1.1200000000000041E-11
DataValue, -0.95000000000000007, 0.05, 3.8000000000000005E-13, -2.6100000000000004E-12, -1.2900000000000002E-12, 3.8000000000000005E-13, 2.6100000000000004E-12, 1.2900000000000002E-12, 1.2799999999999991E-11
DataValue, -0.925, 0.05, 1.3E-13, -2.51E-12, -1.4400000000000001E-12, 1.3E-13, 2.51E-12, 1.4400000000000001E-12, -9.9999999999999929E-12
DataValue, -0.9, 0.05, -5E-14, -2.31E-12, -1.5200000000000002E-12, 5E-14, 2.31E-12, 1.5200000000000002E-12, -3.1999999999999973E-12
DataValue, -0.875, 0.05, -2.7E-13, -2.29E-12, -2.03E-12, 2.7E-13, 2.29E-12, 2.03E-12, 8.7999999999999932E-12
DataValue, -0.85000000000000009, 0.05, -8.0000000000000013E-14, -2.3000000000000003E-12, -1.86E-12, 8.0000000000000013E-14, 2.3000000000000003E-12, 1.86E-12, -7.6000000000000274E-12
DataValue, -0.82500000000000007, 0.05, 3.2000000000000005E-13, -2.4000000000000003E-12, -1.4400000000000001E-12, 3.2000000000000005E-13, 2.4000000000000003E-12, 1.4400000000000001E-12, 9.599999999999993E-12
DataValue, -0.8, 0.05, 4.0000000000000006E-14, -2.62E-12, -1.6300000000000001E-12, 4.0000000000000006E-14, 2.62E-12, 1.6300000000000001E-12, -1.1199999999999991E-11
DataValue, -0.775, 0.05, 3.3E-13, -2.49E-12, -1.41E-12, 3.3E-13, 2.49E-12, 1.41E-12, 1.1599999999999989E-11
DataValue, -0.75, 0.05, -1.6000000000000003E-13, -2.47E-12, -1.6600000000000002E-12, 1.6000000000000003E-13, 2.47E-12, 1.6600000000000002E-12, -6.7999999999999936E-12
DataValue, -0.72500000000000009, 0.05, -9.0000000000000008E-14, -2.4000000000000003E-12, -1.51E-12, 9.0000000000000008E-14, 2.4000000000000003E-12, 1.51E-12, -2.8000000000000107E-12
DataValue, -0.70000000000000007, 0.05, -3.3E-13, -2.4500000000000003E-12, -1.5E-12, 3.3E-13, 2.4500000000000003E-12, 1.5E-12, 9.5999999999999914E-12
DataValue, -0.675, 0.05, -2.0000000000000003E-14, -2.6500000000000002E-12, -1.5400000000000001E-12, 2.0000000000000003E-14, 2.6500000000000002E-12, 1.5400000000000001E-12, -1.2399999999999989E-11
DataValue, -0.65, 0.05, -1.7E-13, -2.2200000000000002E-12, -1.51E-12, 1.7E-13, 2.2200000000000002E-12, 1.51E-12, 5.9999999999999954E-12
DataValue, -0.625, 0.05, 3.1000000000000004E-13, -2.37E-12, -1.1900000000000002E-12, 3.1000000000000004E-13, 2.37E-12, 1.1900000000000002E-12, 5.5999999999999963E-12
DataValue, -0.6, 0.05, -3.9000000000000005E-13, -2.41E-12, -1.3800000000000002E-12, 3.9000000000000005E-13, 2.41E-12, 1.3800000000000002E-12, 3.1999999999999977E-12
DataValue, -0.57500000000000007, 0.05, -2.3000000000000003E-13, -2.23E-12, -1.5400000000000001E-12, 2.3000000000000003E-13, 2.23E-12, 1.5400000000000001E-12, -6.4000000000000236E-12
DataValue, -0.55, 0.05, -1.7E-13, -2.11E-12, -1.7000000000000002E-12, 1.7E-13, 2.11E-12, 1.7000000000000002E-12, -2.3999999999999987E-12
DataValue, -0.525, 0.05, -2.8E-13, -2.24E-12, -1.64E-12, 2.8E-13, 2.24E-12, 1.64E-12, 4.3999999999999966E-12
DataValue, -0.5, 0.05, 4.9E-13, -1.95E-12, -1.79E-12, 4.9E-13, 1.95E-12, 1.79E-12, 8.3999999999999933E-12
DataValue, -0.47500000000000003, 0.05, 2.3000000000000003E-13, -2.06E-12, -1.6100000000000002E-12, 2.3000000000000003E-13, 2.06E-12, 1.6100000000000002E-12, -1.0400000000000014E-11
DataValue, -0.45, 0.05, 7E-14, -2.19E-12, -1.73E-12, 7E-14, 2.19E-12, 1.73E-12, -6.3999999999999953E-12
DataValue, -0.42500000000000004, 0.05, -4.5000000000000005E-13, -2.51E-12, -2.09E-12, 4.5000000000000005E-13, 2.51E-12, 2.09E-12, 1.5200000000000022E-11
DataValue, -0.4, 0.05, -1.4E-13, -2.29E-12, -1.73E-12, 1.4E-13, 2.29E-12, 1.73E-12, -1.2399999999999991E-11
DataValue, -0.375, 0.05, 2.3000000000000003E-13, -2.59E-12, -1.7100000000000002E-12, 2.3000000000000003E-13, 2.59E-12, 1.7100000000000002E-12, 3.5999999999999976E-12
DataValue, -0.35000000000000003, 0.05, -7E-14, -2.6600000000000004E-12, -1.32E-12, 7E-14, 2.6600000000000004E-12, 1.32E-12, -6.40000000000001E-12
DataValue, -0.325, 0.05, 4.2000000000000003E-13, -2.4500000000000003E-12, -1.65E-12, 4.2000000000000003E-13, 2.4500000000000003E-12, 1.65E-12, 1.3999999999999989E-11
DataValue, -0.3, 0.05, -2.0000000000000003E-14, -2.23E-12, -1.7200000000000001E-12, 2.0000000000000003E-14, 2.23E-12, 1.7200000000000001E-12, -1.5999999999999987E-11
DataValue, -0.275, 0.05, -2.4000000000000004E-13, -2.41E-12, -1.79E-12, 2.4000000000000004E-13, 2.41E-12, 1.79E-12, 8.8000000000000126E-12
DataValue, -0.25, 0.05, -1.3E-13, -2.6100000000000004E-12, -1.51E-12, 1.3E-13, 2.6100000000000004E-12, 1.51E-12, -4.3999999999999974E-12
DataValue, -0.225, 0.05, -1.1000000000000001E-13, -2.29E-12, -1.83E-12, 1.1000000000000001E-13, 2.29E-12, 1.83E-12, -7.9999999999999982E-13
DataValue, -0.2, 0.05, 4.1E-13, -2.67E-12, -1.55E-12, 4.1E-13, 2.67E-12, 1.55E-12, 1.2000000000000004E-11
DataValue, -0.17500000000000002, 0.05, 2.1000000000000001E-13, -1.98E-12, -1.51E-12, 2.1000000000000001E-13, 1.98E-12, 1.51E-12, -8.0000000000000015E-12
DataValue, -0.15, 0.05, -3.4E-13, -2.4300000000000003E-12, -1.6100000000000002E-12, 3.4E-13, 2.4300000000000003E-12, 1.6100000000000002E-12, 5.1999999999999956E-12
DataValue, -0.125, 0.05, 1.7E-13, -2.47E-12, -1.95E-12, 1.7E-13, 2.47E-12, 1.95E-12, -6.8000000000000017E-12
DataValue, -0.1, 0.05, -3.3E-13, -2.42E-12, -1.9200000000000003E-12, 3.3E-13, 2.42E-12, 1.9200000000000003E-12, 6.4000000000000018E-12
DataValue, -0.075, 0.05, -3.2000000000000005E-13, -2.39E-12, -1.7500000000000002E-12, 3.2000000000000005E-13, 2.39E-12, 1.7500000000000002E-12, -3.9999999999999814E-13
DataValue, -0.05, 0.05, 1.9000000000000002E-13, -2.3500000000000003E-12, -1.7200000000000001E-12, 1.9000000000000002E-13, 2.3500000000000003E-12, 1.7200000000000001E-12, -5.2000000000000021E-12
DataValue, -0.025, 0.05, 3.6000000000000003E-13, -2.41E-12, -1.6600000000000002E-12, 3.6000000000000003E-13, 2.41E-12, 1.6600000000000002E-12, 6.8E-12
DataValue, 0, 0.05, 6.8E-13, -2.37E-12, -2.23E-12, 6.8E-13, 2.37E-12, 2.23E-12, 1.2799999999999999E-11
DataValue, 0.025, 0.05, 6.400000000000001E-13, -2.57E-12, -2.51E-12, 6.400000000000001E-13, 2.57E-12, 2.51E-12, -1.5999999999999972E-12
DataValue, 0.05, 0.05, 2.31E-12, -2.5600000000000004E-12, -3.86E-12, 2.31E-12, 2.5600000000000004E-12, 3.86E-12, 6.6799999999999992E-11
DataValue, 0.075, 0.05, 5.54E-12, -2.16E-12, -6.9900000000000007E-12, 5.54E-12, 2.16E-12, 6.9900000000000007E-12, 1.2920000000000003E-10
DataValue, 0.1, 0.05, 1.362E-11, -2.2700000000000002E-12, -1.497E-11, 1.362E-11, 2.2700000000000002E-12, 1.497E-11, 3.2319999999999988E-10
DataValue, 0.125, 0.05, 3.335E-11, -2.0700000000000003E-12, -3.43E-11, 3.335E-11, 2.0700000000000003E-12, 3.43E-11, 7.8920000000000013E-10
DataValue, 0.15, 0.05, 7.8860000000000013E-11, -1.93E-12, -8.0080000000000009E-11, 7.8860000000000013E-11, 1.93E-12, 8.0080000000000009E-11, 1.8204000000000009E-09
DataValue, 0.17500000000000002, 0.05, 1.7898E-10, -2.2000000000000003E-12, -1.7971000000000002E-10, 1.7898E-10, 2.2000000000000003E-12, 1.7971000000000002E-10, 4.0047999999999968E-09
DataValue, 0.2, 0.05, 3.882E-10, -2.46E-12, -3.8749E-10, 3.882E-10, 2.46E-12, 3.8749E-10, 8.3688000000000011E-09
DataValue, 0.225, 0.05, 7.9329000000000006E-10, -2.14E-12, -7.9470000000000006E-10, 7.9329000000000006E-10, 2.14E-12, 7.9470000000000006E-10, 1.6203600000000006E-08
DataValue, 0.25, 0.05, 1.4764E-09, -2.46E-12, -1.4648E-09, 1.4764E-09, 2.46E-12, 1.4648E-09, 2.7324400000000002E-08
DataValue, 0.275, 0.05, 2.6253E-09, -2.4500000000000003E-12, -2.6308E-09, 2.6253E-09, 2.4500000000000003E-12, 2.6308E-09, 4.5955999999999958E-08
DataValue, 0.3, 0.05, 4.4127E-09, -2.5300000000000003E-12, -4.3998E-09, 4.4127E-09, 2.5300000000000003E-12, 4.3998E-09, 7.1496000000000086E-08
DataValue, 0.325, 0.05, 6.9317E-09, -2.2700000000000002E-12, -6.9259E-09, 6.9317E-09, 2.2700000000000002E-12, 6.9259E-09, 1.0075999999999992E-07
DataValue, 0.35000000000000003, 0.05, 1.03403E-08, -2.2500000000000003E-12, -1.03273E-08, 1.03403E-08, 2.2500000000000003E-12, 1.03273E-08, 1.3634399999999989E-07
DataValue, 0.375, 0.05, 1.4702799999999999E-08, -2.39E-12, -1.4669199999999998E-08, 1.4702799999999999E-08, 2.39E-12, 1.4669199999999998E-08, 1.7450000000000017E-07
DataValue, 0.4, 0.05, 2.0147399999999997E-08, -2.0500000000000004E-12, -2.0117599999999997E-08, 2.0147399999999997E-08, 2.0500000000000004E-12, 2.0117599999999997E-08, 2.1778399999999975E-07
DataValue, 0.42500000000000004, 0.05, 2.6765E-08, -2.37E-12, -2.6672199999999996E-08, 2.6765E-08, 2.37E-12, 2.6672199999999996E-08, 2.6470399999999983E-07
DataValue, 0.45, 0.05, 3.45508E-08, -2.24E-12, -3.4524199999999996E-08, 3.45508E-08, 2.24E-12, 3.4524199999999996E-08, 3.114320000000004E-07
DataValue, 0.47500000000000003, 0.05, 4.3591799999999993E-08, -2.1700000000000002E-12, -4.3629999999999994E-08, 4.3591799999999993E-08, 2.1700000000000002E-12, 4.3629999999999994E-08, 3.6163999999999947E-07
DataValue, 0.5, 0.05, 5.3890799999999992E-08, -2.1000000000000003E-12, -5.37728E-08, 5.3890799999999992E-08, 2.1000000000000003E-12, 5.37728E-08, 4.1196000000000047E-07
DataValue, 0.525, 0.05, 6.54904E-08, -2.5300000000000003E-12, -6.543719999999999E-08, 6.54904E-08, 2.5300000000000003E-12, 6.543719999999999E-08, 4.6398399999999969E-07
DataValue, 0.55, 0.05, 7.8440399999999988E-08, -2.4000000000000003E-12, -7.83292E-08, 7.8440399999999988E-08, 2.4000000000000003E-12, 7.83292E-08, 5.1799999999999932E-07
DataValue, 0.57500000000000007, 0.05, 9.2782199999999988E-08, -2.29E-12, -9.27202E-08, 9.2782199999999988E-08, 2.29E-12, 9.27202E-08, 5.7367199999999945E-07
DataValue, 0.6, 0.05, 1.082456E-07, -2.29E-12, -1.0817199999999998E-07, 1.082456E-07, 2.29E-12, 1.0817199999999998E-07, 6.1853600000000246E-07
DataValue, 0.625, 0.05, 1.2531999999999999E-07, -2.34E-12, -1.2516E-07, 1.2531999999999999E-07, 2.34E-12, 1.2516E-07, 6.8297599999999909E-07
DataValue, 0.65, 0.05, 1.44E-07, -2.4500000000000003E-12, -1.4398E-07, 1.44E-07, 2.4500000000000003E-12, 1.4398E-07, 7.471999999999996E-07
DataValue, 0.675, 0.05, 1.6371999999999999E-07, -2.5500000000000002E-12, -1.6371999999999999E-07, 1.6371999999999999E-07, 2.5500000000000002E-12, 1.6371999999999999E-07, 7.88799999999999E-07
DataValue, 0.70000000000000007, 0.05, 1.8526E-07, -2.51E-12, -1.8526E-07, 1.8526E-07, 2.51E-12, 1.8526E-07, 8.616E-07
DataValue, 0.72500000000000009, 0.05, 2.0818E-07, -1.95E-12, -2.0785999999999998E-07, 2.0818E-07, 1.95E-12, 2.0785999999999998E-07, 9.16799999999999E-07
DataValue, 0.75, 0.05, 2.322E-07, -2E-12, -2.3192E-07, 2.322E-07, 2E-12, 2.3192E-07, 9.6080000000000336E-07
DataValue, 0.775, 0.05, 2.5822E-07, -2.28E-12, -2.5818E-07, 2.5822E-07, 2.28E-12, 2.5818E-07, 1.0407999999999988E-06
DataValue, 0.8, 0.05, 2.8512E-07, -2.46E-12, -2.8476E-07, 2.8512E-07, 2.46E-12, 2.8476E-07, 1.0759999999999993E-06
DataValue, 0.82500000000000007, 0.05, 3.141E-07, -2.39E-12, -3.1403999999999997E-07, 3.141E-07, 2.39E-12, 3.1403999999999997E-07, 1.1591999999999984E-06
DataValue, 0.85000000000000009, 0.05, 3.4432E-07, -2.13E-12, -3.4433999999999997E-07, 3.4432E-07, 2.13E-12, 3.4433999999999997E-07, 1.2087999999999996E-06
DataValue, 0.875, 0.05, 3.7596E-07, -2.4000000000000003E-12, -3.7603999999999997E-07, 3.7596E-07, 2.4000000000000003E-12, 3.7603999999999997E-07, 1.2656000000000038E-06
DataValue, 0.9, 0.05, 4.093E-07, -2.21E-12, -4.088E-07, 4.093E-07, 2.21E-12, 4.088E-07, 1.333599999999999E-06
DataValue, 0.925, 0.05, 4.4419999999999997E-07, -2.36E-12, -4.4419999999999997E-07, 4.4419999999999997E-07, 2.36E-12, 4.4419999999999997E-07, 1.3959999999999977E-06
DataValue, 0.95000000000000007, 0.05, 4.8034E-07, -2.3500000000000003E-12, -4.7984E-07, 4.8034E-07, 2.3500000000000003E-12, 4.7984E-07, 1.445600000000001E-06
DataValue, 0.97500000000000009, 0.05, 5.1761999999999995E-07, -2.41E-12, -5.1751999999999994E-07, 5.1761999999999995E-07, 2.41E-12, 5.1751999999999994E-07, 1.4911999999999956E-06
DataValue, 1, 0.05, 5.5708E-07, -2.7300000000000003E-12, -5.5664E-07, 5.5708E-07, 2.7300000000000003E-12, 5.5664E-07, 1.5784000000000081E-06
DataValue, 1.0250000000000001, 0.05, 5.9734E-07, -2.0700000000000003E-12, -5.9778E-07, 5.9734E-07, 2.0700000000000003E-12, 5.9778E-07, 1.610399999999992E-06
DataValue, 1.05, 0.05, 6.3998E-07, -2.0700000000000003E-12, -6.401E-07, 6.3998E-07, 2.0700000000000003E-12, 6.401E-07, 1.7056000000000047E-06
DataValue, 1.075, 0.05, 6.8366E-07, -2.19E-12, -6.8338E-07, 6.8366E-07, 2.19E-12, 6.8338E-07, 1.7472000000000053E-06
DataValue, 1.1, 0.05, 7.2845999999999995E-07, -2.2500000000000003E-12, -7.2828E-07, 7.2845999999999995E-07, 2.2500000000000003E-12, 7.2828E-07, 1.7919999999999896E-06
DataValue, 1.125, 0.05, 7.7551999999999995E-07, -2.3500000000000003E-12, -7.7564E-07, 7.7551999999999995E-07, 2.3500000000000003E-12, 7.7564E-07, 1.8824000000000067E-06
