
SetupTitle, IdVg_Vd_par
PrimitiveTest, I/V Sweep
TestParameter, Context.MainFrame, B1500A
TestParameter, Channel.UnitType, SMU, SMU, SMU
TestParameter, Channel.Unit, SMU3:HR, SMU2:HR, SMU1:HR
TestParameter, Channel.IName, Id, Ig, Is
TestParameter, Channel.VName, Vd, Vg, Vs
TestParameter, Channel.Mode, V, V, V
TestParameter, Channel.Func, VAR2, VAR1, CONST
TestParameter, Channel.Index, 
TestParameter, Channel.Time, 
TestParameter, Measurement.Port.Unit, SMU3:HR, SMU2:HR, SMU1:HR
TestParameter, Measurement.Port.SeriesResistor, NONE, NONE, NONE
TestParameter, Measurement.Port.Filter, ON, ON, ON
TestParameter, Measurement.Port.OutputVoltageComparison, 0, 0, 0
TestParameter, Measurement.Primary.Locus, Double
TestParameter, Measurement.Primary.Scale, LINEAR
TestParameter, Measurement.Primary.Start, -1
TestParameter, Measurement.Primary.Stop, 2
TestParameter, Measurement.Primary.Step, 0.025
TestParameter, Measurement.Primary.Compliance, 0.1
TestParameter, Measurement.Primary.PowerCompliance, 0
TestParameter, Measurement.Aborting.Condition, STOP AT ANY ABNORMAL
TestParameter, Measurement.PostOutput.Value, START
TestParameter, Measurement.PostOutput.Retention, OFF
TestParameter, Measurement.Secondary.Start, 0.05
TestParameter, Measurement.Secondary.Count, 2
TestParameter, Measurement.Secondary.Step, 0.95000000000000007
TestParameter, Measurement.Secondary.Compliance, 0.1
TestParameter, Measurement.Secondary.PowerCompliance, 0
TestParameter, Measurement.Bias.Source, 0.05, -1, 0
TestParameter, Measurement.Bias.Compliance, 0.1, 0.1, 0.1
TestParameter, Measurement.Monitor.Unit, SMU3:HR, SMU2:HR, SMU1:HR
TestParameter, Measurement.Monitor.Adc, HR ADC, HR ADC, HR ADC
TestParameter, Measurement.Monitor.Measurement, Compliance Side, Compliance Side, Compliance Side
TestParameter, Measurement.Monitor.RangingMode, LIMITED, LIMITED, LIMITED
TestParameter, Measurement.Monitor.RangeBoundary, 1nA, 1nA, 1nA
TestParameter, Measurement.Monitor.RangeRating, BY FULL RANGE, BY FULL RANGE, BY FULL RANGE
TestParameter, Measurement.Monitor.RangeRatingCoeff, 50, 50, 50
TestParameter, Measurement.Timing.Hold, 0
TestParameter, Measurement.Timing.Delay, 0
TestParameter, Measurement.Adc.HighSpeed.Mode, AUTO
TestParameter, Measurement.Adc.HighSpeed.Coeff, 1
TestParameter, Measurement.Adc.HighResolution.AutoZero, OFF
TestParameter, Measurement.Adc.HighResolution.Mode, AUTO
TestParameter, Measurement.Adc.HighResolution.Coeff, 6
TestParameter, Measurement.WaitTime.Source.Coeff, 1
TestParameter, Measurement.WaitTime.Source.Offset, 0
TestParameter, Measurement.WaitTime.Monitor.Coeff, 1
TestParameter, Measurement.WaitTime.Monitor.Offset, 0
TestParameter, Function.User.Name, absId, absIg, absIs, gm
TestParameter, Function.User.Unit, A, A, A, S
TestParameter, Function.User.Definition, abs(Id), abs(Ig), abs(Is), diff(abs(Id))/diff(Vg)
TestParameter, Output.Graph.Enabled, true
TestParameter, Output.Graph.AutoScaling, false
TestParameter, Output.Graph.XAxis.Data, Vg
TestParameter, Output.Graph.XAxis.Scale, Linear
TestParameter, Output.Graph.XAxis.Left, -1
TestParameter, Output.Graph.XAxis.Right, 2
TestParameter, Output.Graph.XAxis.RunTimeAutoScale, false
TestParameter, Output.Graph.YAxis.Data, absId, gm, absIg, absIs
TestParameter, Output.Graph.YAxis.Scale, Log, Linear, Log, Log
TestParameter, Output.Graph.YAxis.Bottom, 1E-15, 0, 1E-15, 1E-15
TestParameter, Output.Graph.YAxis.Top, 0.001, 1, 0.001, 0.001
TestParameter, Output.Graph.YAxis.Group, , , , 
TestParameter, Output.Graph.YAxis.RunTimeAutoScale, false, true, false, false
TestParameter, Output.List.Data, Vg, Vd, Id, Is, Ig, absId, absIs, absIg, gm
TestParameter, AutoAnalysis.Interpolation, false
TestParameter, AutoAnalysis.Var2StepCount, 1
TestParameter, AutoAnalysis.Var2StepScript, 
TestParameter, AutoAnalysis.Line1.Enabled, false
TestParameter, AutoAnalysis.Line1.Type, 1
TestParameter, AutoAnalysis.Line1.Fix, True
TestParameter, AutoAnalysis.Line1.YAxis, 0
TestParameter, AutoAnalysis.Line1.Point1.Type, 0
TestParameter, AutoAnalysis.Line1.Point1.XY.X, 
TestParameter, AutoAnalysis.Line1.Point1.XY.Y, 
TestParameter, AutoAnalysis.Line1.Point1.Data.Var, 
TestParameter, AutoAnalysis.Line1.Point1.Data.Condition, 
TestParameter, AutoAnalysis.Line1.Point1.Data.Start, false
TestParameter, AutoAnalysis.Line1.Point1.Data.StartVar, 
TestParameter, AutoAnalysis.Line1.Point1.Data.StartCondition, 
TestParameter, AutoAnalysis.Line1.Point2.Type, 0
TestParameter, AutoAnalysis.Line1.Point2.XY.X, 
TestParameter, AutoAnalysis.Line1.Point2.XY.Y, 
TestParameter, AutoAnalysis.Line1.Point2.Data.Var, 
TestParameter, AutoAnalysis.Line1.Point2.Data.Condition, 
TestParameter, AutoAnalysis.Line1.Point2.Data.Start, false
TestParameter, AutoAnalysis.Line1.Point2.Data.StartVar, 
TestParameter, AutoAnalysis.Line1.Point2.Data.StartCondition, 
TestParameter, AutoAnalysis.Line1.GradientExpr, 0
TestParameter, AutoAnalysis.Line2.Enabled, false
TestParameter, AutoAnalysis.Line2.Type, 1
TestParameter, AutoAnalysis.Line2.Fix, True
TestParameter, AutoAnalysis.Line2.YAxis, 0
TestParameter, AutoAnalysis.Line2.Point1.Type, 0
TestParameter, AutoAnalysis.Line2.Point1.XY.X, 
TestParameter, AutoAnalysis.Line2.Point1.XY.Y, 
TestParameter, AutoAnalysis.Line2.Point1.Data.Var, 
TestParameter, AutoAnalysis.Line2.Point1.Data.Condition, 
TestParameter, AutoAnalysis.Line2.Point1.Data.Start, false
TestParameter, AutoAnalysis.Line2.Point1.Data.StartVar, 
TestParameter, AutoAnalysis.Line2.Point1.Data.StartCondition, 
TestParameter, AutoAnalysis.Line2.Point2.Type, 0
TestParameter, AutoAnalysis.Line2.Point2.XY.X, 
TestParameter, AutoAnalysis.Line2.Point2.XY.Y, 
TestParameter, AutoAnalysis.Line2.Point2.Data.Var, 
TestParameter, AutoAnalysis.Line2.Point2.Data.Condition, 
TestParameter, AutoAnalysis.Line2.Point2.Data.Start, false
TestParameter, AutoAnalysis.Line2.Point2.Data.StartVar, 
TestParameter, AutoAnalysis.Line2.Point2.Data.StartCondition, 
TestParameter, AutoAnalysis.Line2.GradientExpr, 0
TestParameter, AutoAnalysis.Marker.Enabled, false
TestParameter, AutoAnalysis.Marker.Data.Var, 
TestParameter, AutoAnalysis.Marker.Data.Condition, 
TestParameter, AutoAnalysis.Marker.Data.Start, false
TestParameter, AutoAnalysis.Marker.Data.StartVar, 
TestParameter, AutoAnalysis.Marker.Data.StartCondition, 
MetaData, TestRecord.EntryPoint, true
MetaData, TestRecord.RecordTime, 06/03/2025 14:44:39
MetaData, TestRecord.TestTarget, R[5]_D[6]_L[80]
MetaData, TestRecord.IterationIndex, 1
MetaData, TestRecord.Preservation, true
MetaData, TestRecord.Flag, !
MetaData, TestRecord.Remarks, 
MetaData, TestRecord.LinkKey, 4fceb96e-4dce-48ad-b90a-b84a01f55584
MetaData, TestRecord.Parameters, 
Dimension1, 242, 242, 242, 242, 242, 242, 242, 242, 242
Dimension2, 2, 2, 2, 2, 2, 2, 2, 2, 2
DataName, Vg, Vd, Id, Ig, Is, absId, absIg, absIs, gm
DataValue, -1, 0.05, -5.2213000000000006E-11, 2.0250000000000004E-12, -5.7600000000000007E-13, 5.2213000000000006E-11, 2.0250000000000004E-12, 5.7600000000000007E-13, 
DataValue, -0.97500000000000009, 0.05, 3.6947000000000006E-11, 2.3450000000000002E-12, -1.6060000000000002E-12, 3.6947000000000006E-11, 2.3450000000000002E-12, 1.6060000000000002E-12, -6.1064000000000214E-10
DataValue, -0.95000000000000007, 0.05, 5.8517000000000008E-11, 2.335E-12, -2.1160000000000003E-12, 5.8517000000000008E-11, 2.335E-12, 2.1160000000000003E-12, 8.6279999999999934E-10
DataValue, -0.925, 0.05, 1.7687000000000002E-11, 1.975E-12, -2.076E-12, 1.7687000000000002E-11, 1.975E-12, 2.076E-12, -1.6331999999999987E-09
DataValue, -0.9, 0.05, -3.5033E-11, 1.835E-12, -1.786E-12, 3.5033E-11, 1.835E-12, 1.786E-12, 6.9383999999999933E-10
DataValue, -0.875, 0.05, -5.9793000000000007E-11, 2.215E-12, -1.276E-12, 5.9793000000000007E-11, 2.215E-12, 1.276E-12, 9.9039999999999939E-10
DataValue, -0.85000000000000009, 0.05, -2.2133000000000002E-11, 2.395E-12, -8.3600000000000007E-13, 2.2133000000000002E-11, 2.395E-12, 8.3600000000000007E-13, -1.5064000000000055E-09
DataValue, -0.82500000000000007, 0.05, 3.3407000000000004E-11, 2.745E-12, -1.1460000000000002E-12, 3.3407000000000004E-11, 2.745E-12, 1.1460000000000002E-12, 4.509599999999997E-10
DataValue, -0.8, 0.05, 6.0067E-11, 2.5050000000000003E-12, -1.736E-12, 6.0067E-11, 2.5050000000000003E-12, 1.736E-12, 1.0663999999999991E-09
DataValue, -0.775, 0.05, 2.8307000000000004E-11, 1.7350000000000002E-12, -2.0960000000000004E-12, 2.8307000000000004E-11, 1.7350000000000002E-12, 2.0960000000000004E-12, -1.2703999999999991E-09
DataValue, -0.75, 0.05, -2.9303000000000005E-11, 1.575E-12, -1.8360000000000003E-12, 2.9303000000000005E-11, 1.575E-12, 1.8360000000000003E-12, 3.9840000000000008E-11
DataValue, -0.72500000000000009, 0.05, -5.8943E-11, 1.9450000000000003E-12, -9.96E-13, 5.8943E-11, 1.9450000000000003E-12, 9.96E-13, 1.1856000000000043E-09
DataValue, -0.70000000000000007, 0.05, -3.1263000000000004E-11, 2.265E-12, -3.66E-13, 3.1263000000000004E-11, 2.265E-12, 3.66E-13, -1.107199999999999E-09
DataValue, -0.675, 0.05, 2.4667E-11, 2.545E-12, -1.2460000000000001E-12, 2.4667E-11, 2.545E-12, 1.2460000000000001E-12, -2.6383999999999989E-10
DataValue, -0.65, 0.05, 5.7297000000000005E-11, 2.485E-12, -1.8660000000000003E-12, 5.7297000000000005E-11, 2.485E-12, 1.8660000000000003E-12, 1.3051999999999992E-09
DataValue, -0.625, 0.05, 3.5647E-11, 2.065E-12, -2.286E-12, 3.5647E-11, 2.065E-12, 2.286E-12, -8.6599999999999939E-10
DataValue, -0.6, 0.05, -1.8903E-11, 1.8450000000000003E-12, -2.2660000000000002E-12, 1.8903E-11, 1.8450000000000003E-12, 2.2660000000000002E-12, -6.6975999999999945E-10
DataValue, -0.57500000000000007, 0.05, -5.5063E-11, 1.755E-12, -1.0960000000000002E-12, 5.5063E-11, 1.755E-12, 1.0960000000000002E-12, 1.4464000000000053E-09
DataValue, -0.55, 0.05, -3.9093000000000004E-11, 2.6250000000000002E-12, -6.9600000000000006E-13, 3.9093000000000004E-11, 2.6250000000000002E-12, 6.9600000000000006E-13, -6.3879999999999939E-10
DataValue, -0.525, 0.05, 1.4757000000000003E-11, 2.765E-12, -1.176E-12, 1.4757000000000003E-11, 2.765E-12, 1.176E-12, -9.7343999999999928E-10
DataValue, -0.5, 0.05, 5.4497000000000006E-11, 2.695E-12, -1.786E-12, 5.4497000000000006E-11, 2.695E-12, 1.786E-12, 1.5895999999999987E-09
DataValue, -0.47500000000000003, 0.05, 4.1657E-11, 1.955E-12, -2.126E-12, 4.1657E-11, 1.955E-12, 2.126E-12, -5.1360000000000089E-10
DataValue, -0.45, 0.05, -1.1763000000000002E-11, 1.5950000000000002E-12, -1.736E-12, 1.1763000000000002E-11, 1.5950000000000002E-12, 1.736E-12, -1.195759999999999E-09
DataValue, -0.42500000000000004, 0.05, -5.1993000000000006E-11, 1.7850000000000002E-12, -1.5760000000000002E-12, 5.1993000000000006E-11, 1.7850000000000002E-12, 1.5760000000000002E-12, 1.6092000000000025E-09
DataValue, -0.4, 0.05, -4.6133000000000006E-11, 2.315E-12, -8.96E-13, 4.6133000000000006E-11, 2.315E-12, 8.96E-13, -2.3439999999999978E-10
DataValue, -0.375, 0.05, 5.2970000000000006E-12, 2.6050000000000003E-12, -7.56E-13, 5.2970000000000006E-12, 2.6050000000000003E-12, 7.56E-13, -1.6334399999999987E-09
DataValue, -0.35000000000000003, 0.05, 4.9537000000000004E-11, 2.465E-12, -1.3460000000000001E-12, 4.9537000000000004E-11, 2.465E-12, 1.3460000000000001E-12, 1.7696000000000027E-09
DataValue, -0.325, 0.05, 4.9137000000000004E-11, 2.315E-12, -1.906E-12, 4.9137000000000004E-11, 2.315E-12, 1.906E-12, -1.5999999999999984E-11
DataValue, -0.3, 0.05, 9.3700000000000015E-13, 1.565E-12, -2.206E-12, 9.3700000000000015E-13, 1.565E-12, 2.206E-12, -1.9279999999999983E-09
DataValue, -0.275, 0.05, -4.7933E-11, 1.575E-12, -1.7460000000000002E-12, 4.7933E-11, 1.575E-12, 1.7460000000000002E-12, 1.8798400000000025E-09
DataValue, -0.25, 0.05, -5.0013000000000003E-11, 2.3250000000000003E-12, -1.266E-12, 5.0013000000000003E-11, 2.3250000000000003E-12, 1.266E-12, 8.3199999999999956E-11
DataValue, -0.225, 0.05, 2.0700000000000003E-13, 2.3450000000000002E-12, -1.8860000000000002E-12, 2.0700000000000003E-13, 2.3450000000000002E-12, 1.8860000000000002E-12, -1.9922400000000006E-09
DataValue, -0.2, 0.05, 4.9087E-11, 2.3450000000000002E-12, -4.6160000000000005E-12, 4.9087E-11, 2.3450000000000002E-12, 4.6160000000000005E-12, 1.9552000000000004E-09
DataValue, -0.17500000000000002, 0.05, 5.8417E-11, 1.975E-12, -8.906000000000001E-12, 5.8417E-11, 1.975E-12, 8.906000000000001E-12, 3.7320000000000017E-10
DataValue, -0.15, 0.05, 2.1457000000000003E-11, 1.4150000000000001E-12, -1.8526E-11, 2.1457000000000003E-11, 1.4150000000000001E-12, 1.8526E-11, -1.4783999999999987E-09
DataValue, -0.125, 0.05, -7.353E-12, 1.375E-12, -3.7566000000000004E-11, 7.353E-12, 1.375E-12, 3.7566000000000004E-11, -5.6416000000000025E-10
DataValue, -0.1, 0.05, 3.3547E-11, 2.545E-12, -8.7386000000000012E-11, 3.3547E-11, 2.545E-12, 8.7386000000000012E-11, 1.0477600000000003E-09
DataValue, -0.075, 0.05, 1.8497700000000002E-10, 2.7550000000000003E-12, -1.93296E-10, 1.8497700000000002E-10, 2.7550000000000003E-12, 1.93296E-10, 6.0571999999999985E-09
DataValue, -0.05, 0.05, 4.7307700000000006E-10, 2.4550000000000003E-12, -4.3554600000000003E-10, 4.7307700000000006E-10, 2.4550000000000003E-12, 4.3554600000000003E-10, 1.1524000000000006E-08
DataValue, -0.025, 0.05, 9.62957E-10, 2.215E-12, -8.9800600000000005E-10, 9.62957E-10, 2.215E-12, 8.9800600000000005E-10, 1.95952E-08
DataValue, 0, 0.05, 1.88867E-09, 2.015E-12, -1.90804E-09, 1.88867E-09, 2.015E-12, 1.90804E-09, 3.7028519999999993E-08
DataValue, 0.025, 0.05, 3.86787E-09, 1.5550000000000001E-12, -3.84294E-09, 3.86787E-09, 1.5550000000000001E-12, 3.84294E-09, 7.9168000000000011E-08
DataValue, 0.05, 0.05, 7.33957E-09, 1.755E-12, -7.34824E-09, 7.33957E-09, 1.755E-12, 7.34824E-09, 1.38868E-07
DataValue, 0.075, 0.05, 1.31982E-08, 2.185E-12, -1.3439199999999998E-08, 1.31982E-08, 2.185E-12, 1.3439199999999998E-08, 2.343452E-07
DataValue, 0.1, 0.05, 2.2535799999999997E-08, 2.7850000000000004E-12, -2.3049199999999998E-08, 2.2535799999999997E-08, 2.7850000000000004E-12, 2.3049199999999998E-08, 3.7350399999999974E-07
DataValue, 0.125, 0.05, 3.6641599999999996E-08, 2.2750000000000003E-12, -3.68214E-08, 3.6641599999999996E-08, 2.2750000000000003E-12, 3.68214E-08, 5.6423200000000007E-07
DataValue, 0.15, 0.05, 5.6414999999999993E-08, 2.2950000000000002E-12, -5.63714E-08, 5.6414999999999993E-08, 2.2950000000000002E-12, 5.63714E-08, 7.9093600000000006E-07
DataValue, 0.17500000000000002, 0.05, 8.39816E-08, 2.395E-12, -8.3580999999999986E-08, 8.39816E-08, 2.395E-12, 8.3580999999999986E-08, 1.1026639999999991E-06
DataValue, 0.2, 0.05, 1.1893999999999999E-07, 1.8650000000000002E-12, -1.1936E-07, 1.1893999999999999E-07, 1.8650000000000002E-12, 1.1936E-07, 1.3983360000000002E-06
DataValue, 0.225, 0.05, 1.655E-07, 1.825E-12, -1.6483999999999999E-07, 1.655E-07, 1.825E-12, 1.6483999999999999E-07, 1.8624000000000004E-06
DataValue, 0.25, 0.05, 2.1796E-07, 1.8950000000000003E-12, -2.1676E-07, 2.1796E-07, 1.8950000000000003E-12, 2.1676E-07, 2.0984000000000009E-06
DataValue, 0.275, 0.05, 2.856E-07, 1.6350000000000002E-12, -2.8415999999999997E-07, 2.856E-07, 1.6350000000000002E-12, 2.8415999999999997E-07, 2.7055999999999983E-06
DataValue, 0.3, 0.05, 3.6078E-07, 1.535E-12, -3.5941999999999997E-07, 3.6078E-07, 1.535E-12, 3.5941999999999997E-07, 3.0072000000000023E-06
DataValue, 0.325, 0.05, 4.5156E-07, 1.675E-12, -4.476E-07, 4.5156E-07, 1.675E-12, 4.476E-07, 3.6311999999999975E-06
DataValue, 0.35000000000000003, 0.05, 5.4734E-07, 1.625E-12, -5.3998E-07, 5.4734E-07, 1.625E-12, 5.3998E-07, 3.8311999999999956E-06
DataValue, 0.375, 0.05, 6.5526E-07, 1.7250000000000002E-12, -6.5856E-07, 6.5526E-07, 1.7250000000000002E-12, 6.5856E-07, 4.316800000000005E-06
DataValue, 0.4, 0.05, 7.9128E-07, 1.3250000000000001E-12, -7.8222E-07, 7.9128E-07, 1.3250000000000001E-12, 7.8222E-07, 5.440799999999998E-06
DataValue, 0.42500000000000004, 0.05, 9.1312E-07, 1.485E-12, -9.1565999999999993E-07, 9.1312E-07, 1.485E-12, 9.1565999999999993E-07, 4.8735999999999951E-06
DataValue, 0.45, 0.05, 1.05682E-06, 1.5150000000000001E-12, -1.05858E-06, 1.05682E-06, 1.5150000000000001E-12, 1.05858E-06, 5.7480000000000032E-06
DataValue, 0.47500000000000003, 0.05, 1.2133E-06, 2.7850000000000004E-12, -1.2148000000000002E-06, 1.2133E-06, 2.7850000000000004E-12, 1.2148000000000002E-06, 6.2592000000000018E-06
DataValue, 0.5, 0.05, 1.3812000000000002E-06, 2.4250000000000003E-12, -1.3704E-06, 1.3812000000000002E-06, 2.4250000000000003E-12, 1.3704E-06, 6.7160000000000141E-06
DataValue, 0.525, 0.05, 1.5447000000000002E-06, 2.285E-12, -1.5451000000000003E-06, 1.5447000000000002E-06, 2.285E-12, 1.5451000000000003E-06, 6.5399999999999941E-06
DataValue, 0.55, 0.05, 1.7326000000000002E-06, 2.615E-12, -1.7383000000000002E-06, 1.7326000000000002E-06, 2.615E-12, 1.7383000000000002E-06, 7.51599999999999E-06
DataValue, 0.57500000000000007, 0.05, 1.9382000000000003E-06, 2.7250000000000002E-12, -1.9415000000000004E-06, 1.9382000000000003E-06, 2.7250000000000002E-12, 1.9415000000000004E-06, 8.2240000000000012E-06
DataValue, 0.6, 0.05, 2.1585E-06, 2.565E-12, -2.1596E-06, 2.1585E-06, 2.565E-12, 2.1596E-06, 8.8120000000000234E-06
DataValue, 0.625, 0.05, 2.3722000000000003E-06, 2.5750000000000002E-12, -2.3761000000000004E-06, 2.3722000000000003E-06, 2.5750000000000002E-12, 2.3761000000000004E-06, 8.548E-06
DataValue, 0.65, 0.05, 2.5937000000000003E-06, 2.235E-12, -2.5955000000000004E-06, 2.5937000000000003E-06, 2.235E-12, 2.5955000000000004E-06, 8.859999999999988E-06
DataValue, 0.675, 0.05, 2.8403E-06, 1.885E-12, -2.8353E-06, 2.8403E-06, 1.885E-12, 2.8353E-06, 9.8639999999999872E-06
DataValue, 0.70000000000000007, 0.05, 3.1133000000000003E-06, 1.525E-12, -3.1057E-06, 3.1133000000000003E-06, 1.525E-12, 3.1057E-06, 1.0919999999999997E-05
DataValue, 0.72500000000000009, 0.05, 3.3909000000000004E-06, 1.2750000000000001E-12, -3.3747000000000005E-06, 3.3909000000000004E-06, 1.2750000000000001E-12, 3.3747000000000005E-06, 1.1103999999999994E-05
DataValue, 0.75, 0.05, 3.6574000000000003E-06, 1.7250000000000002E-12, -3.6515000000000005E-06, 3.6574000000000003E-06, 1.7250000000000002E-12, 3.6515000000000005E-06, 1.0660000000000034E-05
DataValue, 0.775, 0.05, 3.9288E-06, 1.7250000000000002E-12, -3.9332000000000007E-06, 3.9288E-06, 1.7250000000000002E-12, 3.9332000000000007E-06, 1.0855999999999992E-05
DataValue, 0.8, 0.05, 4.2415000000000008E-06, 2.1250000000000003E-12, -4.2340000000000005E-06, 4.2415000000000008E-06, 2.1250000000000003E-12, 4.2340000000000005E-06, 1.2508000000000005E-05
DataValue, 0.82500000000000007, 0.05, 4.5415000000000005E-06, 2.515E-12, -4.5522E-06, 4.5415000000000005E-06, 2.515E-12, 4.5522E-06, 1.1999999999999977E-05
DataValue, 0.85000000000000009, 0.05, 4.8608E-06, 2.415E-12, -4.8741000000000005E-06, 4.8608E-06, 2.415E-12, 4.8741000000000005E-06, 1.2771999999999974E-05
DataValue, 0.875, 0.05, 5.2181000000000009E-06, 2.6550000000000003E-12, -5.2043E-06, 5.2181000000000009E-06, 2.6550000000000003E-12, 5.2043E-06, 1.4292000000000083E-05
DataValue, 0.9, 0.05, 5.560000000000001E-06, 2.385E-12, -5.5592000000000009E-06, 5.560000000000001E-06, 2.385E-12, 5.5592000000000009E-06, 1.3675999999999991E-05
DataValue, 0.925, 0.05, 5.8800000000000005E-06, 2.485E-12, -5.9064000000000007E-06, 5.8800000000000005E-06, 2.485E-12, 5.9064000000000007E-06, 1.2799999999999967E-05
DataValue, 0.95000000000000007, 0.05, 6.2556000000000007E-06, 2.035E-12, -6.2678E-06, 6.2556000000000007E-06, 2.035E-12, 6.2678E-06, 1.5023999999999997E-05
DataValue, 0.97500000000000009, 0.05, 6.6473000000000007E-06, 2.1950000000000002E-12, -6.6538000000000006E-06, 6.6473000000000007E-06, 2.1950000000000002E-12, 6.6538000000000006E-06, 1.5667999999999986E-05
DataValue, 1, 0.05, 7.043400000000001E-06, 1.4550000000000002E-12, -7.0213000000000009E-06, 7.043400000000001E-06, 1.4550000000000002E-12, 7.0213000000000009E-06, 1.5844000000000071E-05
