
SetupTitle, IdVg_Vd_par
PrimitiveTest, I/V Sweep
TestParameter, Context.MainFrame, B1500A
TestParameter, Channel.UnitType, SMU, SMU, SMU
TestParameter, Channel.Unit, SMU3:HR, SMU2:HR, SMU1:HR
TestParameter, Channel.IName, Id, Ig, Is
TestParameter, Channel.VName, Vd, Vg, Vs
TestParameter, Channel.Mode, V, V, V
TestParameter, Channel.Func, VAR2, VAR1, CONST
TestParameter, Channel.Index, 
TestParameter, Channel.Time, 
TestParameter, Measurement.Port.Unit, SMU3:HR, SMU2:HR, SMU1:HR
TestParameter, Measurement.Port.SeriesResistor, NONE, NONE, NONE
TestParameter, Measurement.Port.Filter, ON, ON, ON
TestParameter, Measurement.Port.OutputVoltageComparison, 0, 0, 0
TestParameter, Measurement.Primary.Locus, Double
TestParameter, Measurement.Primary.Scale, LINEAR
TestParameter, Measurement.Primary.Start, -1
TestParameter, Measurement.Primary.Stop, 2
TestParameter, Measurement.Primary.Step, 0.025
TestParameter, Measurement.Primary.Compliance, 0.1
TestParameter, Measurement.Primary.PowerCompliance, 0
TestParameter, Measurement.Aborting.Condition, STOP AT ANY ABNORMAL
TestParameter, Measurement.PostOutput.Value, START
TestParameter, Measurement.PostOutput.Retention, OFF
TestParameter, Measurement.Secondary.Start, 0.05
TestParameter, Measurement.Secondary.Count, 2
TestParameter, Measurement.Secondary.Step, 0.95000000000000007
TestParameter, Measurement.Secondary.Compliance, 0.1
TestParameter, Measurement.Secondary.PowerCompliance, 0
TestParameter, Measurement.Bias.Source, 0.05, -1, 0
TestParameter, Measurement.Bias.Compliance, 0.1, 0.1, 0.1
TestParameter, Measurement.Monitor.Unit, SMU3:HR, SMU2:HR, SMU1:HR
TestParameter, Measurement.Monitor.Adc, HR ADC, HR ADC, HR ADC
TestParameter, Measurement.Monitor.Measurement, Compliance Side, Compliance Side, Compliance Side
TestParameter, Measurement.Monitor.RangingMode, LIMITED, LIMITED, LIMITED
TestParameter, Measurement.Monitor.RangeBoundary, 1nA, 1nA, 1nA
TestParameter, Measurement.Monitor.RangeRating, BY FULL RANGE, BY FULL RANGE, BY FULL RANGE
TestParameter, Measurement.Monitor.RangeRatingCoeff, 50, 50, 50
TestParameter, Measurement.Timing.Hold, 0
TestParameter, Measurement.Timing.Delay, 0
TestParameter, Measurement.Adc.HighSpeed.Mode, AUTO
TestParameter, Measurement.Adc.HighSpeed.Coeff, 1
TestParameter, Measurement.Adc.HighResolution.AutoZero, OFF
TestParameter, Measurement.Adc.HighResolution.Mode, AUTO
TestParameter, Measurement.Adc.HighResolution.Coeff, 6
TestParameter, Measurement.WaitTime.Source.Coeff, 1
TestParameter, Measurement.WaitTime.Source.Offset, 0
TestParameter, Measurement.WaitTime.Monitor.Coeff, 1
TestParameter, Measurement.WaitTime.Monitor.Offset, 0
TestParameter, Function.User.Name, absId, absIg, absIs, gm
TestParameter, Function.User.Unit, A, A, A, S
TestParameter, Function.User.Definition, abs(Id), abs(Ig), abs(Is), diff(abs(Id))/diff(Vg)
TestParameter, Output.Graph.Enabled, true
TestParameter, Output.Graph.AutoScaling, false
TestParameter, Output.Graph.XAxis.Data, Vg
TestParameter, Output.Graph.XAxis.Scale, Linear
TestParameter, Output.Graph.XAxis.Left, -1
TestParameter, Output.Graph.XAxis.Right, 2
TestParameter, Output.Graph.XAxis.RunTimeAutoScale, false
TestParameter, Output.Graph.YAxis.Data, absId, gm, absIg, absIs
TestParameter, Output.Graph.YAxis.Scale, Log, Linear, Log, Log
TestParameter, Output.Graph.YAxis.Bottom, 1E-15, 0, 1E-15, 1E-15
TestParameter, Output.Graph.YAxis.Top, 0.001, 1, 0.001, 0.001
TestParameter, Output.Graph.YAxis.Group, , , , 
TestParameter, Output.Graph.YAxis.RunTimeAutoScale, false, true, false, false
TestParameter, Output.List.Data, Vg, Vd, Id, Is, Ig, absId, absIs, absIg, gm
TestParameter, AutoAnalysis.Interpolation, false
TestParameter, AutoAnalysis.Var2StepCount, 1
TestParameter, AutoAnalysis.Var2StepScript, 
TestParameter, AutoAnalysis.Line1.Enabled, false
TestParameter, AutoAnalysis.Line1.Type, 1
TestParameter, AutoAnalysis.Line1.Fix, True
TestParameter, AutoAnalysis.Line1.YAxis, 0
TestParameter, AutoAnalysis.Line1.Point1.Type, 0
TestParameter, AutoAnalysis.Line1.Point1.XY.X, 
TestParameter, AutoAnalysis.Line1.Point1.XY.Y, 
TestParameter, AutoAnalysis.Line1.Point1.Data.Var, 
TestParameter, AutoAnalysis.Line1.Point1.Data.Condition, 
TestParameter, AutoAnalysis.Line1.Point1.Data.Start, false
TestParameter, AutoAnalysis.Line1.Point1.Data.StartVar, 
TestParameter, AutoAnalysis.Line1.Point1.Data.StartCondition, 
TestParameter, AutoAnalysis.Line1.Point2.Type, 0
TestParameter, AutoAnalysis.Line1.Point2.XY.X, 
TestParameter, AutoAnalysis.Line1.Point2.XY.Y, 
TestParameter, AutoAnalysis.Line1.Point2.Data.Var, 
TestParameter, AutoAnalysis.Line1.Point2.Data.Condition, 
TestParameter, AutoAnalysis.Line1.Point2.Data.Start, false
TestParameter, AutoAnalysis.Line1.Point2.Data.StartVar, 
TestParameter, AutoAnalysis.Line1.Point2.Data.StartCondition, 
TestParameter, AutoAnalysis.Line1.GradientExpr, 0
TestParameter, AutoAnalysis.Line2.Enabled, false
TestParameter, AutoAnalysis.Line2.Type, 1
TestParameter, AutoAnalysis.Line2.Fix, True
TestParameter, AutoAnalysis.Line2.YAxis, 0
TestParameter, AutoAnalysis.Line2.Point1.Type, 0
TestParameter, AutoAnalysis.Line2.Point1.XY.X, 
TestParameter, AutoAnalysis.Line2.Point1.XY.Y, 
TestParameter, AutoAnalysis.Line2.Point1.Data.Var, 
TestParameter, AutoAnalysis.Line2.Point1.Data.Condition, 
TestParameter, AutoAnalysis.Line2.Point1.Data.Start, false
TestParameter, AutoAnalysis.Line2.Point1.Data.StartVar, 
TestParameter, AutoAnalysis.Line2.Point1.Data.StartCondition, 
TestParameter, AutoAnalysis.Line2.Point2.Type, 0
TestParameter, AutoAnalysis.Line2.Point2.XY.X, 
TestParameter, AutoAnalysis.Line2.Point2.XY.Y, 
TestParameter, AutoAnalysis.Line2.Point2.Data.Var, 
TestParameter, AutoAnalysis.Line2.Point2.Data.Condition, 
TestParameter, AutoAnalysis.Line2.Point2.Data.Start, false
TestParameter, AutoAnalysis.Line2.Point2.Data.StartVar, 
TestParameter, AutoAnalysis.Line2.Point2.Data.StartCondition, 
TestParameter, AutoAnalysis.Line2.GradientExpr, 0
TestParameter, AutoAnalysis.Marker.Enabled, false
TestParameter, AutoAnalysis.Marker.Data.Var, 
TestParameter, AutoAnalysis.Marker.Data.Condition, 
TestParameter, AutoAnalysis.Marker.Data.Start, false
TestParameter, AutoAnalysis.Marker.Data.StartVar, 
TestParameter, AutoAnalysis.Marker.Data.StartCondition, 
MetaData, TestRecord.EntryPoint, true
MetaData, TestRecord.RecordTime, 06/03/2025 15:28:30
MetaData, TestRecord.TestTarget, R[5]_D[6]_L[70]
MetaData, TestRecord.IterationIndex, 1
MetaData, TestRecord.Preservation, true
MetaData, TestRecord.Flag, !
MetaData, TestRecord.Remarks, 
MetaData, TestRecord.LinkKey, 5dd9778c-c6e2-403c-b8d3-04077561d002
MetaData, TestRecord.Parameters, 
Dimension1, 242, 242, 242, 242, 242, 242, 242, 242, 242
Dimension2, 2, 2, 2, 2, 2, 2, 2, 2, 2
DataName, Vg, Vd, Id, Ig, Is, absId, absIg, absIs, gm
DataValue, -1, 0.05, 4.7E-14, 7.6500000000000007E-13, -2.6460000000000002E-12, 4.7E-14, 7.6500000000000007E-13, 2.6460000000000002E-12, 
DataValue, -0.97500000000000009, 0.05, -6.3000000000000009E-14, 8.95E-13, -2.3460000000000003E-12, 6.3000000000000009E-14, 8.95E-13, 2.3460000000000003E-12, 6.4000000000000262E-13
DataValue, -0.95000000000000007, 0.05, -3.0000000000000002E-15, 8.5500000000000009E-13, -2.2160000000000003E-12, 3.0000000000000002E-15, 8.5500000000000009E-13, 2.2160000000000003E-12, -2.3999999999999983E-12
DataValue, -0.925, 0.05, 3.87E-13, 1.475E-12, -1.996E-12, 3.87E-13, 1.475E-12, 1.996E-12, 1.5359999999999986E-11
DataValue, -0.9, 0.05, 6.7E-14, 9.65E-13, -1.956E-12, 6.7E-14, 9.65E-13, 1.956E-12, -1.2799999999999989E-11
DataValue, -0.875, 0.05, -1.03E-13, 1.1750000000000001E-12, -2.3660000000000002E-12, 1.03E-13, 1.1750000000000001E-12, 2.3660000000000002E-12, 1.4399999999999987E-12
DataValue, -0.85000000000000009, 0.05, -2.3000000000000003E-14, 9.8500000000000014E-13, -2.5260000000000003E-12, 2.3000000000000003E-14, 9.8500000000000014E-13, 2.5260000000000003E-12, -3.2000000000000114E-12
DataValue, -0.82500000000000007, 0.05, 1.2700000000000001E-13, 7.75E-13, -1.996E-12, 1.2700000000000001E-13, 7.75E-13, 1.996E-12, 4.1599999999999968E-12
DataValue, -0.8, 0.05, -1.63E-13, 8.25E-13, -2.206E-12, 1.63E-13, 8.25E-13, 2.206E-12, 1.4399999999999987E-12
DataValue, -0.775, 0.05, 3.7E-14, 1.1350000000000001E-12, -2.276E-12, 3.7E-14, 1.1350000000000001E-12, 2.276E-12, -5.0399999999999963E-12
DataValue, -0.75, 0.05, 4.2700000000000005E-13, 1.2150000000000002E-12, -2.406E-12, 4.2700000000000005E-13, 1.2150000000000002E-12, 2.406E-12, 1.5599999999999987E-11
DataValue, -0.72500000000000009, 0.05, -9.3000000000000008E-14, 9.75E-13, -2.5960000000000002E-12, 9.3000000000000008E-14, 9.75E-13, 2.5960000000000002E-12, -1.336000000000005E-11
DataValue, -0.70000000000000007, 0.05, -1.3300000000000001E-13, 1.065E-12, -2.6760000000000003E-12, 1.3300000000000001E-13, 1.065E-12, 2.6760000000000003E-12, 1.5999999999999988E-12
DataValue, -0.675, 0.05, -1.93E-13, 8.95E-13, -2.2160000000000003E-12, 1.93E-13, 8.95E-13, 2.2160000000000003E-12, 2.3999999999999979E-12
DataValue, -0.65, 0.05, 1.3700000000000002E-13, 8.45E-13, -2.1960000000000003E-12, 1.3700000000000002E-13, 8.45E-13, 2.1960000000000003E-12, -2.2399999999999977E-12
DataValue, -0.625, 0.05, 7E-15, 1.1650000000000002E-12, -2.7260000000000003E-12, 7E-15, 1.1650000000000002E-12, 2.7260000000000003E-12, -5.1999999999999964E-12
DataValue, -0.6, 0.05, -1.53E-13, 1.485E-12, -2.1460000000000003E-12, 1.53E-13, 1.485E-12, 2.1460000000000003E-12, 5.8399999999999953E-12
DataValue, -0.57500000000000007, 0.05, 1.2700000000000001E-13, 1.4550000000000002E-12, -2.4260000000000004E-12, 1.2700000000000001E-13, 1.4550000000000002E-12, 2.4260000000000004E-12, -1.0400000000000032E-12
DataValue, -0.55, 0.05, -3.3300000000000005E-13, 1.015E-12, -2.136E-12, 3.3300000000000005E-13, 1.015E-12, 2.136E-12, 8.239999999999994E-12
DataValue, -0.525, 0.05, -1.4300000000000002E-13, 1.1650000000000002E-12, -2.326E-12, 1.4300000000000002E-13, 1.1650000000000002E-12, 2.326E-12, -7.5999999999999935E-12
DataValue, -0.5, 0.05, 2.47E-13, 9.950000000000001E-13, -2.0660000000000003E-12, 2.47E-13, 9.950000000000001E-13, 2.0660000000000003E-12, 4.159999999999996E-12
DataValue, -0.47500000000000003, 0.05, 1.9700000000000002E-13, 1.1750000000000001E-12, -2.176E-12, 1.9700000000000002E-13, 1.1750000000000001E-12, 2.176E-12, -2.0000000000000024E-12
DataValue, -0.45, 0.05, 4.87E-13, 1.155E-12, -2.186E-12, 4.87E-13, 1.155E-12, 2.186E-12, 1.1599999999999991E-11
DataValue, -0.42500000000000004, 0.05, 6.7E-14, 1.0850000000000001E-12, -2.236E-12, 6.7E-14, 1.0850000000000001E-12, 2.236E-12, -1.6800000000000022E-11
DataValue, -0.4, 0.05, -2.23E-13, 1.4050000000000002E-12, -2.616E-12, 2.23E-13, 1.4050000000000002E-12, 2.616E-12, 6.2399999999999944E-12
DataValue, -0.375, 0.05, -3.3000000000000005E-14, 1.0750000000000002E-12, -2.616E-12, 3.3000000000000005E-14, 1.0750000000000002E-12, 2.616E-12, -7.5999999999999935E-12
DataValue, -0.35000000000000003, 0.05, 4.0700000000000003E-13, 9.55E-13, -2.126E-12, 4.0700000000000003E-13, 9.55E-13, 2.126E-12, 1.4960000000000022E-11
DataValue, -0.325, 0.05, 3.6700000000000005E-13, 1.2150000000000002E-12, -2.2960000000000003E-12, 3.6700000000000005E-13, 1.2150000000000002E-12, 2.2960000000000003E-12, -1.5999999999999978E-12
DataValue, -0.3, 0.05, 5.57E-13, 1.475E-12, -2.4260000000000004E-12, 5.57E-13, 1.475E-12, 2.4260000000000004E-12, 7.5999999999999935E-12
DataValue, -0.275, 0.05, 1.77E-13, 1.295E-12, -2.7560000000000004E-12, 1.77E-13, 1.295E-12, 2.7560000000000004E-12, -1.5200000000000022E-11
DataValue, -0.25, 0.05, 1.2670000000000002E-12, 1.1250000000000002E-12, -3.346E-12, 1.2670000000000002E-12, 1.1250000000000002E-12, 3.346E-12, 4.3599999999999971E-11
DataValue, -0.225, 0.05, 2.4470000000000004E-12, 8.3500000000000008E-13, -4.436E-12, 2.4470000000000004E-12, 8.3500000000000008E-13, 4.436E-12, 4.7200000000000022E-11
DataValue, -0.2, 0.05, 5.5670000000000008E-12, 9.65E-13, -7.9160000000000014E-12, 5.5670000000000008E-12, 9.65E-13, 7.9160000000000014E-12, 1.2480000000000005E-10
DataValue, -0.17500000000000002, 0.05, 1.1877E-11, 8.8500000000000007E-13, -1.3646E-11, 1.1877E-11, 8.8500000000000007E-13, 1.3646E-11, 2.5240000000000003E-10
DataValue, -0.15, 0.05, 2.3887E-11, 1.425E-12, -2.7296000000000003E-11, 2.3887E-11, 1.425E-12, 2.7296000000000003E-11, 4.803999999999996E-10
DataValue, -0.125, 0.05, 5.3097E-11, 1.5050000000000002E-12, -5.5516000000000004E-11, 5.3097E-11, 1.5050000000000002E-12, 5.5516000000000004E-11, 1.1684000000000004E-09
DataValue, -0.1, 0.05, 1.06557E-10, 9.15E-13, -1.1096600000000001E-10, 1.06557E-10, 9.15E-13, 1.1096600000000001E-10, 2.1384000000000004E-09
DataValue, -0.075, 0.05, 2.35627E-10, 9.4500000000000011E-13, -2.4177600000000003E-10, 2.35627E-10, 9.4500000000000011E-13, 2.4177600000000003E-10, 5.1627999999999979E-09
DataValue, -0.05, 0.05, 4.9912700000000009E-10, 1.1650000000000002E-12, -5.04096E-10, 4.9912700000000009E-10, 1.1650000000000002E-12, 5.04096E-10, 1.0540000000000005E-08
DataValue, -0.025, 0.05, 1.0127270000000002E-09, 1.155E-12, -1.0019360000000001E-09, 1.0127270000000002E-09, 1.155E-12, 1.0019360000000001E-09, 2.0544000000000002E-08
DataValue, 0, 0.05, 1.96157E-09, 1.1750000000000001E-12, -2.00484E-09, 1.96157E-09, 1.1750000000000001E-12, 2.00484E-09, 3.7953719999999987E-08
DataValue, 0.025, 0.05, 3.85887E-09, 1.045E-12, -3.90324E-09, 3.85887E-09, 1.045E-12, 3.90324E-09, 7.5892E-08
DataValue, 0.05, 0.05, 7.39037E-09, 1.045E-12, -7.43524E-09, 7.39037E-09, 1.045E-12, 7.43524E-09, 1.4125999999999998E-07
DataValue, 0.075, 0.05, 1.3729799999999999E-08, 9.15E-13, -1.3422599999999999E-08, 1.3729799999999999E-08, 9.15E-13, 1.3422599999999999E-08, 2.535772E-07
DataValue, 0.1, 0.05, 2.2974599999999997E-08, 9.65E-13, -2.2669999999999997E-08, 2.2974599999999997E-08, 9.65E-13, 2.2669999999999997E-08, 3.6979199999999982E-07
DataValue, 0.125, 0.05, 3.66562E-08, 9.25E-13, -3.7177599999999995E-08, 3.66562E-08, 9.25E-13, 3.7177599999999995E-08, 5.4726400000000021E-07
DataValue, 0.15, 0.05, 5.7780199999999996E-08, 9.3500000000000016E-13, -5.8483799999999992E-08, 5.7780199999999996E-08, 9.3500000000000016E-13, 5.8483799999999992E-08, 8.4496000000000012E-07
DataValue, 0.17500000000000002, 0.05, 8.70646E-08, 1.335E-12, -8.708379999999999E-08, 8.70646E-08, 1.335E-12, 8.708379999999999E-08, 1.171375999999999E-06
DataValue, 0.2, 0.05, 1.229E-07, 1.195E-12, -1.2218E-07, 1.229E-07, 1.195E-12, 1.2218E-07, 1.4334160000000004E-06
DataValue, 0.225, 0.05, 1.7036E-07, 1.5550000000000001E-12, -1.7018E-07, 1.7036E-07, 1.5550000000000001E-12, 1.7018E-07, 1.8984000000000005E-06
DataValue, 0.25, 0.05, 2.264E-07, 1.185E-12, -2.2626E-07, 2.264E-07, 1.185E-12, 2.2626E-07, 2.2416000000000003E-06
DataValue, 0.275, 0.05, 2.8994E-07, 9.950000000000001E-13, -2.925E-07, 2.8994E-07, 9.950000000000001E-13, 2.925E-07, 2.5415999999999987E-06
DataValue, 0.3, 0.05, 3.6584E-07, 1.255E-12, -3.6753999999999997E-07, 3.6584E-07, 1.255E-12, 3.6753999999999997E-07, 3.0360000000000036E-06
DataValue, 0.325, 0.05, 4.572E-07, 1.1250000000000002E-12, -4.5932E-07, 4.572E-07, 1.1250000000000002E-12, 4.5932E-07, 3.6543999999999963E-06
DataValue, 0.35000000000000003, 0.05, 5.534E-07, 9.8500000000000014E-13, -5.5362E-07, 5.534E-07, 9.8500000000000014E-13, 5.5362E-07, 3.8479999999999952E-06
DataValue, 0.375, 0.05, 6.6984E-07, 7.95E-13, -6.695E-07, 6.6984E-07, 7.95E-13, 6.695E-07, 4.657600000000006E-06
DataValue, 0.4, 0.05, 7.9006E-07, 1.335E-12, -7.8844E-07, 7.9006E-07, 1.335E-12, 7.8844E-07, 4.8087999999999979E-06
DataValue, 0.42500000000000004, 0.05, 9.361E-07, 1.4550000000000002E-12, -9.3102E-07, 9.361E-07, 1.4550000000000002E-12, 9.3102E-07, 5.841599999999995E-06
DataValue, 0.45, 0.05, 1.08052E-06, 1.4050000000000002E-12, -1.07712E-06, 1.08052E-06, 1.4050000000000002E-12, 1.07712E-06, 5.7768000000000063E-06
DataValue, 0.47500000000000003, 0.05, 1.2379E-06, 1.045E-12, -1.238E-06, 1.2379E-06, 1.045E-12, 1.238E-06, 6.2951999999999961E-06
DataValue, 0.5, 0.05, 1.4173000000000002E-06, 1.195E-12, -1.4143000000000002E-06, 1.4173000000000002E-06, 1.195E-12, 1.4143000000000002E-06, 7.1760000000000148E-06
DataValue, 0.525, 0.05, 1.6015000000000003E-06, 1.065E-12, -1.5874000000000003E-06, 1.6015000000000003E-06, 1.065E-12, 1.5874000000000003E-06, 7.3679999999999962E-06
DataValue, 0.55, 0.05, 1.7969000000000001E-06, 1.1750000000000001E-12, -1.8119000000000002E-06, 1.7969000000000001E-06, 1.1750000000000001E-12, 1.8119000000000002E-06, 7.8159999999999875E-06
DataValue, 0.57500000000000007, 0.05, 2.0154000000000002E-06, 6.7500000000000005E-13, -2.0191000000000003E-06, 2.0154000000000002E-06, 6.7500000000000005E-13, 2.0191000000000003E-06, 8.7399999999999959E-06
DataValue, 0.6, 0.05, 2.2482000000000003E-06, 1.2250000000000001E-12, -2.2274E-06, 2.2482000000000003E-06, 1.2250000000000001E-12, 2.2274E-06, 9.3120000000000389E-06
DataValue, 0.625, 0.05, 2.4809000000000003E-06, 9.25E-13, -2.4630000000000004E-06, 2.4809000000000003E-06, 9.25E-13, 2.4630000000000004E-06, 9.3079999999999878E-06
DataValue, 0.65, 0.05, 2.7294E-06, 1.1350000000000001E-12, -2.7216000000000003E-06, 2.7294E-06, 1.1350000000000001E-12, 2.7216000000000003E-06, 9.9399999999999845E-06
DataValue, 0.675, 0.05, 2.9716000000000005E-06, 7.95E-13, -2.9820000000000004E-06, 2.9716000000000005E-06, 7.95E-13, 2.9820000000000004E-06, 9.6880000000000079E-06
DataValue, 0.70000000000000007, 0.05, 3.2733000000000005E-06, 1.4650000000000001E-12, -3.2870000000000005E-06, 3.2733000000000005E-06, 1.4650000000000001E-12, 3.2870000000000005E-06, 1.206799999999999E-05
DataValue, 0.72500000000000009, 0.05, 3.5609000000000005E-06, 1.3150000000000002E-12, -3.5497000000000005E-06, 3.5609000000000005E-06, 1.3150000000000002E-12, 3.5497000000000005E-06, 1.150399999999999E-05
DataValue, 0.75, 0.05, 3.8456E-06, 1.3250000000000001E-12, -3.8579000000000008E-06, 3.8456E-06, 1.3250000000000001E-12, 3.8579000000000008E-06, 1.1388000000000024E-05
DataValue, 0.775, 0.05, 4.1526000000000007E-06, 1.2150000000000002E-12, -4.1735000000000008E-06, 4.1526000000000007E-06, 1.2150000000000002E-12, 4.1735000000000008E-06, 1.2280000000000015E-05
DataValue, 0.8, 0.05, 4.4765E-06, 1.3650000000000001E-12, -4.4707E-06, 4.4765E-06, 1.3650000000000001E-12, 4.4707E-06, 1.2955999999999971E-05
DataValue, 0.82500000000000007, 0.05, 4.8275000000000008E-06, 9.4500000000000011E-13, -4.8212000000000005E-06, 4.8275000000000008E-06, 9.4500000000000011E-13, 4.8212000000000005E-06, 1.404000000000001E-05
DataValue, 0.85000000000000009, 0.05, 5.1579E-06, 1.0750000000000002E-12, -5.1902000000000007E-06, 5.1579E-06, 1.0750000000000002E-12, 5.1902000000000007E-06, 1.3215999999999965E-05
DataValue, 0.875, 0.05, 5.5315E-06, 9.25E-13, -5.5263000000000008E-06, 5.5315E-06, 9.25E-13, 5.5263000000000008E-06, 1.4944000000000057E-05
DataValue, 0.9, 0.05, 5.8860000000000009E-06, 9.3500000000000016E-13, -5.8557000000000005E-06, 5.8860000000000009E-06, 9.3500000000000016E-13, 5.8557000000000005E-06, 1.4180000000000012E-05
DataValue, 0.925, 0.05, 6.2491000000000009E-06, 1.105E-12, -6.2356000000000009E-06, 6.2491000000000009E-06, 1.105E-12, 6.2356000000000009E-06, 1.4523999999999985E-05
DataValue, 0.95000000000000007, 0.05, 6.6078000000000005E-06, 9.75E-13, -6.6197E-06, 6.6078000000000005E-06, 9.75E-13, 6.6197E-06, 1.4347999999999972E-05
DataValue, 0.97500000000000009, 0.05, 6.9972000000000005E-06, 1.115E-12, -6.9954000000000008E-06, 6.9972000000000005E-06, 1.115E-12, 6.9954000000000008E-06, 1.5575999999999988E-05
DataValue, 1, 0.05, 7.3979000000000008E-06, 1.4450000000000002E-12, -7.3903000000000011E-06, 7.3979000000000008E-06, 1.4450000000000002E-12, 7.3903000000000011E-06, 1.6028000000000067E-05
DataValue, 1.0250000000000001, 0.05, 7.7984000000000014E-06, 1.055E-12, -7.7836000000000012E-06, 7.7984000000000014E-06, 1.055E-12, 7.7836000000000012E-06, 1.6019999999999941E-05
