
SetupTitle, IdVg_Vd_par
PrimitiveTest, I/V Sweep
TestParameter, Context.MainFrame, B1500A
TestParameter, Channel.UnitType, SMU, SMU, SMU
TestParameter, Channel.Unit, SMU3:HR, SMU2:HR, SMU1:HR
TestParameter, Channel.IName, Id, Ig, Is
TestParameter, Channel.VName, Vd, Vg, Vs
TestParameter, Channel.Mode, V, V, V
TestParameter, Channel.Func, VAR2, VAR1, CONST
TestParameter, Channel.Index, 
TestParameter, Channel.Time, 
TestParameter, Measurement.Port.Unit, SMU3:HR, SMU2:HR, SMU1:HR
TestParameter, Measurement.Port.SeriesResistor, NONE, NONE, NONE
TestParameter, Measurement.Port.Filter, ON, ON, ON
TestParameter, Measurement.Port.OutputVoltageComparison, 0, 0, 0
TestParameter, Measurement.Primary.Locus, Double
TestParameter, Measurement.Primary.Scale, LINEAR
TestParameter, Measurement.Primary.Start, -1
TestParameter, Measurement.Primary.Stop, 2
TestParameter, Measurement.Primary.Step, 0.025
TestParameter, Measurement.Primary.Compliance, 0.1
TestParameter, Measurement.Primary.PowerCompliance, 0
TestParameter, Measurement.Aborting.Condition, STOP AT ANY ABNORMAL
TestParameter, Measurement.PostOutput.Value, START
TestParameter, Measurement.PostOutput.Retention, OFF
TestParameter, Measurement.Secondary.Start, 0.05
TestParameter, Measurement.Secondary.Count, 2
TestParameter, Measurement.Secondary.Step, 0.95000000000000007
TestParameter, Measurement.Secondary.Compliance, 0.1
TestParameter, Measurement.Secondary.PowerCompliance, 0
TestParameter, Measurement.Bias.Source, 0.05, -1, 0
TestParameter, Measurement.Bias.Compliance, 0.1, 0.1, 0.1
TestParameter, Measurement.Monitor.Unit, SMU3:HR, SMU2:HR, SMU1:HR
TestParameter, Measurement.Monitor.Adc, HR ADC, HR ADC, HR ADC
TestParameter, Measurement.Monitor.Measurement, Compliance Side, Compliance Side, Compliance Side
TestParameter, Measurement.Monitor.RangingMode, LIMITED, LIMITED, LIMITED
TestParameter, Measurement.Monitor.RangeBoundary, 1nA, 1nA, 1nA
TestParameter, Measurement.Monitor.RangeRating, BY FULL RANGE, BY FULL RANGE, BY FULL RANGE
TestParameter, Measurement.Monitor.RangeRatingCoeff, 50, 50, 50
TestParameter, Measurement.Timing.Hold, 0
TestParameter, Measurement.Timing.Delay, 0
TestParameter, Measurement.Adc.HighSpeed.Mode, AUTO
TestParameter, Measurement.Adc.HighSpeed.Coeff, 1
TestParameter, Measurement.Adc.HighResolution.AutoZero, OFF
TestParameter, Measurement.Adc.HighResolution.Mode, AUTO
TestParameter, Measurement.Adc.HighResolution.Coeff, 6
TestParameter, Measurement.WaitTime.Source.Coeff, 1
TestParameter, Measurement.WaitTime.Source.Offset, 0
TestParameter, Measurement.WaitTime.Monitor.Coeff, 1
TestParameter, Measurement.WaitTime.Monitor.Offset, 0
TestParameter, Function.User.Name, absId, absIg, absIs, gm
TestParameter, Function.User.Unit, A, A, A, S
TestParameter, Function.User.Definition, abs(Id), abs(Ig), abs(Is), diff(abs(Id))/diff(Vg)
TestParameter, Output.Graph.Enabled, true
TestParameter, Output.Graph.AutoScaling, false
TestParameter, Output.Graph.XAxis.Data, Vg
TestParameter, Output.Graph.XAxis.Scale, Linear
TestParameter, Output.Graph.XAxis.Left, -1
TestParameter, Output.Graph.XAxis.Right, 2
TestParameter, Output.Graph.XAxis.RunTimeAutoScale, false
TestParameter, Output.Graph.YAxis.Data, absId, gm, absIg, absIs
TestParameter, Output.Graph.YAxis.Scale, Log, Linear, Log, Log
TestParameter, Output.Graph.YAxis.Bottom, 1E-15, 0, 1E-15, 1E-15
TestParameter, Output.Graph.YAxis.Top, 0.001, 1, 0.001, 0.001
TestParameter, Output.Graph.YAxis.Group, , , , 
TestParameter, Output.Graph.YAxis.RunTimeAutoScale, false, true, false, false
TestParameter, Output.List.Data, Vg, Vd, Id, Is, Ig, absId, absIs, absIg, gm
TestParameter, AutoAnalysis.Interpolation, false
TestParameter, AutoAnalysis.Var2StepCount, 1
TestParameter, AutoAnalysis.Var2StepScript, 
TestParameter, AutoAnalysis.Line1.Enabled, false
TestParameter, AutoAnalysis.Line1.Type, 1
TestParameter, AutoAnalysis.Line1.Fix, True
TestParameter, AutoAnalysis.Line1.YAxis, 0
TestParameter, AutoAnalysis.Line1.Point1.Type, 0
TestParameter, AutoAnalysis.Line1.Point1.XY.X, 
TestParameter, AutoAnalysis.Line1.Point1.XY.Y, 
TestParameter, AutoAnalysis.Line1.Point1.Data.Var, 
TestParameter, AutoAnalysis.Line1.Point1.Data.Condition, 
TestParameter, AutoAnalysis.Line1.Point1.Data.Start, false
TestParameter, AutoAnalysis.Line1.Point1.Data.StartVar, 
TestParameter, AutoAnalysis.Line1.Point1.Data.StartCondition, 
TestParameter, AutoAnalysis.Line1.Point2.Type, 0
TestParameter, AutoAnalysis.Line1.Point2.XY.X, 
TestParameter, AutoAnalysis.Line1.Point2.XY.Y, 
TestParameter, AutoAnalysis.Line1.Point2.Data.Var, 
TestParameter, AutoAnalysis.Line1.Point2.Data.Condition, 
TestParameter, AutoAnalysis.Line1.Point2.Data.Start, false
TestParameter, AutoAnalysis.Line1.Point2.Data.StartVar, 
TestParameter, AutoAnalysis.Line1.Point2.Data.StartCondition, 
TestParameter, AutoAnalysis.Line1.GradientExpr, 0
TestParameter, AutoAnalysis.Line2.Enabled, false
TestParameter, AutoAnalysis.Line2.Type, 1
TestParameter, AutoAnalysis.Line2.Fix, True
TestParameter, AutoAnalysis.Line2.YAxis, 0
TestParameter, AutoAnalysis.Line2.Point1.Type, 0
TestParameter, AutoAnalysis.Line2.Point1.XY.X, 
TestParameter, AutoAnalysis.Line2.Point1.XY.Y, 
TestParameter, AutoAnalysis.Line2.Point1.Data.Var, 
TestParameter, AutoAnalysis.Line2.Point1.Data.Condition, 
TestParameter, AutoAnalysis.Line2.Point1.Data.Start, false
TestParameter, AutoAnalysis.Line2.Point1.Data.StartVar, 
TestParameter, AutoAnalysis.Line2.Point1.Data.StartCondition, 
TestParameter, AutoAnalysis.Line2.Point2.Type, 0
TestParameter, AutoAnalysis.Line2.Point2.XY.X, 
TestParameter, AutoAnalysis.Line2.Point2.XY.Y, 
TestParameter, AutoAnalysis.Line2.Point2.Data.Var, 
TestParameter, AutoAnalysis.Line2.Point2.Data.Condition, 
TestParameter, AutoAnalysis.Line2.Point2.Data.Start, false
TestParameter, AutoAnalysis.Line2.Point2.Data.StartVar, 
TestParameter, AutoAnalysis.Line2.Point2.Data.StartCondition, 
TestParameter, AutoAnalysis.Line2.GradientExpr, 0
TestParameter, AutoAnalysis.Marker.Enabled, false
TestParameter, AutoAnalysis.Marker.Data.Var, 
TestParameter, AutoAnalysis.Marker.Data.Condition, 
TestParameter, AutoAnalysis.Marker.Data.Start, false
TestParameter, AutoAnalysis.Marker.Data.StartVar, 
TestParameter, AutoAnalysis.Marker.Data.StartCondition, 
MetaData, TestRecord.EntryPoint, true
MetaData, TestRecord.RecordTime, 06/03/2025 15:12:16
MetaData, TestRecord.TestTarget, R[5]_D[5]_L[80]
MetaData, TestRecord.IterationIndex, 1
MetaData, TestRecord.Preservation, true
MetaData, TestRecord.Flag, !
MetaData, TestRecord.Remarks, 
MetaData, TestRecord.LinkKey, 6521c17d-97e8-4ad3-873a-36c3e5f7caf0
MetaData, TestRecord.Parameters, 
Dimension1, 242, 242, 242, 242, 242, 242, 242, 242, 242
Dimension2, 2, 2, 2, 2, 2, 2, 2, 2, 2
DataName, Vg, Vd, Id, Ig, Is, absId, absIg, absIs, gm
DataValue, -1, 0.05, 1.7217E-11, 1.065E-12, -2.846E-12, 1.7217E-11, 1.065E-12, 2.846E-12, 
DataValue, -0.97500000000000009, 0.05, 8.547E-12, 1.015E-12, -2.6960000000000002E-12, 8.547E-12, 1.015E-12, 2.6960000000000002E-12, -3.4680000000000122E-10
DataValue, -0.95000000000000007, 0.05, -4.0333000000000004E-11, 1.1350000000000001E-12, -1.8360000000000003E-12, 4.0333000000000004E-11, 1.1350000000000001E-12, 1.8360000000000003E-12, 1.2714399999999991E-09
DataValue, -0.925, 0.05, -5.2073000000000007E-11, 1.6050000000000001E-12, -1.546E-12, 5.2073000000000007E-11, 1.6050000000000001E-12, 1.546E-12, 4.695999999999997E-10
DataValue, -0.9, 0.05, -8.8130000000000013E-12, 1.7450000000000001E-12, -1.126E-12, 8.8130000000000013E-12, 1.7450000000000001E-12, 1.126E-12, -1.7303999999999987E-09
DataValue, -0.875, 0.05, 4.0687000000000004E-11, 1.855E-12, -1.6660000000000002E-12, 4.0687000000000004E-11, 1.855E-12, 1.6660000000000002E-12, 1.2749599999999991E-09
DataValue, -0.85000000000000009, 0.05, 5.2807E-11, 1.805E-12, -2.6260000000000003E-12, 5.2807E-11, 1.805E-12, 2.6260000000000003E-12, 4.8480000000000168E-10
DataValue, -0.82500000000000007, 0.05, 7.727E-12, 1.0350000000000001E-12, -2.4960000000000003E-12, 7.727E-12, 1.0350000000000001E-12, 2.4960000000000003E-12, -1.8031999999999985E-09
DataValue, -0.8, 0.05, -3.9863000000000005E-11, 9.55E-13, -2.126E-12, 3.9863000000000005E-11, 9.55E-13, 2.126E-12, 1.285439999999999E-09
DataValue, -0.775, 0.05, -5.3993000000000006E-11, 1.345E-12, -1.406E-12, 5.3993000000000006E-11, 1.345E-12, 1.406E-12, 5.6519999999999956E-10
DataValue, -0.75, 0.05, -1.1723000000000001E-11, 1.905E-12, -1.506E-12, 1.1723000000000001E-11, 1.905E-12, 1.506E-12, -1.6907999999999988E-09
DataValue, -0.72500000000000009, 0.05, 3.9337000000000003E-11, 2.3250000000000003E-12, -1.826E-12, 3.9337000000000003E-11, 2.3250000000000003E-12, 1.826E-12, 1.1045600000000041E-09
DataValue, -0.70000000000000007, 0.05, 5.3927E-11, 1.5050000000000002E-12, -2.3160000000000002E-12, 5.3927E-11, 1.5050000000000002E-12, 2.3160000000000002E-12, 5.8359999999999941E-10
DataValue, -0.675, 0.05, 1.2557000000000002E-11, 1.195E-12, -2.636E-12, 1.2557000000000002E-11, 1.195E-12, 2.636E-12, -1.6547999999999987E-09
DataValue, -0.65, 0.05, -3.8453E-11, 9.15E-13, -2.2160000000000003E-12, 3.8453E-11, 9.15E-13, 2.2160000000000003E-12, 1.0358399999999992E-09
DataValue, -0.625, 0.05, -5.4983000000000007E-11, 1.335E-12, -1.456E-12, 5.4983000000000007E-11, 1.335E-12, 1.456E-12, 6.6119999999999964E-10
DataValue, -0.6, 0.05, -1.3433E-11, 1.9150000000000002E-12, -1.4860000000000001E-12, 1.3433E-11, 1.9150000000000002E-12, 1.4860000000000001E-12, -1.6619999999999988E-09
DataValue, -0.57500000000000007, 0.05, 3.6047E-11, 2.435E-12, -2.076E-12, 3.6047E-11, 2.435E-12, 2.076E-12, 9.0456000000000334E-10
DataValue, -0.55, 0.05, 5.6077E-11, 1.755E-12, -2.506E-12, 5.6077E-11, 1.755E-12, 2.506E-12, 8.0119999999999936E-10
DataValue, -0.525, 0.05, 1.5007000000000002E-11, 1.095E-12, -2.6760000000000003E-12, 1.5007000000000002E-11, 1.095E-12, 2.6760000000000003E-12, -1.6427999999999985E-09
DataValue, -0.5, 0.05, -3.6103E-11, 9.75E-13, -1.856E-12, 3.6103E-11, 9.75E-13, 1.856E-12, 8.4383999999999933E-10
DataValue, -0.47500000000000003, 0.05, -5.5803000000000004E-11, 1.3050000000000002E-12, -1.4860000000000001E-12, 5.5803000000000004E-11, 1.3050000000000002E-12, 1.4860000000000001E-12, 7.880000000000011E-10
DataValue, -0.45, 0.05, -1.4583E-11, 1.625E-12, -1.1060000000000001E-12, 1.4583E-11, 1.625E-12, 1.1060000000000001E-12, -1.6487999999999985E-09
DataValue, -0.42500000000000004, 0.05, 3.7357E-11, 2.1950000000000002E-12, -1.926E-12, 3.7357E-11, 2.1950000000000002E-12, 1.926E-12, 9.1096000000000127E-10
DataValue, -0.4, 0.05, 5.5287000000000004E-11, 1.7250000000000002E-12, -2.6960000000000002E-12, 5.5287000000000004E-11, 1.7250000000000002E-12, 2.6960000000000002E-12, 7.1719999999999945E-10
DataValue, -0.375, 0.05, 1.4717000000000002E-11, 1.1250000000000002E-12, -2.586E-12, 1.4717000000000002E-11, 1.1250000000000002E-12, 2.586E-12, -1.6227999999999986E-09
DataValue, -0.35000000000000003, 0.05, -3.7233000000000003E-11, 7.8500000000000009E-13, -2.256E-12, 3.7233000000000003E-11, 7.8500000000000009E-13, 2.256E-12, 9.0064000000000124E-10
DataValue, -0.325, 0.05, -5.4973000000000005E-11, 1.7350000000000002E-12, -1.4760000000000002E-12, 5.4973000000000005E-11, 1.7350000000000002E-12, 1.4760000000000002E-12, 7.0959999999999939E-10
DataValue, -0.3, 0.05, -1.4103000000000002E-11, 2.205E-12, -1.3760000000000002E-12, 1.4103000000000002E-11, 2.205E-12, 1.3760000000000002E-12, -1.6347999999999987E-09
DataValue, -0.275, 0.05, 3.7167000000000006E-11, 2.415E-12, -1.956E-12, 3.7167000000000006E-11, 2.415E-12, 1.956E-12, 9.2256000000000141E-10
DataValue, -0.25, 0.05, 5.6077E-11, 1.5950000000000002E-12, -3.246E-12, 5.6077E-11, 1.5950000000000002E-12, 3.246E-12, 7.5639999999999917E-10
DataValue, -0.225, 0.05, 1.7867000000000002E-11, 1.285E-12, -4.286E-12, 1.7867000000000002E-11, 1.285E-12, 4.286E-12, -1.5284000000000004E-09
DataValue, -0.2, 0.05, -3.2073000000000005E-11, 1.0250000000000002E-12, -6.376E-12, 3.2073000000000005E-11, 1.0250000000000002E-12, 6.376E-12, 5.682400000000002E-10
DataValue, -0.17500000000000002, 0.05, -4.7793000000000004E-11, 1.285E-12, -1.0936000000000001E-11, 4.7793000000000004E-11, 1.285E-12, 1.0936000000000001E-11, 6.288E-10
DataValue, -0.15, 0.05, 2.8270000000000004E-12, 2.055E-12, -2.2286000000000003E-11, 2.8270000000000004E-12, 2.055E-12, 2.2286000000000003E-11, -1.7986399999999987E-09
DataValue, -0.125, 0.05, 8.5517E-11, 2.335E-12, -5.1886000000000006E-11, 8.5517E-11, 2.335E-12, 5.1886000000000006E-11, 3.3076000000000009E-09
DataValue, -0.1, 0.05, 1.7484700000000002E-10, 1.925E-12, -1.19296E-10, 1.7484700000000002E-10, 1.925E-12, 1.19296E-10, 3.5732000000000013E-09
DataValue, -0.075, 0.05, 2.74167E-10, 1.015E-12, -2.57616E-10, 2.74167E-10, 1.015E-12, 2.57616E-10, 3.9727999999999985E-09
DataValue, -0.05, 0.05, 5.56297E-10, 1.285E-12, -5.86506E-10, 5.56297E-10, 1.285E-12, 5.86506E-10, 1.1285200000000002E-08
DataValue, -0.025, 0.05, 1.22437E-09, 1.985E-12, -1.16004E-09, 1.22437E-09, 1.985E-12, 1.16004E-09, 2.6722919999999998E-08
DataValue, 0, 0.05, 2.46677E-09, 1.9450000000000003E-12, -2.45464E-09, 2.46677E-09, 1.9450000000000003E-12, 2.45464E-09, 4.9696000000000004E-08
DataValue, 0.025, 0.05, 4.93827E-09, 1.7850000000000002E-12, -4.90454E-09, 4.93827E-09, 1.7850000000000002E-12, 4.90454E-09, 9.886E-08
DataValue, 0.05, 0.05, 9.67547E-09, 1.385E-12, -9.54794E-09, 9.67547E-09, 1.385E-12, 9.54794E-09, 1.8948799999999998E-07
DataValue, 0.075, 0.05, 1.7394799999999997E-08, 2.135E-12, -1.7159599999999998E-08, 1.7394799999999997E-08, 2.135E-12, 1.7159599999999998E-08, 3.0877319999999994E-07
DataValue, 0.1, 0.05, 2.9546599999999998E-08, 2.035E-12, -2.9057799999999997E-08, 2.9546599999999998E-08, 2.035E-12, 2.9057799999999997E-08, 4.8607199999999985E-07
DataValue, 0.125, 0.05, 4.7376399999999995E-08, 8.1500000000000006E-13, -4.8255E-08, 4.7376399999999995E-08, 8.1500000000000006E-13, 4.8255E-08, 7.13192E-07
DataValue, 0.15, 0.05, 7.21796E-08, 2.445E-12, -7.3509599999999993E-08, 7.21796E-08, 2.445E-12, 7.3509599999999993E-08, 9.9212800000000013E-07
DataValue, 0.17500000000000002, 0.05, 1.0637839999999998E-07, 9.4500000000000011E-13, -1.0608079999999999E-07, 1.0637839999999998E-07, 9.4500000000000011E-13, 1.0608079999999999E-07, 1.3679519999999983E-06
DataValue, 0.2, 0.05, 1.4964E-07, 1.875E-12, -1.4884E-07, 1.4964E-07, 1.875E-12, 1.4884E-07, 1.7304640000000013E-06
DataValue, 0.225, 0.05, 2.0204E-07, 1.675E-12, -2.0266E-07, 2.0204E-07, 1.675E-12, 2.0266E-07, 2.0960000000000003E-06
DataValue, 0.25, 0.05, 2.6858E-07, 2.1250000000000003E-12, -2.6728E-07, 2.6858E-07, 2.1250000000000003E-12, 2.6728E-07, 2.6616E-06
DataValue, 0.275, 0.05, 3.4014E-07, 2.135E-12, -3.3722E-07, 3.4014E-07, 2.135E-12, 3.3722E-07, 2.8623999999999969E-06
DataValue, 0.3, 0.05, 4.2197999999999997E-07, 1.7450000000000001E-12, -4.207E-07, 4.2197999999999997E-07, 1.7450000000000001E-12, 4.207E-07, 3.2736000000000041E-06
DataValue, 0.325, 0.05, 5.1779999999999994E-07, 1.675E-12, -5.2078E-07, 5.1779999999999994E-07, 1.675E-12, 5.2078E-07, 3.8327999999999949E-06
DataValue, 0.35000000000000003, 0.05, 6.3204E-07, 1.6350000000000002E-12, -6.3308E-07, 6.3204E-07, 1.6350000000000002E-12, 6.3308E-07, 4.5695999999999977E-06
DataValue, 0.375, 0.05, 7.5054E-07, 9.8500000000000014E-13, -7.4964E-07, 7.5054E-07, 9.8500000000000014E-13, 7.4964E-07, 4.7400000000000063E-06
DataValue, 0.4, 0.05, 8.7828E-07, 1.235E-12, -8.7472E-07, 8.7828E-07, 1.235E-12, 8.7472E-07, 5.1095999999999959E-06
DataValue, 0.42500000000000004, 0.05, 1.02452E-06, 9.950000000000001E-13, -1.01662E-06, 1.02452E-06, 9.950000000000001E-13, 1.01662E-06, 5.8495999999999956E-06
DataValue, 0.45, 0.05, 1.1588E-06, 7.6500000000000007E-13, -1.1605000000000002E-06, 1.1588E-06, 7.6500000000000007E-13, 1.1605000000000002E-06, 5.3712000000000071E-06
DataValue, 0.47500000000000003, 0.05, 1.3212000000000002E-06, 9.8500000000000014E-13, -1.3196E-06, 1.3212000000000002E-06, 9.8500000000000014E-13, 1.3196E-06, 6.4959999999999993E-06
DataValue, 0.5, 0.05, 1.4927000000000001E-06, 1.3550000000000002E-12, -1.4898000000000001E-06, 1.4927000000000001E-06, 1.3550000000000002E-12, 1.4898000000000001E-06, 6.860000000000008E-06
DataValue, 0.525, 0.05, 1.6822000000000002E-06, 9.15E-13, -1.6733000000000001E-06, 1.6822000000000002E-06, 9.15E-13, 1.6733000000000001E-06, 7.5799999999999952E-06
DataValue, 0.55, 0.05, 1.8615E-06, 8.45E-13, -1.8620000000000001E-06, 1.8615E-06, 8.45E-13, 1.8620000000000001E-06, 7.17199999999999E-06
DataValue, 0.57500000000000007, 0.05, 2.0676000000000003E-06, 1.2750000000000001E-12, -2.0641000000000003E-06, 2.0676000000000003E-06, 1.2750000000000001E-12, 2.0641000000000003E-06, 8.2440000000000027E-06
DataValue, 0.6, 0.05, 2.2750000000000002E-06, 1.375E-12, -2.2751E-06, 2.2750000000000002E-06, 1.375E-12, 2.2751E-06, 8.2960000000000253E-06
DataValue, 0.625, 0.05, 2.5074000000000003E-06, 2.0250000000000004E-12, -2.5119000000000005E-06, 2.5074000000000003E-06, 2.0250000000000004E-12, 2.5119000000000005E-06, 9.2959999999999954E-06
DataValue, 0.65, 0.05, 2.7496000000000003E-06, 1.9650000000000002E-12, -2.7489000000000005E-06, 2.7496000000000003E-06, 1.9650000000000002E-12, 2.7489000000000005E-06, 9.6879999999999909E-06
DataValue, 0.675, 0.05, 2.9917000000000005E-06, 1.815E-12, -2.9899000000000004E-06, 2.9917000000000005E-06, 1.815E-12, 2.9899000000000004E-06, 9.6839999999999991E-06
DataValue, 0.70000000000000007, 0.05, 3.2609000000000004E-06, 2.255E-12, -3.2561000000000005E-06, 3.2609000000000004E-06, 2.255E-12, 3.2561000000000005E-06, 1.0767999999999986E-05
DataValue, 0.72500000000000009, 0.05, 3.5330000000000003E-06, 1.765E-12, -3.52E-06, 3.5330000000000003E-06, 1.765E-12, 3.52E-06, 1.0883999999999986E-05
DataValue, 0.75, 0.05, 3.8056000000000005E-06, 1.5050000000000002E-12, -3.8096000000000003E-06, 3.8056000000000005E-06, 1.5050000000000002E-12, 3.8096000000000003E-06, 1.0904000000000045E-05
DataValue, 0.775, 0.05, 4.086E-06, 1.3150000000000002E-12, -4.0786E-06, 4.086E-06, 1.3150000000000002E-12, 4.0786E-06, 1.1215999999999985E-05
DataValue, 0.8, 0.05, 4.3744000000000008E-06, 8.95E-13, -4.3694E-06, 4.3744000000000008E-06, 8.95E-13, 4.3694E-06, 1.153600000000001E-05
DataValue, 0.82500000000000007, 0.05, 4.6822000000000007E-06, 1.065E-12, -4.6786E-06, 4.6822000000000007E-06, 1.065E-12, 4.6786E-06, 1.2311999999999983E-05
DataValue, 0.85000000000000009, 0.05, 4.9788000000000005E-06, 9.0500000000000008E-13, -4.9774000000000008E-06, 4.9788000000000005E-06, 9.0500000000000008E-13, 4.9774000000000008E-06, 1.1863999999999983E-05
DataValue, 0.875, 0.05, 5.3356E-06, 1.425E-12, -5.3289000000000008E-06, 5.3356E-06, 1.425E-12, 5.3289000000000008E-06, 1.4272000000000039E-05
DataValue, 0.9, 0.05, 5.6738000000000006E-06, 1.335E-12, -5.6750000000000007E-06, 5.6738000000000006E-06, 1.335E-12, 5.6750000000000007E-06, 1.3528000000000005E-05
DataValue, 0.925, 0.05, 6.0291000000000004E-06, 2.1750000000000003E-12, -6.0086E-06, 6.0291000000000004E-06, 2.1750000000000003E-12, 6.0086E-06, 1.421199999999998E-05
DataValue, 0.95000000000000007, 0.05, 6.3721E-06, 1.935E-12, -6.3895E-06, 6.3721E-06, 1.935E-12, 6.3895E-06, 1.3719999999999986E-05
DataValue, 0.97500000000000009, 0.05, 6.707E-06, 2.395E-12, -6.7227000000000009E-06, 6.707E-06, 2.395E-12, 6.7227000000000009E-06, 1.3395999999999987E-05
DataValue, 1, 0.05, 7.0984000000000005E-06, 2.3050000000000004E-12, -7.0782000000000011E-06, 7.0984000000000005E-06, 2.3050000000000004E-12, 7.0782000000000011E-06, 1.5656000000000062E-05
DataValue, 1.0250000000000001, 0.05, 7.434700000000001E-06, 1.7350000000000002E-12, -7.4582000000000009E-06, 7.434700000000001E-06, 1.7350000000000002E-12, 7.4582000000000009E-06, 1.3451999999999949E-05
