
SetupTitle, IdVg_Vd_par
PrimitiveTest, I/V Sweep
TestParameter, Context.MainFrame, B1500A
TestParameter, Channel.UnitType, SMU, SMU, SMU
TestParameter, Channel.Unit, SMU3:HR, SMU2:HR, SMU1:HR
TestParameter, Channel.IName, Id, Ig, Is
TestParameter, Channel.VName, Vd, Vg, Vs
TestParameter, Channel.Mode, V, V, V
TestParameter, Channel.Func, VAR2, VAR1, CONST
TestParameter, Channel.Index, 
TestParameter, Channel.Time, 
TestParameter, Measurement.Port.Unit, SMU3:HR, SMU2:HR, SMU1:HR
TestParameter, Measurement.Port.SeriesResistor, NONE, NONE, NONE
TestParameter, Measurement.Port.Filter, ON, ON, ON
TestParameter, Measurement.Port.OutputVoltageComparison, 0, 0, 0
TestParameter, Measurement.Primary.Locus, Double
TestParameter, Measurement.Primary.Scale, LINEAR
TestParameter, Measurement.Primary.Start, -1
TestParameter, Measurement.Primary.Stop, 2
TestParameter, Measurement.Primary.Step, 0.025
TestParameter, Measurement.Primary.Compliance, 0.1
TestParameter, Measurement.Primary.PowerCompliance, 0
TestParameter, Measurement.Aborting.Condition, STOP AT ANY ABNORMAL
TestParameter, Measurement.PostOutput.Value, START
TestParameter, Measurement.PostOutput.Retention, OFF
TestParameter, Measurement.Secondary.Start, 0.05
TestParameter, Measurement.Secondary.Count, 2
TestParameter, Measurement.Secondary.Step, 0.95000000000000007
TestParameter, Measurement.Secondary.Compliance, 0.1
TestParameter, Measurement.Secondary.PowerCompliance, 0
TestParameter, Measurement.Bias.Source, 0.05, -1, 0
TestParameter, Measurement.Bias.Compliance, 0.1, 0.1, 0.1
TestParameter, Measurement.Monitor.Unit, SMU3:HR, SMU2:HR, SMU1:HR
TestParameter, Measurement.Monitor.Adc, HR ADC, HR ADC, HR ADC
TestParameter, Measurement.Monitor.Measurement, Compliance Side, Compliance Side, Compliance Side
TestParameter, Measurement.Monitor.RangingMode, LIMITED, LIMITED, LIMITED
TestParameter, Measurement.Monitor.RangeBoundary, 1nA, 1nA, 1nA
TestParameter, Measurement.Monitor.RangeRating, BY FULL RANGE, BY FULL RANGE, BY FULL RANGE
TestParameter, Measurement.Monitor.RangeRatingCoeff, 50, 50, 50
TestParameter, Measurement.Timing.Hold, 0
TestParameter, Measurement.Timing.Delay, 0
TestParameter, Measurement.Adc.HighSpeed.Mode, AUTO
TestParameter, Measurement.Adc.HighSpeed.Coeff, 1
TestParameter, Measurement.Adc.HighResolution.AutoZero, OFF
TestParameter, Measurement.Adc.HighResolution.Mode, AUTO
TestParameter, Measurement.Adc.HighResolution.Coeff, 6
TestParameter, Measurement.WaitTime.Source.Coeff, 1
TestParameter, Measurement.WaitTime.Source.Offset, 0
TestParameter, Measurement.WaitTime.Monitor.Coeff, 1
TestParameter, Measurement.WaitTime.Monitor.Offset, 0
TestParameter, Function.User.Name, absId, absIg, absIs, gm
TestParameter, Function.User.Unit, A, A, A, S
TestParameter, Function.User.Definition, abs(Id), abs(Ig), abs(Is), diff(abs(Id))/diff(Vg)
TestParameter, Output.Graph.Enabled, true
TestParameter, Output.Graph.AutoScaling, false
TestParameter, Output.Graph.XAxis.Data, Vg
TestParameter, Output.Graph.XAxis.Scale, Linear
TestParameter, Output.Graph.XAxis.Left, -1
TestParameter, Output.Graph.XAxis.Right, 2
TestParameter, Output.Graph.XAxis.RunTimeAutoScale, false
TestParameter, Output.Graph.YAxis.Data, absId, gm, absIg, absIs
TestParameter, Output.Graph.YAxis.Scale, Log, Linear, Log, Log
TestParameter, Output.Graph.YAxis.Bottom, 1E-15, 0, 1E-15, 1E-15
TestParameter, Output.Graph.YAxis.Top, 0.001, 1, 0.001, 0.001
TestParameter, Output.Graph.YAxis.Group, , , , 
TestParameter, Output.Graph.YAxis.RunTimeAutoScale, false, true, false, false
TestParameter, Output.List.Data, Vg, Vd, Id, Is, Ig, absId, absIs, absIg, gm
TestParameter, AutoAnalysis.Interpolation, false
TestParameter, AutoAnalysis.Var2StepCount, 1
TestParameter, AutoAnalysis.Var2StepScript, 
TestParameter, AutoAnalysis.Line1.Enabled, false
TestParameter, AutoAnalysis.Line1.Type, 1
TestParameter, AutoAnalysis.Line1.Fix, True
TestParameter, AutoAnalysis.Line1.YAxis, 0
TestParameter, AutoAnalysis.Line1.Point1.Type, 0
TestParameter, AutoAnalysis.Line1.Point1.XY.X, 
TestParameter, AutoAnalysis.Line1.Point1.XY.Y, 
TestParameter, AutoAnalysis.Line1.Point1.Data.Var, 
TestParameter, AutoAnalysis.Line1.Point1.Data.Condition, 
TestParameter, AutoAnalysis.Line1.Point1.Data.Start, false
TestParameter, AutoAnalysis.Line1.Point1.Data.StartVar, 
TestParameter, AutoAnalysis.Line1.Point1.Data.StartCondition, 
TestParameter, AutoAnalysis.Line1.Point2.Type, 0
TestParameter, AutoAnalysis.Line1.Point2.XY.X, 
TestParameter, AutoAnalysis.Line1.Point2.XY.Y, 
TestParameter, AutoAnalysis.Line1.Point2.Data.Var, 
TestParameter, AutoAnalysis.Line1.Point2.Data.Condition, 
TestParameter, AutoAnalysis.Line1.Point2.Data.Start, false
TestParameter, AutoAnalysis.Line1.Point2.Data.StartVar, 
TestParameter, AutoAnalysis.Line1.Point2.Data.StartCondition, 
TestParameter, AutoAnalysis.Line1.GradientExpr, 0
TestParameter, AutoAnalysis.Line2.Enabled, false
TestParameter, AutoAnalysis.Line2.Type, 1
TestParameter, AutoAnalysis.Line2.Fix, True
TestParameter, AutoAnalysis.Line2.YAxis, 0
TestParameter, AutoAnalysis.Line2.Point1.Type, 0
TestParameter, AutoAnalysis.Line2.Point1.XY.X, 
TestParameter, AutoAnalysis.Line2.Point1.XY.Y, 
TestParameter, AutoAnalysis.Line2.Point1.Data.Var, 
TestParameter, AutoAnalysis.Line2.Point1.Data.Condition, 
TestParameter, AutoAnalysis.Line2.Point1.Data.Start, false
TestParameter, AutoAnalysis.Line2.Point1.Data.StartVar, 
TestParameter, AutoAnalysis.Line2.Point1.Data.StartCondition, 
TestParameter, AutoAnalysis.Line2.Point2.Type, 0
TestParameter, AutoAnalysis.Line2.Point2.XY.X, 
TestParameter, AutoAnalysis.Line2.Point2.XY.Y, 
TestParameter, AutoAnalysis.Line2.Point2.Data.Var, 
TestParameter, AutoAnalysis.Line2.Point2.Data.Condition, 
TestParameter, AutoAnalysis.Line2.Point2.Data.Start, false
TestParameter, AutoAnalysis.Line2.Point2.Data.StartVar, 
TestParameter, AutoAnalysis.Line2.Point2.Data.StartCondition, 
TestParameter, AutoAnalysis.Line2.GradientExpr, 0
TestParameter, AutoAnalysis.Marker.Enabled, false
TestParameter, AutoAnalysis.Marker.Data.Var, 
TestParameter, AutoAnalysis.Marker.Data.Condition, 
TestParameter, AutoAnalysis.Marker.Data.Start, false
TestParameter, AutoAnalysis.Marker.Data.StartVar, 
TestParameter, AutoAnalysis.Marker.Data.StartCondition, 
MetaData, TestRecord.EntryPoint, true
MetaData, TestRecord.RecordTime, 06/03/2025 16:20:15
MetaData, TestRecord.TestTarget, R[4]_D[5]_L[100]
MetaData, TestRecord.IterationIndex, 2
MetaData, TestRecord.Preservation, true
MetaData, TestRecord.Flag, !
MetaData, TestRecord.Remarks, 
MetaData, TestRecord.LinkKey, 472dc1a5-3158-4c70-b01c-0eda0aa8d587
MetaData, TestRecord.Parameters, 
Dimension1, 242, 242, 242, 242, 242, 242, 242, 242, 242
Dimension2, 2, 2, 2, 2, 2, 2, 2, 2, 2
DataName, Vg, Vd, Id, Ig, Is, absId, absIg, absIs, gm
DataValue, -1, 0.05, -7.3E-14, 1.5150000000000001E-12, -1.2860000000000002E-12, 7.3E-14, 1.5150000000000001E-12, 1.2860000000000002E-12, 
DataValue, -0.97500000000000009, 0.05, 7.7E-14, 1.715E-12, -1.7460000000000002E-12, 7.7E-14, 1.715E-12, 1.7460000000000002E-12, 1.600000000000004E-13
DataValue, -0.95000000000000007, 0.05, -2.1300000000000003E-13, 1.4450000000000002E-12, -1.186E-12, 2.1300000000000003E-13, 1.4450000000000002E-12, 1.186E-12, 5.4399999999999962E-12
DataValue, -0.925, 0.05, -6.3000000000000009E-14, 1.7850000000000002E-12, -1.456E-12, 6.3000000000000009E-14, 1.7850000000000002E-12, 1.456E-12, -5.9999999999999954E-12
DataValue, -0.9, 0.05, 1.57E-13, 1.5550000000000001E-12, -1.7660000000000002E-12, 1.57E-13, 1.5550000000000001E-12, 1.7660000000000002E-12, 3.7599999999999969E-12
DataValue, -0.875, 0.05, -4.33E-13, 1.825E-12, -1.7160000000000002E-12, 4.33E-13, 1.825E-12, 1.7160000000000002E-12, 1.1039999999999992E-11
DataValue, -0.85000000000000009, 0.05, -3.9300000000000004E-13, 1.825E-12, -1.6660000000000002E-12, 3.9300000000000004E-13, 1.825E-12, 1.6660000000000002E-12, -1.6000000000000049E-12
DataValue, -0.82500000000000007, 0.05, 3.27E-13, 1.885E-12, -1.826E-12, 3.27E-13, 1.885E-12, 1.826E-12, -2.6399999999999984E-12
DataValue, -0.8, 0.05, 1.6700000000000002E-13, 2.005E-12, -1.556E-12, 1.6700000000000002E-13, 2.005E-12, 1.556E-12, -6.3999999999999945E-12
DataValue, -0.775, 0.05, -2.1300000000000003E-13, 1.4150000000000001E-12, -1.1560000000000001E-12, 2.1300000000000003E-13, 1.4150000000000001E-12, 1.1560000000000001E-12, 1.8399999999999986E-12
DataValue, -0.75, 0.05, 6.7E-14, 2.005E-12, -1.7060000000000002E-12, 6.7E-14, 2.005E-12, 1.7060000000000002E-12, -5.8399999999999961E-12
DataValue, -0.72500000000000009, 0.05, 2.7000000000000002E-14, 1.8450000000000003E-12, -1.556E-12, 2.7000000000000002E-14, 1.8450000000000003E-12, 1.556E-12, -1.6000000000000059E-12
DataValue, -0.70000000000000007, 0.05, -5.13E-13, 1.6950000000000002E-12, -1.6260000000000001E-12, 5.13E-13, 1.6950000000000002E-12, 1.6260000000000001E-12, 1.9439999999999983E-11
DataValue, -0.675, 0.05, -3.1300000000000003E-13, 2.0450000000000003E-12, -1.1060000000000001E-12, 3.1300000000000003E-13, 2.0450000000000003E-12, 1.1060000000000001E-12, -7.9999999999999934E-12
DataValue, -0.65, 0.05, 1.2700000000000001E-13, 1.825E-12, -1.5160000000000002E-12, 1.2700000000000001E-13, 1.825E-12, 1.5160000000000002E-12, -7.4399999999999941E-12
DataValue, -0.625, 0.05, 2.7000000000000002E-14, 1.835E-12, -1.596E-12, 2.7000000000000002E-14, 1.835E-12, 1.596E-12, -3.9999999999999967E-12
DataValue, -0.6, 0.05, -3.3000000000000005E-14, 1.5950000000000002E-12, -1.4760000000000002E-12, 3.3000000000000005E-14, 1.5950000000000002E-12, 1.4760000000000002E-12, 2.3999999999999989E-13
DataValue, -0.57500000000000007, 0.05, -5.13E-13, 2.0950000000000003E-12, -1.446E-12, 5.13E-13, 2.0950000000000003E-12, 1.446E-12, 1.920000000000007E-11
DataValue, -0.55, 0.05, -8.3000000000000012E-14, 1.625E-12, -1.3360000000000002E-12, 8.3000000000000012E-14, 1.625E-12, 1.3360000000000002E-12, -1.7199999999999986E-11
DataValue, -0.525, 0.05, -9.3000000000000008E-14, 1.815E-12, -1.8660000000000003E-12, 9.3000000000000008E-14, 1.815E-12, 1.8660000000000003E-12, 3.9999999999999946E-13
DataValue, -0.5, 0.05, -3.0000000000000002E-15, 1.6050000000000001E-12, -1.646E-12, 3.0000000000000002E-15, 1.6050000000000001E-12, 1.646E-12, -3.5999999999999972E-12
DataValue, -0.47500000000000003, 0.05, 9.7E-14, 1.9950000000000003E-12, -1.686E-12, 9.7E-14, 1.9950000000000003E-12, 1.686E-12, 3.760000000000005E-12
DataValue, -0.45, 0.05, -2.1300000000000003E-13, 1.7850000000000002E-12, -1.5260000000000002E-12, 2.1300000000000003E-13, 1.7850000000000002E-12, 1.5260000000000002E-12, 4.6399999999999964E-12
DataValue, -0.42500000000000004, 0.05, 1.2700000000000001E-13, 1.765E-12, -1.3860000000000002E-12, 1.2700000000000001E-13, 1.765E-12, 1.3860000000000002E-12, -3.4400000000000051E-12
DataValue, -0.4, 0.05, -1.63E-13, 1.675E-12, -1.5260000000000002E-12, 1.63E-13, 1.675E-12, 1.5260000000000002E-12, 1.4399999999999987E-12
DataValue, -0.375, 0.05, -2.1300000000000003E-13, 1.925E-12, -1.4260000000000002E-12, 2.1300000000000003E-13, 1.925E-12, 1.4260000000000002E-12, 1.9999999999999987E-12
DataValue, -0.35000000000000003, 0.05, 1.3700000000000002E-13, 1.5150000000000001E-12, -1.686E-12, 1.3700000000000002E-13, 1.5150000000000001E-12, 1.686E-12, -3.0400000000000044E-12
DataValue, -0.325, 0.05, -3.0000000000000002E-15, 1.565E-12, -1.3460000000000001E-12, 3.0000000000000002E-15, 1.565E-12, 1.3460000000000001E-12, -5.3599999999999957E-12
DataValue, -0.3, 0.05, 3.17E-13, 2.035E-12, -1.6060000000000002E-12, 3.17E-13, 2.035E-12, 1.6060000000000002E-12, 1.255999999999999E-11
DataValue, -0.275, 0.05, -2.23E-13, 1.825E-12, -1.686E-12, 2.23E-13, 1.825E-12, 1.686E-12, -3.760000000000005E-12
DataValue, -0.25, 0.05, 2.0700000000000003E-13, 1.8650000000000002E-12, -1.6760000000000001E-12, 2.0700000000000003E-13, 1.8650000000000002E-12, 1.6760000000000001E-12, -6.3999999999999869E-13
DataValue, -0.225, 0.05, -1.3000000000000001E-14, 1.565E-12, -2.156E-12, 1.3000000000000001E-14, 1.565E-12, 2.156E-12, -7.7600000000000025E-12
DataValue, -0.2, 0.05, 9.0700000000000007E-13, 1.6950000000000002E-12, -2.686E-12, 9.0700000000000007E-13, 1.6950000000000002E-12, 2.686E-12, 3.5760000000000008E-11
DataValue, -0.17500000000000002, 0.05, 3.017E-12, 1.6350000000000002E-12, -3.936E-12, 3.017E-12, 1.6350000000000002E-12, 3.936E-12, 8.4400000000000026E-11
DataValue, -0.15, 0.05, 6.3670000000000006E-12, 1.7250000000000002E-12, -8.076E-12, 6.3670000000000006E-12, 1.7250000000000002E-12, 8.076E-12, 1.339999999999999E-10
DataValue, -0.125, 0.05, 1.4897000000000002E-11, 1.9650000000000002E-12, -1.6516000000000003E-11, 1.4897000000000002E-11, 1.9650000000000002E-12, 1.6516000000000003E-11, 3.4120000000000012E-10
DataValue, -0.1, 0.05, 3.6017E-11, 1.955E-12, -3.8106E-11, 3.6017E-11, 1.955E-12, 3.8106E-11, 8.4480000000000023E-10
DataValue, -0.075, 0.05, 8.6057000000000011E-11, 1.9150000000000002E-12, -8.9976000000000013E-11, 8.6057000000000011E-11, 1.9150000000000002E-12, 8.9976000000000013E-11, 2.0015999999999998E-09
DataValue, -0.05, 0.05, 2.01537E-10, 1.815E-12, -1.99916E-10, 2.01537E-10, 1.815E-12, 1.99916E-10, 4.6192000000000008E-09
DataValue, -0.025, 0.05, 4.5570700000000005E-10, 1.875E-12, -4.5271600000000003E-10, 4.5570700000000005E-10, 1.875E-12, 4.5271600000000003E-10, 1.0166800000000002E-08
DataValue, 0, 0.05, 9.97447E-10, 1.855E-12, -9.9239600000000018E-10, 9.97447E-10, 1.855E-12, 9.9239600000000018E-10, 2.1669599999999996E-08
DataValue, 0.025, 0.05, 2.04857E-09, 2.3050000000000004E-12, -1.97374E-09, 2.04857E-09, 2.3050000000000004E-12, 1.97374E-09, 4.2044920000000005E-08
DataValue, 0.05, 0.05, 3.90517E-09, 1.805E-12, -3.92754E-09, 3.90517E-09, 1.805E-12, 3.92754E-09, 7.4263999999999983E-08
DataValue, 0.075, 0.05, 7.41857E-09, 1.485E-12, -7.36834E-09, 7.41857E-09, 1.485E-12, 7.36834E-09, 1.4053600000000006E-07
DataValue, 0.1, 0.05, 1.3712399999999999E-08, 1.435E-12, -1.3695199999999999E-08, 1.3712399999999999E-08, 1.435E-12, 1.3695199999999999E-08, 2.5175319999999987E-07
DataValue, 0.125, 0.05, 2.2255199999999997E-08, 1.625E-12, -2.2217799999999997E-08, 2.2255199999999997E-08, 1.625E-12, 2.2217799999999997E-08, 3.41712E-07
DataValue, 0.15, 0.05, 3.6244799999999994E-08, 1.5050000000000002E-12, -3.5305199999999995E-08, 3.6244799999999994E-08, 1.5050000000000002E-12, 3.5305199999999995E-08, 5.59584E-07
DataValue, 0.17500000000000002, 0.05, 5.3888399999999994E-08, 1.835E-12, -5.4194199999999993E-08, 5.3888399999999994E-08, 1.835E-12, 5.4194199999999993E-08, 7.0574399999999939E-07
DataValue, 0.2, 0.05, 7.6966799999999993E-08, 1.7050000000000001E-12, -7.6912E-08, 7.6966799999999993E-08, 1.7050000000000001E-12, 7.6912E-08, 9.2313600000000015E-07
DataValue, 0.225, 0.05, 1.070206E-07, 2.005E-12, -1.0725639999999999E-07, 1.070206E-07, 2.005E-12, 1.0725639999999999E-07, 1.2021520000000003E-06
DataValue, 0.25, 0.05, 1.4354E-07, 1.875E-12, -1.4431999999999999E-07, 1.4354E-07, 1.875E-12, 1.4431999999999999E-07, 1.4607760000000007E-06
DataValue, 0.275, 0.05, 1.893E-07, 1.425E-12, -1.8988E-07, 1.893E-07, 1.425E-12, 1.8988E-07, 1.8303999999999986E-06
DataValue, 0.3, 0.05, 2.4166E-07, 1.975E-12, -2.4268E-07, 2.4166E-07, 1.975E-12, 2.4268E-07, 2.0944000000000028E-06
DataValue, 0.325, 0.05, 2.985E-07, 2.0950000000000003E-12, -3.0042E-07, 2.985E-07, 2.0950000000000003E-12, 3.0042E-07, 2.2735999999999967E-06
DataValue, 0.35000000000000003, 0.05, 3.6932E-07, 1.475E-12, -3.7028E-07, 3.6932E-07, 1.475E-12, 3.7028E-07, 2.8327999999999973E-06
DataValue, 0.375, 0.05, 4.4755999999999997E-07, 1.825E-12, -4.4905999999999997E-07, 4.4755999999999997E-07, 1.825E-12, 4.4905999999999997E-07, 3.1296000000000039E-06
DataValue, 0.4, 0.05, 5.363E-07, 1.815E-12, -5.3934E-07, 5.363E-07, 1.815E-12, 5.3934E-07, 3.5495999999999965E-06
DataValue, 0.42500000000000004, 0.05, 6.3094E-07, 1.575E-12, -6.3556E-07, 6.3094E-07, 1.575E-12, 6.3556E-07, 3.785599999999999E-06
DataValue, 0.45, 0.05, 7.34E-07, 1.6450000000000002E-12, -7.3524E-07, 7.34E-07, 1.6450000000000002E-12, 7.3524E-07, 4.1224000000000039E-06
DataValue, 0.47500000000000003, 0.05, 8.4772E-07, 1.3650000000000001E-12, -8.5126E-07, 8.4772E-07, 1.3650000000000001E-12, 8.5126E-07, 4.5487999999999953E-06
DataValue, 0.5, 0.05, 9.7362E-07, 1.8650000000000002E-12, -9.7064E-07, 9.7362E-07, 1.8650000000000002E-12, 9.7064E-07, 5.0360000000000082E-06
DataValue, 0.525, 0.05, 1.10598E-06, 1.5150000000000001E-12, -1.09752E-06, 1.10598E-06, 1.5150000000000001E-12, 1.09752E-06, 5.2943999999999929E-06
DataValue, 0.55, 0.05, 1.2342000000000002E-06, 1.6550000000000001E-12, -1.2317000000000002E-06, 1.2342000000000002E-06, 1.6550000000000001E-12, 1.2317000000000002E-06, 5.128800000000005E-06
DataValue, 0.57500000000000007, 0.05, 1.3801000000000001E-06, 1.575E-12, -1.382E-06, 1.3801000000000001E-06, 1.575E-12, 1.382E-06, 5.8359999999999929E-06
DataValue, 0.6, 0.05, 1.5494000000000002E-06, 1.7950000000000001E-12, -1.5555000000000002E-06, 1.5494000000000002E-06, 1.7950000000000001E-12, 1.5555000000000002E-06, 6.7720000000000243E-06
DataValue, 0.625, 0.05, 1.7279000000000002E-06, 1.715E-12, -1.7257000000000003E-06, 1.7279000000000002E-06, 1.715E-12, 1.7257000000000003E-06, 7.1399999999999969E-06
DataValue, 0.65, 0.05, 1.9181000000000003E-06, 1.975E-12, -1.9115000000000002E-06, 1.9181000000000003E-06, 1.975E-12, 1.9115000000000002E-06, 7.6079999999999973E-06
DataValue, 0.675, 0.05, 2.1044E-06, 2.2750000000000003E-12, -2.0966000000000004E-06, 2.1044E-06, 2.2750000000000003E-12, 2.0966000000000004E-06, 7.4519999999999856E-06
DataValue, 0.70000000000000007, 0.05, 2.3090000000000003E-06, 1.8650000000000002E-12, -2.3013000000000003E-06, 2.3090000000000003E-06, 1.8650000000000002E-12, 2.3013000000000003E-06, 8.1839999999999982E-06
DataValue, 0.72500000000000009, 0.05, 2.4907E-06, 1.8450000000000003E-12, -2.4807000000000002E-06, 2.4907E-06, 1.8450000000000003E-12, 2.4807000000000002E-06, 7.2679999999999887E-06
DataValue, 0.75, 0.05, 2.7216000000000003E-06, 1.675E-12, -2.7304E-06, 2.7216000000000003E-06, 1.675E-12, 2.7304E-06, 9.23600000000004E-06
DataValue, 0.775, 0.05, 2.9769000000000002E-06, 1.625E-12, -2.9792E-06, 2.9769000000000002E-06, 1.625E-12, 2.9792E-06, 1.0211999999999988E-05
DataValue, 0.8, 0.05, 3.2193000000000002E-06, 1.5850000000000002E-12, -3.2104000000000002E-06, 3.2193000000000002E-06, 1.5850000000000002E-12, 3.2104000000000002E-06, 9.6959999999999915E-06
DataValue, 0.82500000000000007, 0.05, 3.4719E-06, 1.8650000000000002E-12, -3.4684000000000005E-06, 3.4719E-06, 1.8650000000000002E-12, 3.4684000000000005E-06, 1.0103999999999988E-05
DataValue, 0.85000000000000009, 0.05, 3.7344E-06, 1.7850000000000002E-12, -3.7191000000000005E-06, 3.7344E-06, 1.7850000000000002E-12, 3.7191000000000005E-06, 1.0499999999999991E-05
DataValue, 0.875, 0.05, 3.9878E-06, 1.985E-12, -3.987E-06, 3.9878E-06, 1.985E-12, 3.987E-06, 1.0136000000000035E-05
DataValue, 0.9, 0.05, 4.2419000000000008E-06, 1.8450000000000003E-12, -4.2506000000000004E-06, 4.2419000000000008E-06, 1.8450000000000003E-12, 4.2506000000000004E-06, 1.0164000000000018E-05
DataValue, 0.925, 0.05, 4.5346000000000006E-06, 1.8650000000000002E-12, -4.5398E-06, 4.5346000000000006E-06, 1.8650000000000002E-12, 4.5398E-06, 1.170799999999998E-05
DataValue, 0.95000000000000007, 0.05, 4.8290000000000007E-06, 1.7050000000000001E-12, -4.8229000000000009E-06, 4.8290000000000007E-06, 1.7050000000000001E-12, 4.8229000000000009E-06, 1.1775999999999994E-05
DataValue, 0.97500000000000009, 0.05, 5.1341000000000005E-06, 1.955E-12, -5.1383E-06, 5.1341000000000005E-06, 1.955E-12, 5.1383E-06, 1.2203999999999983E-05
DataValue, 1, 0.05, 5.4491000000000009E-06, 1.815E-12, -5.4428000000000006E-06, 5.4491000000000009E-06, 1.815E-12, 5.4428000000000006E-06, 1.2600000000000059E-05
