
SetupTitle, IdVg_Vd_par
PrimitiveTest, I/V Sweep
TestParameter, Context.MainFrame, B1500A
TestParameter, Channel.UnitType, SMU, SMU, SMU
TestParameter, Channel.Unit, SMU3:HR, SMU2:HR, SMU1:HR
TestParameter, Channel.IName, Id, Ig, Is
TestParameter, Channel.VName, Vd, Vg, Vs
TestParameter, Channel.Mode, V, V, V
TestParameter, Channel.Func, VAR2, VAR1, CONST
TestParameter, Channel.Index, 
TestParameter, Channel.Time, 
TestParameter, Measurement.Port.Unit, SMU3:HR, SMU2:HR, SMU1:HR
TestParameter, Measurement.Port.SeriesResistor, NONE, NONE, NONE
TestParameter, Measurement.Port.Filter, ON, ON, ON
TestParameter, Measurement.Port.OutputVoltageComparison, 0, 0, 0
TestParameter, Measurement.Primary.Locus, Double
TestParameter, Measurement.Primary.Scale, LINEAR
TestParameter, Measurement.Primary.Start, -1
TestParameter, Measurement.Primary.Stop, 2
TestParameter, Measurement.Primary.Step, 0.025
TestParameter, Measurement.Primary.Compliance, 0.1
TestParameter, Measurement.Primary.PowerCompliance, 0
TestParameter, Measurement.Aborting.Condition, STOP AT ANY ABNORMAL
TestParameter, Measurement.PostOutput.Value, START
TestParameter, Measurement.PostOutput.Retention, OFF
TestParameter, Measurement.Secondary.Start, 0.05
TestParameter, Measurement.Secondary.Count, 2
TestParameter, Measurement.Secondary.Step, 0.95000000000000007
TestParameter, Measurement.Secondary.Compliance, 0.1
TestParameter, Measurement.Secondary.PowerCompliance, 0
TestParameter, Measurement.Bias.Source, 0.05, -1, 0
TestParameter, Measurement.Bias.Compliance, 0.1, 0.1, 0.1
TestParameter, Measurement.Monitor.Unit, SMU3:HR, SMU2:HR, SMU1:HR
TestParameter, Measurement.Monitor.Adc, HR ADC, HR ADC, HR ADC
TestParameter, Measurement.Monitor.Measurement, Compliance Side, Compliance Side, Compliance Side
TestParameter, Measurement.Monitor.RangingMode, LIMITED, LIMITED, LIMITED
TestParameter, Measurement.Monitor.RangeBoundary, 1nA, 1nA, 1nA
TestParameter, Measurement.Monitor.RangeRating, BY FULL RANGE, BY FULL RANGE, BY FULL RANGE
TestParameter, Measurement.Monitor.RangeRatingCoeff, 50, 50, 50
TestParameter, Measurement.Timing.Hold, 0
TestParameter, Measurement.Timing.Delay, 0
TestParameter, Measurement.Adc.HighSpeed.Mode, AUTO
TestParameter, Measurement.Adc.HighSpeed.Coeff, 1
TestParameter, Measurement.Adc.HighResolution.AutoZero, OFF
TestParameter, Measurement.Adc.HighResolution.Mode, AUTO
TestParameter, Measurement.Adc.HighResolution.Coeff, 6
TestParameter, Measurement.WaitTime.Source.Coeff, 1
TestParameter, Measurement.WaitTime.Source.Offset, 0
TestParameter, Measurement.WaitTime.Monitor.Coeff, 1
TestParameter, Measurement.WaitTime.Monitor.Offset, 0
TestParameter, Function.User.Name, absId, absIg, absIs, gm
TestParameter, Function.User.Unit, A, A, A, S
TestParameter, Function.User.Definition, abs(Id), abs(Ig), abs(Is), diff(abs(Id))/diff(Vg)
TestParameter, Output.Graph.Enabled, true
TestParameter, Output.Graph.AutoScaling, false
TestParameter, Output.Graph.XAxis.Data, Vg
TestParameter, Output.Graph.XAxis.Scale, Linear
TestParameter, Output.Graph.XAxis.Left, -1
TestParameter, Output.Graph.XAxis.Right, 2
TestParameter, Output.Graph.XAxis.RunTimeAutoScale, false
TestParameter, Output.Graph.YAxis.Data, absId, gm, absIg, absIs
TestParameter, Output.Graph.YAxis.Scale, Log, Linear, Log, Log
TestParameter, Output.Graph.YAxis.Bottom, 1E-15, 0, 1E-15, 1E-15
TestParameter, Output.Graph.YAxis.Top, 0.001, 1, 0.001, 0.001
TestParameter, Output.Graph.YAxis.Group, , , , 
TestParameter, Output.Graph.YAxis.RunTimeAutoScale, false, true, false, false
TestParameter, Output.List.Data, Vg, Vd, Id, Is, Ig, absId, absIs, absIg, gm
TestParameter, AutoAnalysis.Interpolation, false
TestParameter, AutoAnalysis.Var2StepCount, 1
TestParameter, AutoAnalysis.Var2StepScript, 
TestParameter, AutoAnalysis.Line1.Enabled, false
TestParameter, AutoAnalysis.Line1.Type, 1
TestParameter, AutoAnalysis.Line1.Fix, True
TestParameter, AutoAnalysis.Line1.YAxis, 0
TestParameter, AutoAnalysis.Line1.Point1.Type, 0
TestParameter, AutoAnalysis.Line1.Point1.XY.X, 
TestParameter, AutoAnalysis.Line1.Point1.XY.Y, 
TestParameter, AutoAnalysis.Line1.Point1.Data.Var, 
TestParameter, AutoAnalysis.Line1.Point1.Data.Condition, 
TestParameter, AutoAnalysis.Line1.Point1.Data.Start, false
TestParameter, AutoAnalysis.Line1.Point1.Data.StartVar, 
TestParameter, AutoAnalysis.Line1.Point1.Data.StartCondition, 
TestParameter, AutoAnalysis.Line1.Point2.Type, 0
TestParameter, AutoAnalysis.Line1.Point2.XY.X, 
TestParameter, AutoAnalysis.Line1.Point2.XY.Y, 
TestParameter, AutoAnalysis.Line1.Point2.Data.Var, 
TestParameter, AutoAnalysis.Line1.Point2.Data.Condition, 
TestParameter, AutoAnalysis.Line1.Point2.Data.Start, false
TestParameter, AutoAnalysis.Line1.Point2.Data.StartVar, 
TestParameter, AutoAnalysis.Line1.Point2.Data.StartCondition, 
TestParameter, AutoAnalysis.Line1.GradientExpr, 0
TestParameter, AutoAnalysis.Line2.Enabled, false
TestParameter, AutoAnalysis.Line2.Type, 1
TestParameter, AutoAnalysis.Line2.Fix, True
TestParameter, AutoAnalysis.Line2.YAxis, 0
TestParameter, AutoAnalysis.Line2.Point1.Type, 0
TestParameter, AutoAnalysis.Line2.Point1.XY.X, 
TestParameter, AutoAnalysis.Line2.Point1.XY.Y, 
TestParameter, AutoAnalysis.Line2.Point1.Data.Var, 
TestParameter, AutoAnalysis.Line2.Point1.Data.Condition, 
TestParameter, AutoAnalysis.Line2.Point1.Data.Start, false
TestParameter, AutoAnalysis.Line2.Point1.Data.StartVar, 
TestParameter, AutoAnalysis.Line2.Point1.Data.StartCondition, 
TestParameter, AutoAnalysis.Line2.Point2.Type, 0
TestParameter, AutoAnalysis.Line2.Point2.XY.X, 
TestParameter, AutoAnalysis.Line2.Point2.XY.Y, 
TestParameter, AutoAnalysis.Line2.Point2.Data.Var, 
TestParameter, AutoAnalysis.Line2.Point2.Data.Condition, 
TestParameter, AutoAnalysis.Line2.Point2.Data.Start, false
TestParameter, AutoAnalysis.Line2.Point2.Data.StartVar, 
TestParameter, AutoAnalysis.Line2.Point2.Data.StartCondition, 
TestParameter, AutoAnalysis.Line2.GradientExpr, 0
TestParameter, AutoAnalysis.Marker.Enabled, false
TestParameter, AutoAnalysis.Marker.Data.Var, 
TestParameter, AutoAnalysis.Marker.Data.Condition, 
TestParameter, AutoAnalysis.Marker.Data.Start, false
TestParameter, AutoAnalysis.Marker.Data.StartVar, 
TestParameter, AutoAnalysis.Marker.Data.StartCondition, 
MetaData, TestRecord.EntryPoint, true
MetaData, TestRecord.RecordTime, 06/03/2025 15:45:31
MetaData, TestRecord.TestTarget, R[4]_D[6]_L[100]
MetaData, TestRecord.IterationIndex, 1
MetaData, TestRecord.Preservation, true
MetaData, TestRecord.Flag, !
MetaData, TestRecord.Remarks, 
MetaData, TestRecord.LinkKey, 8225d5ef-2ae7-4170-88de-26bce0010d7f
MetaData, TestRecord.Parameters, 
Dimension1, 242, 242, 242, 242, 242, 242, 242, 242, 242
Dimension2, 2, 2, 2, 2, 2, 2, 2, 2, 2
DataName, Vg, Vd, Id, Ig, Is, absId, absIg, absIs, gm
DataValue, -1, 0.05, -3.3300000000000005E-13, 1.0350000000000001E-12, -2.3160000000000002E-12, 3.3300000000000005E-13, 1.0350000000000001E-12, 2.3160000000000002E-12, 
DataValue, -0.97500000000000009, 0.05, 1.2700000000000001E-13, 1.1350000000000001E-12, -2.106E-12, 1.2700000000000001E-13, 1.1350000000000001E-12, 2.106E-12, -8.2400000000000311E-12
DataValue, -0.95000000000000007, 0.05, 2.0700000000000003E-13, 1.285E-12, -2.176E-12, 2.0700000000000003E-13, 1.285E-12, 2.176E-12, 3.1999999999999977E-12
DataValue, -0.925, 0.05, 2.17E-13, 1.205E-12, -1.7160000000000002E-12, 2.17E-13, 1.205E-12, 1.7160000000000002E-12, 3.9999999999999895E-13
DataValue, -0.9, 0.05, -1.23E-13, 1.115E-12, -2.1960000000000003E-12, 1.23E-13, 1.115E-12, 2.1960000000000003E-12, -3.7599999999999969E-12
DataValue, -0.875, 0.05, -5.7300000000000008E-13, 1.255E-12, -2.1160000000000003E-12, 5.7300000000000008E-13, 1.255E-12, 2.1160000000000003E-12, 1.799999999999999E-11
DataValue, -0.85000000000000009, 0.05, -3.0000000000000002E-15, 6.35E-13, -2.3760000000000004E-12, 3.0000000000000002E-15, 6.35E-13, 2.3760000000000004E-12, -2.2800000000000085E-11
DataValue, -0.82500000000000007, 0.05, 3.77E-13, 1.3250000000000001E-12, -2.436E-12, 3.77E-13, 1.3250000000000001E-12, 2.436E-12, 1.4959999999999986E-11
DataValue, -0.8, 0.05, 4.0700000000000003E-13, 1.105E-12, -2.1460000000000003E-12, 4.0700000000000003E-13, 1.105E-12, 2.1460000000000003E-12, 1.2E-12
DataValue, -0.775, 0.05, 9.7E-14, 1.1750000000000001E-12, -1.7760000000000001E-12, 9.7E-14, 1.1750000000000001E-12, 1.7760000000000001E-12, -1.2399999999999991E-11
DataValue, -0.75, 0.05, -1.03E-13, 1.2250000000000001E-12, -2.136E-12, 1.03E-13, 1.2250000000000001E-12, 2.136E-12, 2.3999999999999979E-13
DataValue, -0.72500000000000009, 0.05, 7.7E-14, 1.4550000000000002E-12, -2.186E-12, 7.7E-14, 1.4550000000000002E-12, 2.186E-12, -1.0400000000000039E-12
DataValue, -0.70000000000000007, 0.05, 3.7E-14, 1.0750000000000002E-12, -2.2660000000000002E-12, 3.7E-14, 1.0750000000000002E-12, 2.2660000000000002E-12, -1.5999999999999986E-12
DataValue, -0.675, 0.05, 2.0700000000000003E-13, 9.0500000000000008E-13, -2.1160000000000003E-12, 2.0700000000000003E-13, 9.0500000000000008E-13, 2.1160000000000003E-12, 6.7999999999999953E-12
DataValue, -0.65, 0.05, 3.97E-13, 1.145E-12, -2.186E-12, 3.97E-13, 1.145E-12, 2.186E-12, 7.5999999999999935E-12
DataValue, -0.625, 0.05, -9.3000000000000008E-14, 1.375E-12, -1.976E-12, 9.3000000000000008E-14, 1.375E-12, 1.976E-12, -1.215999999999999E-11
DataValue, -0.6, 0.05, -1.7300000000000002E-13, 9.65E-13, -2.136E-12, 1.7300000000000002E-13, 9.65E-13, 2.136E-12, 3.1999999999999977E-12
DataValue, -0.57500000000000007, 0.05, -3.8300000000000003E-13, 1.045E-12, -2.336E-12, 3.8300000000000003E-13, 1.045E-12, 2.336E-12, 8.40000000000003E-12
DataValue, -0.55, 0.05, -2.73E-13, 7.75E-13, -1.856E-12, 2.73E-13, 7.75E-13, 1.856E-12, -4.3999999999999974E-12
DataValue, -0.525, 0.05, 1.0700000000000001E-13, 8.95E-13, -2.0660000000000003E-12, 1.0700000000000001E-13, 8.95E-13, 2.0660000000000003E-12, -6.6399999999999943E-12
DataValue, -0.5, 0.05, 1.6700000000000002E-13, 1.345E-12, -2.0960000000000004E-12, 1.6700000000000002E-13, 1.345E-12, 2.0960000000000004E-12, 2.3999999999999983E-12
DataValue, -0.47500000000000003, 0.05, 1.6700000000000002E-13, 1.255E-12, -2.0960000000000004E-12, 1.6700000000000002E-13, 1.255E-12, 2.0960000000000004E-12, 0
DataValue, -0.45, 0.05, -1.83E-13, 1.1650000000000002E-12, -2.226E-12, 1.83E-13, 1.1650000000000002E-12, 2.226E-12, 6.3999999999999869E-13
DataValue, -0.42500000000000004, 0.05, -1.63E-13, 1.1750000000000001E-12, -2.436E-12, 1.63E-13, 1.1750000000000001E-12, 2.436E-12, -8.0000000000000073E-13
DataValue, -0.4, 0.05, -1.1300000000000001E-13, 1.0250000000000002E-12, -2.176E-12, 1.1300000000000001E-13, 1.0250000000000002E-12, 2.176E-12, -1.9999999999999983E-12
DataValue, -0.375, 0.05, -3.3300000000000005E-13, 1.235E-12, -2.126E-12, 3.3300000000000005E-13, 1.235E-12, 2.126E-12, 8.7999999999999932E-12
DataValue, -0.35000000000000003, 0.05, 4.67E-13, 8.1500000000000006E-13, -2.326E-12, 4.67E-13, 8.1500000000000006E-13, 2.326E-12, 5.3600000000000062E-12
DataValue, -0.325, 0.05, 2.7000000000000002E-14, 1.185E-12, -2.2460000000000003E-12, 2.7000000000000002E-14, 1.185E-12, 2.2460000000000003E-12, -1.7599999999999986E-11
DataValue, -0.3, 0.05, 1.17E-13, 1.115E-12, -2.076E-12, 1.17E-13, 1.115E-12, 2.076E-12, 3.5999999999999972E-12
DataValue, -0.275, 0.05, 7.7E-14, 1.095E-12, -2.356E-12, 7.7E-14, 1.095E-12, 2.356E-12, -1.6000000000000025E-12
DataValue, -0.25, 0.05, 6.7E-14, 1.0250000000000002E-12, -2.4960000000000003E-12, 6.7E-14, 1.0250000000000002E-12, 2.4960000000000003E-12, -3.9999999999999946E-13
DataValue, -0.225, 0.05, 6.9700000000000006E-13, 1.295E-12, -2.586E-12, 6.9700000000000006E-13, 1.295E-12, 2.586E-12, 2.5200000000000007E-11
DataValue, -0.2, 0.05, 1.197E-12, 1.045E-12, -3.276E-12, 1.197E-12, 1.045E-12, 3.276E-12, 2.0000000000000005E-11
DataValue, -0.17500000000000002, 0.05, 2.6470000000000003E-12, 1.1350000000000001E-12, -4.656E-12, 2.6470000000000003E-12, 1.1350000000000001E-12, 4.656E-12, 5.8000000000000026E-11
DataValue, -0.15, 0.05, 5.7470000000000005E-12, 1.4450000000000002E-12, -8.036E-12, 5.7470000000000005E-12, 1.4450000000000002E-12, 8.036E-12, 1.2399999999999988E-10
DataValue, -0.125, 0.05, 1.4477000000000001E-11, 1.005E-12, -1.6526E-11, 1.4477000000000001E-11, 1.005E-12, 1.6526E-11, 3.4920000000000015E-10
DataValue, -0.1, 0.05, 3.4817E-11, 1.155E-12, -3.7196E-11, 3.4817E-11, 1.155E-12, 3.7196E-11, 8.1360000000000017E-10
DataValue, -0.075, 0.05, 8.4567000000000012E-11, 7.95E-13, -8.6526E-11, 8.4567000000000012E-11, 7.95E-13, 8.6526E-11, 1.9899999999999995E-09
DataValue, -0.05, 0.05, 1.97357E-10, 1.095E-12, -1.97156E-10, 1.97357E-10, 1.095E-12, 1.97156E-10, 4.5116000000000008E-09
DataValue, -0.025, 0.05, 4.46627E-10, 1.095E-12, -4.61586E-10, 4.46627E-10, 1.095E-12, 4.61586E-10, 9.9708E-09
DataValue, 0, 0.05, 1.012857E-09, 1.105E-12, -1.0141360000000002E-09, 1.012857E-09, 1.105E-12, 1.0141360000000002E-09, 2.26492E-08
DataValue, 0.025, 0.05, 2.13507E-09, 1.235E-12, -2.15894E-09, 2.13507E-09, 1.235E-12, 2.15894E-09, 4.4888520000000005E-08
DataValue, 0.05, 0.05, 4.42487E-09, 1.155E-12, -4.45414E-09, 4.42487E-09, 1.155E-12, 4.45414E-09, 9.1591999999999977E-08
DataValue, 0.075, 0.05, 8.46797E-09, 7.95E-13, -8.47044E-09, 8.46797E-09, 7.95E-13, 8.47044E-09, 1.6172400000000005E-07
DataValue, 0.1, 0.05, 1.52048E-08, 1.4450000000000002E-12, -1.4989E-08, 1.52048E-08, 1.4450000000000002E-12, 1.4989E-08, 2.6947319999999985E-07
DataValue, 0.125, 0.05, 2.54558E-08, 1.095E-12, -2.54164E-08, 2.54558E-08, 1.095E-12, 2.54164E-08, 4.1004000000000009E-07
DataValue, 0.15, 0.05, 4.0506199999999996E-08, 1.245E-12, -4.0338399999999995E-08, 4.0506199999999996E-08, 1.245E-12, 4.0338399999999995E-08, 6.02016E-07
DataValue, 0.17500000000000002, 0.05, 6.15058E-08, 1.2150000000000002E-12, -6.13438E-08, 6.15058E-08, 1.2150000000000002E-12, 6.13438E-08, 8.3998399999999925E-07
DataValue, 0.2, 0.05, 8.7740399999999985E-08, 7.25E-13, -8.7993999999999987E-08, 8.7740399999999985E-08, 7.25E-13, 8.7993999999999987E-08, 1.0493839999999998E-06
DataValue, 0.225, 0.05, 1.211E-07, 1.3150000000000002E-12, -1.2113999999999999E-07, 1.211E-07, 1.3150000000000002E-12, 1.2113999999999999E-07, 1.3343840000000005E-06
DataValue, 0.25, 0.05, 1.6158E-07, 1.195E-12, -1.6016E-07, 1.6158E-07, 1.195E-12, 1.6016E-07, 1.6192000000000005E-06
DataValue, 0.275, 0.05, 2.1208E-07, 9.950000000000001E-13, -2.1072E-07, 2.1208E-07, 9.950000000000001E-13, 2.1072E-07, 2.0199999999999984E-06
DataValue, 0.3, 0.05, 2.7136E-07, 1.245E-12, -2.7154E-07, 2.7136E-07, 1.245E-12, 2.7154E-07, 2.3712000000000037E-06
DataValue, 0.325, 0.05, 3.3415999999999997E-07, 8.65E-13, -3.3548E-07, 3.3415999999999997E-07, 8.65E-13, 3.3548E-07, 2.511999999999996E-06
DataValue, 0.35000000000000003, 0.05, 4.1242E-07, 1.2650000000000002E-12, -4.1148E-07, 4.1242E-07, 1.2650000000000002E-12, 4.1148E-07, 3.1303999999999976E-06
DataValue, 0.375, 0.05, 5.0088E-07, 1.3550000000000002E-12, -4.9774E-07, 5.0088E-07, 1.3550000000000002E-12, 4.9774E-07, 3.5384000000000062E-06
DataValue, 0.4, 0.05, 5.8912E-07, 1.095E-12, -5.907E-07, 5.8912E-07, 1.095E-12, 5.907E-07, 3.5295999999999971E-06
DataValue, 0.42500000000000004, 0.05, 6.9364E-07, 1.1250000000000002E-12, -6.9178E-07, 6.9364E-07, 1.1250000000000002E-12, 6.9178E-07, 4.1807999999999939E-06
DataValue, 0.45, 0.05, 7.972E-07, 9.8500000000000014E-13, -7.974E-07, 7.972E-07, 9.8500000000000014E-13, 7.974E-07, 4.1424000000000063E-06
DataValue, 0.47500000000000003, 0.05, 9.2397999999999994E-07, 1.045E-12, -9.2216E-07, 9.2397999999999994E-07, 1.045E-12, 9.2216E-07, 5.0711999999999947E-06
DataValue, 0.5, 0.05, 1.05E-06, 1.5050000000000002E-12, -1.0475E-06, 1.05E-06, 1.5050000000000002E-12, 1.0475E-06, 5.0408000000000052E-06
DataValue, 0.525, 0.05, 1.1777000000000002E-06, 1.3150000000000002E-12, -1.168E-06, 1.1777000000000002E-06, 1.3150000000000002E-12, 1.168E-06, 5.1080000000000068E-06
DataValue, 0.55, 0.05, 1.3191000000000002E-06, 8.050000000000001E-13, -1.3234000000000001E-06, 1.3191000000000002E-06, 8.050000000000001E-13, 1.3234000000000001E-06, 5.6559999999999963E-06
DataValue, 0.57500000000000007, 0.05, 1.4762000000000002E-06, 9.0500000000000008E-13, -1.4733000000000002E-06, 1.4762000000000002E-06, 9.0500000000000008E-13, 1.4733000000000002E-06, 6.2839999999999918E-06
DataValue, 0.6, 0.05, 1.6375000000000002E-06, 1.3250000000000001E-12, -1.6403000000000002E-06, 1.6375000000000002E-06, 1.3250000000000001E-12, 1.6403000000000002E-06, 6.4520000000000248E-06
DataValue, 0.625, 0.05, 1.8070000000000002E-06, 1.4050000000000002E-12, -1.8054000000000001E-06, 1.8070000000000002E-06, 1.4050000000000002E-12, 1.8054000000000001E-06, 6.7799999999999952E-06
DataValue, 0.65, 0.05, 1.9914E-06, 1.295E-12, -1.9839E-06, 1.9914E-06, 1.295E-12, 1.9839E-06, 7.3759999999999883E-06
DataValue, 0.675, 0.05, 2.1807E-06, 1.285E-12, -2.1894E-06, 2.1807E-06, 1.285E-12, 2.1894E-06, 7.5719999999999946E-06
DataValue, 0.70000000000000007, 0.05, 2.3932000000000002E-06, 1.2250000000000001E-12, -2.4003E-06, 2.3932000000000002E-06, 1.2250000000000001E-12, 2.4003E-06, 8.4999999999999965E-06
DataValue, 0.72500000000000009, 0.05, 2.6038000000000004E-06, 1.2150000000000002E-12, -2.6052E-06, 2.6038000000000004E-06, 1.2150000000000002E-12, 2.6052E-06, 8.424E-06
DataValue, 0.75, 0.05, 2.8206E-06, 9.15E-13, -2.8236000000000004E-06, 2.8206E-06, 9.15E-13, 2.8236000000000004E-06, 8.6720000000000213E-06
DataValue, 0.775, 0.05, 3.0461000000000004E-06, 9.4500000000000011E-13, -3.0374000000000003E-06, 3.0461000000000004E-06, 9.4500000000000011E-13, 3.0374000000000003E-06, 9.02E-06
DataValue, 0.8, 0.05, 3.2934000000000005E-06, 1.095E-12, -3.2762000000000005E-06, 3.2934000000000005E-06, 1.095E-12, 3.2762000000000005E-06, 9.8919999999999978E-06
DataValue, 0.82500000000000007, 0.05, 3.5360000000000005E-06, 8.45E-13, -3.5360000000000005E-06, 3.5360000000000005E-06, 8.45E-13, 3.5360000000000005E-06, 9.7039999999999921E-06
DataValue, 0.85000000000000009, 0.05, 3.7931000000000006E-06, 1.005E-12, -3.7879E-06, 3.7931000000000006E-06, 1.005E-12, 3.7879E-06, 1.0283999999999993E-05
DataValue, 0.875, 0.05, 4.0507E-06, 1.3150000000000002E-12, -4.0531E-06, 4.0507E-06, 1.3150000000000002E-12, 4.0531E-06, 1.0304000000000015E-05
DataValue, 0.9, 0.05, 4.3284000000000008E-06, 1.045E-12, -4.3286E-06, 4.3284000000000008E-06, 1.045E-12, 4.3286E-06, 1.110800000000002E-05
DataValue, 0.925, 0.05, 4.612E-06, 1.3050000000000002E-12, -4.5972000000000006E-06, 4.612E-06, 1.3050000000000002E-12, 4.5972000000000006E-06, 1.1343999999999961E-05
DataValue, 0.95000000000000007, 0.05, 4.8914E-06, 1.295E-12, -4.8925E-06, 4.8914E-06, 1.295E-12, 4.8925E-06, 1.1176E-05
DataValue, 0.97500000000000009, 0.05, 5.1953000000000009E-06, 1.375E-12, -5.1910000000000008E-06, 5.1953000000000009E-06, 1.375E-12, 5.1910000000000008E-06, 1.2156000000000014E-05
DataValue, 1, 0.05, 5.5290000000000008E-06, 8.3500000000000008E-13, -5.5167000000000009E-06, 5.5290000000000008E-06, 8.3500000000000008E-13, 5.5167000000000009E-06, 1.3348000000000042E-05
DataValue, 1.0250000000000001, 0.05, 5.8289E-06, 9.8500000000000014E-13, -5.8515000000000006E-06, 5.8289E-06, 9.8500000000000014E-13, 5.8515000000000006E-06, 1.1995999999999914E-05
DataValue, 1.05, 0.05, 6.1697E-06, 1.0750000000000002E-12, -6.165E-06, 6.1697E-06, 1.0750000000000002E-12, 6.165E-06, 1.3632000000000057E-05
DataValue, 1.075, 0.05, 6.4840000000000009E-06, 1.105E-12, -6.4865000000000005E-06, 6.4840000000000009E-06, 1.105E-12, 6.4865000000000005E-06, 1.2572000000000065E-05
DataValue, 1.1, 0.05, 6.8240000000000011E-06, 9.8500000000000014E-13, -6.8269000000000007E-06, 6.8240000000000011E-06, 9.8500000000000014E-13, 6.8269000000000007E-06, 1.3599999999999933E-05
