
SetupTitle, IdVg_Vd_par
PrimitiveTest, I/V Sweep
TestParameter, Context.MainFrame, B1500A
TestParameter, Channel.UnitType, SMU, SMU, SMU
TestParameter, Channel.Unit, SMU3:HR, SMU2:HR, SMU1:HR
TestParameter, Channel.IName, Id, Ig, Is
TestParameter, Channel.VName, Vd, Vg, Vs
TestParameter, Channel.Mode, V, V, V
TestParameter, Channel.Func, VAR2, VAR1, CONST
TestParameter, Channel.Index, 
TestParameter, Channel.Time, 
TestParameter, Measurement.Port.Unit, SMU3:HR, SMU2:HR, SMU1:HR
TestParameter, Measurement.Port.SeriesResistor, NONE, NONE, NONE
TestParameter, Measurement.Port.Filter, ON, ON, ON
TestParameter, Measurement.Port.OutputVoltageComparison, 0, 0, 0
TestParameter, Measurement.Primary.Locus, Double
TestParameter, Measurement.Primary.Scale, LINEAR
TestParameter, Measurement.Primary.Start, -1
TestParameter, Measurement.Primary.Stop, 2
TestParameter, Measurement.Primary.Step, 0.025
TestParameter, Measurement.Primary.Compliance, 0.1
TestParameter, Measurement.Primary.PowerCompliance, 0
TestParameter, Measurement.Aborting.Condition, STOP AT ANY ABNORMAL
TestParameter, Measurement.PostOutput.Value, START
TestParameter, Measurement.PostOutput.Retention, OFF
TestParameter, Measurement.Secondary.Start, 0.05
TestParameter, Measurement.Secondary.Count, 2
TestParameter, Measurement.Secondary.Step, 0.95000000000000007
TestParameter, Measurement.Secondary.Compliance, 0.1
TestParameter, Measurement.Secondary.PowerCompliance, 0
TestParameter, Measurement.Bias.Source, 0.05, -1, 0
TestParameter, Measurement.Bias.Compliance, 0.1, 0.1, 0.1
TestParameter, Measurement.Monitor.Unit, SMU3:HR, SMU2:HR, SMU1:HR
TestParameter, Measurement.Monitor.Adc, HR ADC, HR ADC, HR ADC
TestParameter, Measurement.Monitor.Measurement, Compliance Side, Compliance Side, Compliance Side
TestParameter, Measurement.Monitor.RangingMode, LIMITED, LIMITED, LIMITED
TestParameter, Measurement.Monitor.RangeBoundary, 1nA, 1nA, 1nA
TestParameter, Measurement.Monitor.RangeRating, BY FULL RANGE, BY FULL RANGE, BY FULL RANGE
TestParameter, Measurement.Monitor.RangeRatingCoeff, 50, 50, 50
TestParameter, Measurement.Timing.Hold, 0
TestParameter, Measurement.Timing.Delay, 0
TestParameter, Measurement.Adc.HighSpeed.Mode, AUTO
TestParameter, Measurement.Adc.HighSpeed.Coeff, 1
TestParameter, Measurement.Adc.HighResolution.AutoZero, OFF
TestParameter, Measurement.Adc.HighResolution.Mode, AUTO
TestParameter, Measurement.Adc.HighResolution.Coeff, 6
TestParameter, Measurement.WaitTime.Source.Coeff, 1
TestParameter, Measurement.WaitTime.Source.Offset, 0
TestParameter, Measurement.WaitTime.Monitor.Coeff, 1
TestParameter, Measurement.WaitTime.Monitor.Offset, 0
TestParameter, Function.User.Name, absId, absIg, absIs, gm
TestParameter, Function.User.Unit, A, A, A, S
TestParameter, Function.User.Definition, abs(Id), abs(Ig), abs(Is), diff(abs(Id))/diff(Vg)
TestParameter, Output.Graph.Enabled, true
TestParameter, Output.Graph.AutoScaling, false
TestParameter, Output.Graph.XAxis.Data, Vg
TestParameter, Output.Graph.XAxis.Scale, Linear
TestParameter, Output.Graph.XAxis.Left, -1
TestParameter, Output.Graph.XAxis.Right, 2
TestParameter, Output.Graph.XAxis.RunTimeAutoScale, false
TestParameter, Output.Graph.YAxis.Data, gm, absId, absIg, absIs
TestParameter, Output.Graph.YAxis.Scale, Linear, Log, Log, Log
TestParameter, Output.Graph.YAxis.Bottom, 0, 1E-15, 1E-15, 1E-15
TestParameter, Output.Graph.YAxis.Top, 1, 0.001, 0.001, 0.001
TestParameter, Output.Graph.YAxis.Group, , , , 
TestParameter, Output.Graph.YAxis.RunTimeAutoScale, true, false, false, false
TestParameter, Output.List.Data, Vg, Vd, Id, Is, Ig, absId, absIs, absIg, gm
TestParameter, AutoAnalysis.Interpolation, false
TestParameter, AutoAnalysis.Var2StepCount, 1
TestParameter, AutoAnalysis.Var2StepScript, 
TestParameter, AutoAnalysis.Line1.Enabled, false
TestParameter, AutoAnalysis.Line1.Type, 1
TestParameter, AutoAnalysis.Line1.Fix, True
TestParameter, AutoAnalysis.Line1.YAxis, 0
TestParameter, AutoAnalysis.Line1.Point1.Type, 0
TestParameter, AutoAnalysis.Line1.Point1.XY.X, 
TestParameter, AutoAnalysis.Line1.Point1.XY.Y, 
TestParameter, AutoAnalysis.Line1.Point1.Data.Var, 
TestParameter, AutoAnalysis.Line1.Point1.Data.Condition, 
TestParameter, AutoAnalysis.Line1.Point1.Data.Start, false
TestParameter, AutoAnalysis.Line1.Point1.Data.StartVar, 
TestParameter, AutoAnalysis.Line1.Point1.Data.StartCondition, 
TestParameter, AutoAnalysis.Line1.Point2.Type, 0
TestParameter, AutoAnalysis.Line1.Point2.XY.X, 
TestParameter, AutoAnalysis.Line1.Point2.XY.Y, 
TestParameter, AutoAnalysis.Line1.Point2.Data.Var, 
TestParameter, AutoAnalysis.Line1.Point2.Data.Condition, 
TestParameter, AutoAnalysis.Line1.Point2.Data.Start, false
TestParameter, AutoAnalysis.Line1.Point2.Data.StartVar, 
TestParameter, AutoAnalysis.Line1.Point2.Data.StartCondition, 
TestParameter, AutoAnalysis.Line1.GradientExpr, 0
TestParameter, AutoAnalysis.Line2.Enabled, false
TestParameter, AutoAnalysis.Line2.Type, 1
TestParameter, AutoAnalysis.Line2.Fix, True
TestParameter, AutoAnalysis.Line2.YAxis, 0
TestParameter, AutoAnalysis.Line2.Point1.Type, 0
TestParameter, AutoAnalysis.Line2.Point1.XY.X, 
TestParameter, AutoAnalysis.Line2.Point1.XY.Y, 
TestParameter, AutoAnalysis.Line2.Point1.Data.Var, 
TestParameter, AutoAnalysis.Line2.Point1.Data.Condition, 
TestParameter, AutoAnalysis.Line2.Point1.Data.Start, false
TestParameter, AutoAnalysis.Line2.Point1.Data.StartVar, 
TestParameter, AutoAnalysis.Line2.Point1.Data.StartCondition, 
TestParameter, AutoAnalysis.Line2.Point2.Type, 0
TestParameter, AutoAnalysis.Line2.Point2.XY.X, 
TestParameter, AutoAnalysis.Line2.Point2.XY.Y, 
TestParameter, AutoAnalysis.Line2.Point2.Data.Var, 
TestParameter, AutoAnalysis.Line2.Point2.Data.Condition, 
TestParameter, AutoAnalysis.Line2.Point2.Data.Start, false
TestParameter, AutoAnalysis.Line2.Point2.Data.StartVar, 
TestParameter, AutoAnalysis.Line2.Point2.Data.StartCondition, 
TestParameter, AutoAnalysis.Line2.GradientExpr, 0
TestParameter, AutoAnalysis.Marker.Enabled, false
TestParameter, AutoAnalysis.Marker.Data.Var, 
TestParameter, AutoAnalysis.Marker.Data.Condition, 
TestParameter, AutoAnalysis.Marker.Data.Start, false
TestParameter, AutoAnalysis.Marker.Data.StartVar, 
TestParameter, AutoAnalysis.Marker.Data.StartCondition, 
MetaData, TestRecord.EntryPoint, true
MetaData, TestRecord.RecordTime, 06/03/2025 12:54:59
MetaData, TestRecord.TestTarget, R[5]_D[6]_L[1000]
MetaData, TestRecord.IterationIndex, 2
MetaData, TestRecord.Preservation, true
MetaData, TestRecord.Flag, !
MetaData, TestRecord.Remarks, 
MetaData, TestRecord.LinkKey, 571f7612-cb02-4d80-8849-d5f936c5e8d1
MetaData, TestRecord.Parameters, 
Dimension1, 242, 242, 242, 242, 242, 242, 242, 242, 242
Dimension2, 2, 2, 2, 2, 2, 2, 2, 2, 2
DataName, Vg, Vd, Id, Ig, Is, absId, absIg, absIs, gm
DataValue, -1, 0.05, 5.5000000000000008E-13, -2.64E-12, -1.6100000000000002E-12, 5.5000000000000008E-13, 2.64E-12, 1.6100000000000002E-12, 
DataValue, -0.97500000000000009, 0.05, 7E-14, -2.3500000000000003E-12, -1.8900000000000002E-12, 7E-14, 2.3500000000000003E-12, 1.8900000000000002E-12, -1.920000000000007E-11
DataValue, -0.95000000000000007, 0.05, 1.3E-13, -2.6800000000000003E-12, -1.79E-12, 1.3E-13, 2.6800000000000003E-12, 1.79E-12, 2.3999999999999979E-12
DataValue, -0.925, 0.05, -1.5000000000000002E-13, -2.1700000000000002E-12, -1.3300000000000002E-12, 1.5000000000000002E-13, 2.1700000000000002E-12, 1.3300000000000002E-12, 7.9999999999999992E-13
DataValue, -0.9, 0.05, -1.0000000000000002E-14, -2.16E-12, -1.4200000000000002E-12, 1.0000000000000002E-14, 2.16E-12, 1.4200000000000002E-12, -5.5999999999999955E-12
DataValue, -0.875, 0.05, -2.8E-13, -2.21E-12, -1.9200000000000003E-12, 2.8E-13, 2.21E-12, 1.9200000000000003E-12, 1.0799999999999991E-11
DataValue, -0.85000000000000009, 0.05, -2E-13, -2.4300000000000003E-12, -1.5600000000000002E-12, 2E-13, 2.4300000000000003E-12, 1.5600000000000002E-12, -3.2000000000000118E-12
DataValue, -0.82500000000000007, 0.05, -6.0000000000000009E-14, -2.46E-12, -2.0500000000000004E-12, 6.0000000000000009E-14, 2.46E-12, 2.0500000000000004E-12, -5.5999999999999955E-12
DataValue, -0.8, 0.05, -9.0000000000000008E-14, -2.52E-12, -1.5400000000000001E-12, 9.0000000000000008E-14, 2.52E-12, 1.5400000000000001E-12, 1.1999999999999989E-12
DataValue, -0.775, 0.05, 2.4000000000000004E-13, -2.4000000000000003E-12, -1.27E-12, 2.4000000000000004E-13, 2.4000000000000003E-12, 1.27E-12, 5.9999999999999954E-12
DataValue, -0.75, 0.05, 4.1E-13, -2.3300000000000004E-12, -1.5E-12, 4.1E-13, 2.3300000000000004E-12, 1.5E-12, 6.7999999999999936E-12
DataValue, -0.72500000000000009, 0.05, -7E-14, -2.3300000000000004E-12, -1.5300000000000001E-12, 7E-14, 2.3300000000000004E-12, 1.5300000000000001E-12, -1.3600000000000049E-11
DataValue, -0.70000000000000007, 0.05, 1.0000000000000002E-14, -2.4500000000000003E-12, -1.5300000000000001E-12, 1.0000000000000002E-14, 2.4500000000000003E-12, 1.5300000000000001E-12, -2.3999999999999979E-12
DataValue, -0.675, 0.05, 1.1000000000000001E-13, -2.52E-12, -1.7000000000000002E-12, 1.1000000000000001E-13, 2.52E-12, 1.7000000000000002E-12, 3.9999999999999967E-12
DataValue, -0.65, 0.05, -2E-13, -2.24E-12, -1.5600000000000002E-12, 2E-13, 2.24E-12, 1.5600000000000002E-12, 3.5999999999999968E-12
DataValue, -0.625, 0.05, 3.5E-13, -2.26E-12, -1.3000000000000001E-12, 3.5E-13, 2.26E-12, 1.3000000000000001E-12, 5.9999999999999954E-12
DataValue, -0.6, 0.05, 4.7E-13, -2.3300000000000004E-12, -1.3900000000000001E-12, 4.7E-13, 2.3300000000000004E-12, 1.3900000000000001E-12, 4.7999999999999957E-12
DataValue, -0.57500000000000007, 0.05, 7E-14, -2.41E-12, -1.8700000000000003E-12, 7E-14, 2.41E-12, 1.8700000000000003E-12, -1.6000000000000058E-11
DataValue, -0.55, 0.05, -3.0000000000000005E-14, -2.18E-12, -1.78E-12, 3.0000000000000005E-14, 2.18E-12, 1.78E-12, -1.5999999999999986E-12
DataValue, -0.525, 0.05, -2.9000000000000003E-13, -2.44E-12, -1.8700000000000003E-12, 2.9000000000000003E-13, 2.44E-12, 1.8700000000000003E-12, 1.0399999999999991E-11
DataValue, -0.5, 0.05, -2.7E-13, -2.7800000000000003E-12, -1.51E-12, 2.7E-13, 2.7800000000000003E-12, 1.51E-12, -7.9999999999999992E-13
DataValue, -0.47500000000000003, 0.05, 2.4000000000000004E-13, -2.46E-12, -1.5200000000000002E-12, 2.4000000000000004E-13, 2.46E-12, 1.5200000000000002E-12, -1.2000000000000005E-12
DataValue, -0.45, 0.05, 1.8000000000000002E-13, -2.28E-12, -1.5300000000000001E-12, 1.8000000000000002E-13, 2.28E-12, 1.5300000000000001E-12, -2.3999999999999987E-12
DataValue, -0.42500000000000004, 0.05, 1.3E-13, -2.6300000000000003E-12, -1.5200000000000002E-12, 1.3E-13, 2.6300000000000003E-12, 1.5200000000000002E-12, -2.0000000000000032E-12
DataValue, -0.4, 0.05, -8.0000000000000013E-14, -2.5300000000000003E-12, -1.4300000000000002E-12, 8.0000000000000013E-14, 2.5300000000000003E-12, 1.4300000000000002E-12, -1.9999999999999979E-12
DataValue, -0.375, 0.05, 1.7E-13, -2.19E-12, -1.5800000000000001E-12, 1.7E-13, 2.19E-12, 1.5800000000000001E-12, 3.5999999999999968E-12
DataValue, -0.35000000000000003, 0.05, -2.3000000000000003E-13, -2.1700000000000002E-12, -1.8100000000000002E-12, 2.3000000000000003E-13, 2.1700000000000002E-12, 1.8100000000000002E-12, 2.4000000000000039E-12
DataValue, -0.325, 0.05, 2.6E-13, -2.24E-12, -1.5200000000000002E-12, 2.6E-13, 2.24E-12, 1.5200000000000002E-12, 1.1999999999999979E-12
DataValue, -0.3, 0.05, 3.3E-13, -2.28E-12, -1.26E-12, 3.3E-13, 2.28E-12, 1.26E-12, 2.7999999999999978E-12
DataValue, -0.275, 0.05, -1.0000000000000002E-14, -2.59E-12, -1.23E-12, 1.0000000000000002E-14, 2.59E-12, 1.23E-12, -1.2800000000000017E-11
DataValue, -0.25, 0.05, -1.1000000000000001E-13, -2.5000000000000003E-12, -1.5300000000000001E-12, 1.1000000000000001E-13, 2.5000000000000003E-12, 1.5300000000000001E-12, 3.9999999999999967E-12
DataValue, -0.225, 0.05, -2.5E-13, -2.03E-12, -1.9E-12, 2.5E-13, 2.03E-12, 1.9E-12, 5.6E-12
DataValue, -0.2, 0.05, 1.7E-13, -2.44E-12, -1.69E-12, 1.7E-13, 2.44E-12, 1.69E-12, -3.2E-12
DataValue, -0.17500000000000002, 0.05, 4.2000000000000003E-13, -2.5000000000000003E-12, -1.31E-12, 4.2000000000000003E-13, 2.5000000000000003E-12, 1.31E-12, 1.0000000000000004E-11
DataValue, -0.15, 0.05, -3.0000000000000005E-14, -1.98E-12, -1.51E-12, 3.0000000000000005E-14, 1.98E-12, 1.51E-12, -1.5599999999999987E-11
DataValue, -0.125, 0.05, 4E-13, -2.54E-12, -1.55E-12, 4E-13, 2.54E-12, 1.55E-12, 1.4800000000000003E-11
DataValue, -0.1, 0.05, -1.1000000000000001E-13, -2.19E-12, -1.8900000000000002E-12, 1.1000000000000001E-13, 2.19E-12, 1.8900000000000002E-12, -1.1600000000000002E-11
DataValue, -0.075, 0.05, -2.1000000000000001E-13, -2.4300000000000003E-12, -1.5700000000000002E-12, 2.1000000000000001E-13, 2.4300000000000003E-12, 1.5700000000000002E-12, 3.9999999999999991E-12
DataValue, -0.05, 0.05, -1.1000000000000001E-13, -2.41E-12, -1.86E-12, 1.1000000000000001E-13, 2.41E-12, 1.86E-12, -4.0000000000000007E-12
DataValue, -0.025, 0.05, 3.3E-13, -2.09E-12, -1.5300000000000001E-12, 3.3E-13, 2.09E-12, 1.5300000000000001E-12, 8.8E-12
DataValue, 0, 0.05, 4.2000000000000003E-13, -2.49E-12, -2.16E-12, 4.2000000000000003E-13, 2.49E-12, 2.16E-12, 3.6000000000000008E-12
DataValue, 0.025, 0.05, 9.7000000000000011E-13, -2.3500000000000003E-12, -2.4800000000000003E-12, 9.7000000000000011E-13, 2.3500000000000003E-12, 2.4800000000000003E-12, 2.2E-11
DataValue, 0.05, 0.05, 3.0100000000000003E-12, -1.93E-12, -4.84E-12, 3.0100000000000003E-12, 1.93E-12, 4.84E-12, 8.1600000000000008E-11
DataValue, 0.075, 0.05, 7.81E-12, -2.3800000000000004E-12, -9.58E-12, 7.81E-12, 2.3800000000000004E-12, 9.58E-12, 1.9200000000000004E-10
DataValue, 0.1, 0.05, 1.965E-11, -2.44E-12, -2.1190000000000003E-11, 1.965E-11, 2.44E-12, 2.1190000000000003E-11, 4.7359999999999989E-10
DataValue, 0.125, 0.05, 4.7800000000000006E-11, -2.18E-12, -4.905E-11, 4.7800000000000006E-11, 2.18E-12, 4.905E-11, 1.1260000000000005E-09
DataValue, 0.15, 0.05, 1.1080000000000001E-10, -2.1700000000000002E-12, -1.1203000000000001E-10, 1.1080000000000001E-10, 2.1700000000000002E-12, 1.1203000000000001E-10, 2.5200000000000008E-09
DataValue, 0.17500000000000002, 0.05, 2.4517000000000004E-10, -2.29E-12, -2.4509000000000003E-10, 2.4517000000000004E-10, 2.29E-12, 2.4509000000000003E-10, 5.374799999999996E-09
DataValue, 0.2, 0.05, 5.1922E-10, -2.3200000000000002E-12, -5.1682000000000008E-10, 5.1922E-10, 2.3200000000000002E-12, 5.1682000000000008E-10, 1.0962E-08
DataValue, 0.225, 0.05, 1.02046E-09, -2.42E-12, -1.0210100000000002E-09, 1.02046E-09, 2.42E-12, 1.0210100000000002E-09, 2.0049600000000006E-08
DataValue, 0.25, 0.05, 1.8531E-09, -2.49E-12, -1.8387E-09, 1.8531E-09, 2.49E-12, 1.8387E-09, 3.3305600000000005E-08
DataValue, 0.275, 0.05, 3.2081E-09, -2.67E-12, -3.2044E-09, 3.2081E-09, 2.67E-12, 3.2044E-09, 5.4199999999999956E-08
DataValue, 0.3, 0.05, 5.2281E-09, -2.26E-12, -5.22E-09, 5.2281E-09, 2.26E-12, 5.22E-09, 8.0800000000000115E-08
DataValue, 0.325, 0.05, 8.0152E-09, -2.1500000000000003E-12, -8.0044E-09, 8.0152E-09, 2.1500000000000003E-12, 8.0044E-09, 1.114839999999999E-07
DataValue, 0.35000000000000003, 0.05, 1.1619599999999999E-08, -2.41E-12, -1.1635199999999999E-08, 1.1619599999999999E-08, 2.41E-12, 1.1635199999999999E-08, 1.4417599999999982E-07
DataValue, 0.375, 0.05, 1.62932E-08, -2.41E-12, -1.6247E-08, 1.62932E-08, 2.41E-12, 1.6247E-08, 1.8694400000000027E-07
DataValue, 0.4, 0.05, 2.2089799999999997E-08, -2.36E-12, -2.2042999999999998E-08, 2.2089799999999997E-08, 2.36E-12, 2.2042999999999998E-08, 2.3186399999999967E-07
DataValue, 0.42500000000000004, 0.05, 2.8943199999999997E-08, -2.3300000000000004E-12, -2.8877799999999998E-08, 2.8943199999999997E-08, 2.3300000000000004E-12, 2.8877799999999998E-08, 2.7413599999999978E-07
DataValue, 0.45, 0.05, 3.6971399999999996E-08, -2.75E-12, -3.6975399999999994E-08, 3.6971399999999996E-08, 2.75E-12, 3.6975399999999994E-08, 3.2112800000000039E-07
DataValue, 0.47500000000000003, 0.05, 4.6394199999999996E-08, -2.24E-12, -4.64012E-08, 4.6394199999999996E-08, 2.24E-12, 4.64012E-08, 3.7691199999999969E-07
DataValue, 0.5, 0.05, 5.7037799999999993E-08, -2.5800000000000003E-12, -5.6973199999999994E-08, 5.7037799999999993E-08, 2.5800000000000003E-12, 5.6973199999999994E-08, 4.2574400000000048E-07
DataValue, 0.525, 0.05, 6.88252E-08, -2.1000000000000003E-12, -6.87912E-08, 6.88252E-08, 2.1000000000000003E-12, 6.87912E-08, 4.7149599999999958E-07
DataValue, 0.55, 0.05, 8.19954E-08, -2.2500000000000003E-12, -8.18466E-08, 8.19954E-08, 2.2500000000000003E-12, 8.18466E-08, 5.2680799999999967E-07
DataValue, 0.57500000000000007, 0.05, 9.65614E-08, -2.34E-12, -9.63284E-08, 9.65614E-08, 2.34E-12, 9.63284E-08, 5.8263999999999945E-07
DataValue, 0.6, 0.05, 1.1210779999999999E-07, -2.3000000000000003E-12, -1.1204519999999999E-07, 1.1210779999999999E-07, 2.3000000000000003E-12, 1.1204519999999999E-07, 6.21856000000002E-07
DataValue, 0.625, 0.05, 1.2937999999999999E-07, -2.3300000000000004E-12, -1.293E-07, 1.2937999999999999E-07, 2.3300000000000004E-12, 1.293E-07, 6.9088799999999917E-07
DataValue, 0.65, 0.05, 1.4782E-07, -2.23E-12, -1.4776E-07, 1.4782E-07, 2.23E-12, 1.4776E-07, 7.3760000000000036E-07
DataValue, 0.675, 0.05, 1.6749999999999998E-07, -2.1500000000000003E-12, -1.6732E-07, 1.6749999999999998E-07, 2.1500000000000003E-12, 1.6732E-07, 7.8719999999999826E-07
DataValue, 0.70000000000000007, 0.05, 1.8892E-07, -2.0700000000000003E-12, -1.8894E-07, 1.8892E-07, 2.0700000000000003E-12, 1.8894E-07, 8.5679999999999989E-07
DataValue, 0.72500000000000009, 0.05, 2.1184E-07, -2.46E-12, -2.1203999999999999E-07, 2.1184E-07, 2.46E-12, 2.1203999999999999E-07, 9.16799999999999E-07
DataValue, 0.75, 0.05, 2.3628E-07, -2.51E-12, -2.3638E-07, 2.3628E-07, 2.51E-12, 2.3638E-07, 9.7760000000000335E-07
DataValue, 0.775, 0.05, 2.6172E-07, -2.21E-12, -2.617E-07, 2.6172E-07, 2.21E-12, 2.617E-07, 1.017599999999999E-06
DataValue, 0.8, 0.05, 2.8872E-07, -2.13E-12, -2.8852E-07, 2.8872E-07, 2.13E-12, 2.8852E-07, 1.0799999999999996E-06
DataValue, 0.82500000000000007, 0.05, 3.1738E-07, -2.36E-12, -3.1748E-07, 3.1738E-07, 2.36E-12, 3.1748E-07, 1.1463999999999987E-06
DataValue, 0.85000000000000009, 0.05, 3.4782E-07, -2.2200000000000002E-12, -3.4802E-07, 3.4782E-07, 2.2200000000000002E-12, 3.4802E-07, 1.2175999999999989E-06
DataValue, 0.875, 0.05, 3.7918E-07, -2.39E-12, -3.7924E-07, 3.7918E-07, 2.39E-12, 3.7924E-07, 1.2544000000000038E-06
DataValue, 0.9, 0.05, 4.1252E-07, -2.04E-12, -4.1256E-07, 4.1252E-07, 2.04E-12, 4.1256E-07, 1.333599999999999E-06
DataValue, 0.925, 0.05, 4.4688E-07, -2.2700000000000002E-12, -4.4671999999999997E-07, 4.4688E-07, 2.2700000000000002E-12, 4.4671999999999997E-07, 1.3743999999999987E-06
DataValue, 0.95000000000000007, 0.05, 4.8286E-07, -2.51E-12, -4.8296E-07, 4.8286E-07, 2.51E-12, 4.8296E-07, 1.4392000000000001E-06
DataValue, 0.97500000000000009, 0.05, 5.2018E-07, -2.28E-12, -5.1984E-07, 5.2018E-07, 2.28E-12, 5.1984E-07, 1.4927999999999974E-06
DataValue, 1, 0.05, 5.5864E-07, -2.4300000000000003E-12, -5.5852E-07, 5.5864E-07, 2.4300000000000003E-12, 5.5852E-07, 1.538400000000005E-06
DataValue, 1.0250000000000001, 0.05, 5.9874E-07, -2.37E-12, -5.9921999999999994E-07, 5.9874E-07, 2.37E-12, 5.9921999999999994E-07, 1.6039999999999935E-06
DataValue, 1.05, 0.05, 6.4112E-07, -2.31E-12, -6.4056E-07, 6.4112E-07, 2.31E-12, 6.4056E-07, 1.6952000000000054E-06
DataValue, 1.075, 0.05, 6.8472E-07, -2.08E-12, -6.8464E-07, 6.8472E-07, 2.08E-12, 6.8464E-07, 1.7440000000000059E-06
DataValue, 1.1, 0.05, 7.2866E-07, -2.4000000000000003E-12, -7.2901999999999995E-07, 7.2866E-07, 2.4000000000000003E-12, 7.2901999999999995E-07, 1.7575999999999889E-06
DataValue, 1.125, 0.05, 7.754E-07, -1.98E-12, -7.7562E-07, 7.754E-07, 1.98E-12, 7.7562E-07, 1.869600000000009E-06
