
SetupTitle, IdVg_Vd_par
PrimitiveTest, I/V Sweep
TestParameter, Context.MainFrame, B1500A
TestParameter, Channel.UnitType, SMU, SMU, SMU
TestParameter, Channel.Unit, SMU3:HR, SMU2:HR, SMU1:HR
TestParameter, Channel.IName, Id, Ig, Is
TestParameter, Channel.VName, Vd, Vg, Vs
TestParameter, Channel.Mode, V, V, V
TestParameter, Channel.Func, VAR2, VAR1, CONST
TestParameter, Channel.Index, 
TestParameter, Channel.Time, 
TestParameter, Measurement.Port.Unit, SMU3:HR, SMU2:HR, SMU1:HR
TestParameter, Measurement.Port.SeriesResistor, NONE, NONE, NONE
TestParameter, Measurement.Port.Filter, ON, ON, ON
TestParameter, Measurement.Port.OutputVoltageComparison, 0, 0, 0
TestParameter, Measurement.Primary.Locus, Double
TestParameter, Measurement.Primary.Scale, LINEAR
TestParameter, Measurement.Primary.Start, -1
TestParameter, Measurement.Primary.Stop, 2
TestParameter, Measurement.Primary.Step, 0.025
TestParameter, Measurement.Primary.Compliance, 0.1
TestParameter, Measurement.Primary.PowerCompliance, 0
TestParameter, Measurement.Aborting.Condition, STOP AT ANY ABNORMAL
TestParameter, Measurement.PostOutput.Value, START
TestParameter, Measurement.PostOutput.Retention, OFF
TestParameter, Measurement.Secondary.Start, 0.05
TestParameter, Measurement.Secondary.Count, 2
TestParameter, Measurement.Secondary.Step, 0.95000000000000007
TestParameter, Measurement.Secondary.Compliance, 0.1
TestParameter, Measurement.Secondary.PowerCompliance, 0
TestParameter, Measurement.Bias.Source, 0.05, -1, 0
TestParameter, Measurement.Bias.Compliance, 0.1, 0.1, 0.1
TestParameter, Measurement.Monitor.Unit, SMU3:HR, SMU2:HR, SMU1:HR
TestParameter, Measurement.Monitor.Adc, HR ADC, HR ADC, HR ADC
TestParameter, Measurement.Monitor.Measurement, Compliance Side, Compliance Side, Compliance Side
TestParameter, Measurement.Monitor.RangingMode, LIMITED, LIMITED, LIMITED
TestParameter, Measurement.Monitor.RangeBoundary, 1nA, 1nA, 1nA
TestParameter, Measurement.Monitor.RangeRating, BY FULL RANGE, BY FULL RANGE, BY FULL RANGE
TestParameter, Measurement.Monitor.RangeRatingCoeff, 50, 50, 50
TestParameter, Measurement.Timing.Hold, 0
TestParameter, Measurement.Timing.Delay, 0
TestParameter, Measurement.Adc.HighSpeed.Mode, AUTO
TestParameter, Measurement.Adc.HighSpeed.Coeff, 1
TestParameter, Measurement.Adc.HighResolution.AutoZero, OFF
TestParameter, Measurement.Adc.HighResolution.Mode, AUTO
TestParameter, Measurement.Adc.HighResolution.Coeff, 6
TestParameter, Measurement.WaitTime.Source.Coeff, 1
TestParameter, Measurement.WaitTime.Source.Offset, 0
TestParameter, Measurement.WaitTime.Monitor.Coeff, 1
TestParameter, Measurement.WaitTime.Monitor.Offset, 0
TestParameter, Function.User.Name, absId, absIg, absIs, gm
TestParameter, Function.User.Unit, A, A, A, S
TestParameter, Function.User.Definition, abs(Id), abs(Ig), abs(Is), diff(abs(Id))/diff(Vg)
TestParameter, Output.Graph.Enabled, true
TestParameter, Output.Graph.AutoScaling, false
TestParameter, Output.Graph.XAxis.Data, Vg
TestParameter, Output.Graph.XAxis.Scale, Linear
TestParameter, Output.Graph.XAxis.Left, -1
TestParameter, Output.Graph.XAxis.Right, 2
TestParameter, Output.Graph.XAxis.RunTimeAutoScale, false
TestParameter, Output.Graph.YAxis.Data, absId, gm, absIg, absIs
TestParameter, Output.Graph.YAxis.Scale, Log, Linear, Log, Log
TestParameter, Output.Graph.YAxis.Bottom, 1E-15, 0, 1E-15, 1E-15
TestParameter, Output.Graph.YAxis.Top, 0.001, 1, 0.001, 0.001
TestParameter, Output.Graph.YAxis.Group, , , , 
TestParameter, Output.Graph.YAxis.RunTimeAutoScale, false, true, false, false
TestParameter, Output.List.Data, Vg, Vd, Id, Is, Ig, absId, absIs, absIg, gm
TestParameter, AutoAnalysis.Interpolation, false
TestParameter, AutoAnalysis.Var2StepCount, 1
TestParameter, AutoAnalysis.Var2StepScript, 
TestParameter, AutoAnalysis.Line1.Enabled, false
TestParameter, AutoAnalysis.Line1.Type, 1
TestParameter, AutoAnalysis.Line1.Fix, True
TestParameter, AutoAnalysis.Line1.YAxis, 0
TestParameter, AutoAnalysis.Line1.Point1.Type, 0
TestParameter, AutoAnalysis.Line1.Point1.XY.X, 
TestParameter, AutoAnalysis.Line1.Point1.XY.Y, 
TestParameter, AutoAnalysis.Line1.Point1.Data.Var, 
TestParameter, AutoAnalysis.Line1.Point1.Data.Condition, 
TestParameter, AutoAnalysis.Line1.Point1.Data.Start, false
TestParameter, AutoAnalysis.Line1.Point1.Data.StartVar, 
TestParameter, AutoAnalysis.Line1.Point1.Data.StartCondition, 
TestParameter, AutoAnalysis.Line1.Point2.Type, 0
TestParameter, AutoAnalysis.Line1.Point2.XY.X, 
TestParameter, AutoAnalysis.Line1.Point2.XY.Y, 
TestParameter, AutoAnalysis.Line1.Point2.Data.Var, 
TestParameter, AutoAnalysis.Line1.Point2.Data.Condition, 
TestParameter, AutoAnalysis.Line1.Point2.Data.Start, false
TestParameter, AutoAnalysis.Line1.Point2.Data.StartVar, 
TestParameter, AutoAnalysis.Line1.Point2.Data.StartCondition, 
TestParameter, AutoAnalysis.Line1.GradientExpr, 0
TestParameter, AutoAnalysis.Line2.Enabled, false
TestParameter, AutoAnalysis.Line2.Type, 1
TestParameter, AutoAnalysis.Line2.Fix, True
TestParameter, AutoAnalysis.Line2.YAxis, 0
TestParameter, AutoAnalysis.Line2.Point1.Type, 0
TestParameter, AutoAnalysis.Line2.Point1.XY.X, 
TestParameter, AutoAnalysis.Line2.Point1.XY.Y, 
TestParameter, AutoAnalysis.Line2.Point1.Data.Var, 
TestParameter, AutoAnalysis.Line2.Point1.Data.Condition, 
TestParameter, AutoAnalysis.Line2.Point1.Data.Start, false
TestParameter, AutoAnalysis.Line2.Point1.Data.StartVar, 
TestParameter, AutoAnalysis.Line2.Point1.Data.StartCondition, 
TestParameter, AutoAnalysis.Line2.Point2.Type, 0
TestParameter, AutoAnalysis.Line2.Point2.XY.X, 
TestParameter, AutoAnalysis.Line2.Point2.XY.Y, 
TestParameter, AutoAnalysis.Line2.Point2.Data.Var, 
TestParameter, AutoAnalysis.Line2.Point2.Data.Condition, 
TestParameter, AutoAnalysis.Line2.Point2.Data.Start, false
TestParameter, AutoAnalysis.Line2.Point2.Data.StartVar, 
TestParameter, AutoAnalysis.Line2.Point2.Data.StartCondition, 
TestParameter, AutoAnalysis.Line2.GradientExpr, 0
TestParameter, AutoAnalysis.Marker.Enabled, false
TestParameter, AutoAnalysis.Marker.Data.Var, 
TestParameter, AutoAnalysis.Marker.Data.Condition, 
TestParameter, AutoAnalysis.Marker.Data.Start, false
TestParameter, AutoAnalysis.Marker.Data.StartVar, 
TestParameter, AutoAnalysis.Marker.Data.StartCondition, 
MetaData, TestRecord.EntryPoint, true
MetaData, TestRecord.RecordTime, 06/03/2025 14:33:27
MetaData, TestRecord.TestTarget, R[7]_D[6]_L[60]
MetaData, TestRecord.IterationIndex, 3
MetaData, TestRecord.Preservation, true
MetaData, TestRecord.Flag, !
MetaData, TestRecord.Remarks, 
MetaData, TestRecord.LinkKey, e221b6da-5e9d-49fa-a92b-c5c48a7929e7
MetaData, TestRecord.Parameters, 
Dimension1, 242, 242, 242, 242, 242, 242, 242, 242, 242
Dimension2, 2, 2, 2, 2, 2, 2, 2, 2, 2
DataName, Vg, Vd, Id, Ig, Is, absId, absIg, absIs, gm
DataValue, -1, 0.05, 3.87E-13, 2.155E-12, -1.3860000000000002E-12, 3.87E-13, 2.155E-12, 1.3860000000000002E-12, 
DataValue, -0.97500000000000009, 0.05, -6.2300000000000007E-13, 1.925E-12, -1.646E-12, 6.2300000000000007E-13, 1.925E-12, 1.646E-12, 9.4400000000000357E-12
DataValue, -0.95000000000000007, 0.05, 5.700000000000001E-14, 2.3550000000000004E-12, -1.2860000000000002E-12, 5.700000000000001E-14, 2.3550000000000004E-12, 1.2860000000000002E-12, -2.2639999999999979E-11
DataValue, -0.925, 0.05, -1.1300000000000001E-13, 2.2250000000000003E-12, -1.3460000000000001E-12, 1.1300000000000001E-13, 2.2250000000000003E-12, 1.3460000000000001E-12, 2.2399999999999981E-12
DataValue, -0.9, 0.05, 3.87E-13, 1.935E-12, -1.6560000000000002E-12, 3.87E-13, 1.935E-12, 1.6560000000000002E-12, 1.0959999999999991E-11
DataValue, -0.875, 0.05, 6.9700000000000006E-13, 2.535E-12, -8.1600000000000006E-13, 6.9700000000000006E-13, 2.535E-12, 8.1600000000000006E-13, 1.2399999999999991E-11
DataValue, -0.85000000000000009, 0.05, -1.23E-13, 2.0950000000000003E-12, -1.216E-12, 1.23E-13, 2.0950000000000003E-12, 1.216E-12, -2.2960000000000085E-11
DataValue, -0.82500000000000007, 0.05, 8.7000000000000008E-14, 2.2750000000000003E-12, -1.7260000000000001E-12, 8.7000000000000008E-14, 2.2750000000000003E-12, 1.7260000000000001E-12, -1.4399999999999987E-12
DataValue, -0.8, 0.05, -1.93E-13, 2.0950000000000003E-12, -9.0600000000000008E-13, 1.93E-13, 2.0950000000000003E-12, 9.0600000000000008E-13, 4.2399999999999965E-12
DataValue, -0.775, 0.05, -2.43E-13, 1.8450000000000003E-12, -1.5260000000000002E-12, 2.43E-13, 1.8450000000000003E-12, 1.5260000000000002E-12, 1.9999999999999987E-12
DataValue, -0.75, 0.05, 1.0700000000000001E-13, 2.165E-12, -1.1560000000000001E-12, 1.0700000000000001E-13, 2.165E-12, 1.1560000000000001E-12, -5.4399999999999962E-12
DataValue, -0.72500000000000009, 0.05, 3.7E-14, 2.415E-12, -1.3960000000000001E-12, 3.7E-14, 2.415E-12, 1.3960000000000001E-12, -2.8000000000000103E-12
DataValue, -0.70000000000000007, 0.05, 4.5700000000000007E-13, 2.135E-12, -8.760000000000001E-13, 4.5700000000000007E-13, 2.135E-12, 8.760000000000001E-13, 1.679999999999999E-11
DataValue, -0.675, 0.05, 7E-15, 2.365E-12, -1.446E-12, 7E-15, 2.365E-12, 1.446E-12, -1.7999999999999986E-11
DataValue, -0.65, 0.05, 3.0937000000000005E-11, 2.2950000000000002E-12, -1.036E-12, 3.0937000000000005E-11, 2.2950000000000002E-12, 1.036E-12, 1.237199999999999E-09
DataValue, -0.625, 0.05, -2.1300000000000003E-13, 2.2750000000000003E-12, -1.406E-12, 2.1300000000000003E-13, 2.2750000000000003E-12, 1.406E-12, -1.2289599999999992E-09
DataValue, -0.6, 0.05, -4.3000000000000006E-14, 2.6350000000000004E-12, -1.5360000000000001E-12, 4.3000000000000006E-14, 2.6350000000000004E-12, 1.5360000000000001E-12, -6.7999999999999953E-12
DataValue, -0.57500000000000007, 0.05, 5.17E-13, 2.5750000000000002E-12, -1.596E-12, 5.17E-13, 2.5750000000000002E-12, 1.596E-12, 1.8960000000000066E-11
DataValue, -0.55, 0.05, 2.67E-13, 2.3050000000000004E-12, -1.176E-12, 2.67E-13, 2.3050000000000004E-12, 1.176E-12, -9.9999999999999913E-12
DataValue, -0.525, 0.05, 7.6700000000000006E-13, 2.435E-12, -1.636E-12, 7.6700000000000006E-13, 2.435E-12, 1.636E-12, 1.9999999999999986E-11
DataValue, -0.5, 0.05, 7.6700000000000006E-13, 2.435E-12, -2.486E-12, 7.6700000000000006E-13, 2.435E-12, 2.486E-12, 0
DataValue, -0.47500000000000003, 0.05, 2.3670000000000003E-12, 1.875E-12, -3.6460000000000004E-12, 2.3670000000000003E-12, 1.875E-12, 3.6460000000000004E-12, 6.4000000000000089E-11
DataValue, -0.45, 0.05, 5.8970000000000004E-12, 2.185E-12, -7.5960000000000012E-12, 5.8970000000000004E-12, 2.185E-12, 7.5960000000000012E-12, 1.4119999999999989E-10
DataValue, -0.42500000000000004, 0.05, 1.3347000000000001E-11, 2.615E-12, -1.4126000000000002E-11, 1.3347000000000001E-11, 2.615E-12, 1.4126000000000002E-11, 2.9800000000000042E-10
DataValue, -0.4, 0.05, 2.8687000000000003E-11, 2.105E-12, -2.9996000000000004E-11, 2.8687000000000003E-11, 2.105E-12, 2.9996000000000004E-11, 6.1359999999999951E-10
DataValue, -0.375, 0.05, 5.8677000000000011E-11, 2.385E-12, -5.9726E-11, 5.8677000000000011E-11, 2.385E-12, 5.9726E-11, 1.199599999999999E-09
DataValue, -0.35000000000000003, 0.05, 1.18307E-10, 2.0450000000000003E-12, -1.23426E-10, 1.18307E-10, 2.0450000000000003E-12, 1.23426E-10, 2.3852000000000029E-09
DataValue, -0.325, 0.05, 2.54097E-10, 2.3250000000000003E-12, -2.60696E-10, 2.54097E-10, 2.3250000000000003E-12, 2.60696E-10, 5.4315999999999952E-09
DataValue, -0.3, 0.05, 5.35917E-10, 2.105E-12, -5.27416E-10, 5.35917E-10, 2.105E-12, 5.27416E-10, 1.127279999999999E-08
DataValue, -0.275, 0.05, 1.104077E-09, 2.715E-12, -1.098736E-09, 1.104077E-09, 2.715E-12, 1.098736E-09, 2.2726400000000033E-08
DataValue, -0.25, 0.05, 2.12817E-09, 2.185E-12, -2.06114E-09, 2.12817E-09, 2.185E-12, 2.06114E-09, 4.0963719999999966E-08
DataValue, -0.225, 0.05, 3.89597E-09, 2.255E-12, -3.93314E-09, 3.89597E-09, 2.255E-12, 3.93314E-09, 7.0712000000000018E-08
DataValue, -0.2, 0.05, 6.92057E-09, 2.155E-12, -6.85714E-09, 6.92057E-09, 2.155E-12, 6.85714E-09, 1.2098400000000002E-07
DataValue, -0.17500000000000002, 0.05, 1.15392E-08, 2.185E-12, -1.1358799999999999E-08, 1.15392E-08, 2.185E-12, 1.1358799999999999E-08, 1.8474520000000002E-07
DataValue, -0.15, 0.05, 1.9747399999999997E-08, 1.9650000000000002E-12, -1.93294E-08, 1.9747399999999997E-08, 1.9650000000000002E-12, 1.93294E-08, 3.283279999999996E-07
DataValue, -0.125, 0.05, 3.04676E-08, 2.265E-12, -3.09322E-08, 3.04676E-08, 2.265E-12, 3.09322E-08, 4.2880800000000009E-07
DataValue, -0.1, 0.05, 4.7700399999999992E-08, 2.265E-12, -4.9254799999999996E-08, 4.7700399999999992E-08, 2.265E-12, 4.9254799999999996E-08, 6.8931199999999992E-07
DataValue, -0.075, 0.05, 7.50142E-08, 2.1450000000000003E-12, -7.3607999999999993E-08, 7.50142E-08, 2.1450000000000003E-12, 7.3607999999999993E-08, 1.0925519999999999E-06
DataValue, -0.05, 0.05, 1.0809839999999999E-07, 2.3550000000000004E-12, -1.0517639999999998E-07, 1.0809839999999999E-07, 2.3550000000000004E-12, 1.0517639999999998E-07, 1.3233679999999999E-06
DataValue, -0.025, 0.05, 1.4984E-07, 1.975E-12, -1.501E-07, 1.4984E-07, 1.975E-12, 1.501E-07, 1.6696640000000004E-06
DataValue, 0, 0.05, 2.0852E-07, 1.955E-12, -2.0853999999999999E-07, 2.0852E-07, 1.955E-12, 2.0853999999999999E-07, 2.3471999999999997E-06
DataValue, 0.025, 0.05, 2.7016E-07, 1.855E-12, -2.6795999999999997E-07, 2.7016E-07, 1.855E-12, 2.6795999999999997E-07, 2.4655999999999993E-06
DataValue, 0.05, 0.05, 3.5436E-07, 2.105E-12, -3.5396E-07, 3.5436E-07, 2.105E-12, 3.5396E-07, 3.368000000000001E-06
DataValue, 0.075, 0.05, 4.4947999999999997E-07, 1.935E-12, -4.4578E-07, 4.4947999999999997E-07, 1.935E-12, 4.4578E-07, 3.8047999999999996E-06
DataValue, 0.1, 0.05, 5.7262E-07, 2.0750000000000003E-12, -5.7256E-07, 5.7262E-07, 2.0750000000000003E-12, 5.7256E-07, 4.9255999999999974E-06
DataValue, 0.125, 0.05, 7.0837999999999994E-07, 2.2450000000000002E-12, -7.1016E-07, 7.0837999999999994E-07, 2.2450000000000002E-12, 7.1016E-07, 5.4304000000000006E-06
DataValue, 0.15, 0.05, 8.5612E-07, 1.9950000000000003E-12, -8.6052E-07, 8.5612E-07, 1.9950000000000003E-12, 8.6052E-07, 5.9096000000000027E-06
DataValue, 0.17500000000000002, 0.05, 1.00698E-06, 2.105E-12, -1.01328E-06, 1.00698E-06, 2.105E-12, 1.01328E-06, 6.0343999999999934E-06
DataValue, 0.2, 0.05, 1.1948000000000002E-06, 2.115E-12, -1.1771000000000001E-06, 1.1948000000000002E-06, 2.115E-12, 1.1771000000000001E-06, 7.5128000000000122E-06
DataValue, 0.225, 0.05, 1.3777000000000002E-06, 2.515E-12, -1.3793E-06, 1.3777000000000002E-06, 2.515E-12, 1.3793E-06, 7.3160000000000008E-06
DataValue, 0.25, 0.05, 1.6147000000000002E-06, 2.205E-12, -1.6009000000000002E-06, 1.6147000000000002E-06, 2.205E-12, 1.6009000000000002E-06, 9.4800000000000024E-06
DataValue, 0.275, 0.05, 1.8342000000000002E-06, 2.5550000000000003E-12, -1.8201000000000002E-06, 1.8342000000000002E-06, 2.5550000000000003E-12, 1.8201000000000002E-06, 8.77999999999999E-06
DataValue, 0.3, 0.05, 2.0654E-06, 2.385E-12, -2.0610000000000003E-06, 2.0654E-06, 2.385E-12, 2.0610000000000003E-06, 9.2480000000000121E-06
DataValue, 0.325, 0.05, 2.3005000000000003E-06, 2.365E-12, -2.3123000000000003E-06, 2.3005000000000003E-06, 2.365E-12, 2.3123000000000003E-06, 9.403999999999995E-06
DataValue, 0.35000000000000003, 0.05, 2.6001000000000003E-06, 1.985E-12, -2.5960000000000002E-06, 2.6001000000000003E-06, 1.985E-12, 2.5960000000000002E-06, 1.1983999999999992E-05
DataValue, 0.375, 0.05, 2.8928000000000005E-06, 2.445E-12, -2.8747E-06, 2.8928000000000005E-06, 2.445E-12, 2.8747E-06, 1.1708000000000022E-05
DataValue, 0.4, 0.05, 3.1984E-06, 1.905E-12, -3.181E-06, 3.1984E-06, 1.905E-12, 3.181E-06, 1.2223999999999977E-05
DataValue, 0.42500000000000004, 0.05, 3.5053000000000006E-06, 2.115E-12, -3.4748E-06, 3.5053000000000006E-06, 2.115E-12, 3.4748E-06, 1.2276000000000006E-05
DataValue, 0.45, 0.05, 3.8217E-06, 2.035E-12, -3.8247E-06, 3.8217E-06, 2.035E-12, 3.8247E-06, 1.2656000000000002E-05
DataValue, 0.47500000000000003, 0.05, 4.1515000000000008E-06, 2.2950000000000002E-12, -4.1423E-06, 4.1515000000000008E-06, 2.2950000000000002E-12, 4.1423E-06, 1.3192000000000014E-05
DataValue, 0.5, 0.05, 4.5325E-06, 2.185E-12, -4.495E-06, 4.5325E-06, 2.185E-12, 4.495E-06, 1.5239999999999996E-05
DataValue, 0.525, 0.05, 4.9145E-06, 2.215E-12, -4.9127E-06, 4.9145E-06, 2.215E-12, 4.9127E-06, 1.5279999999999982E-05
DataValue, 0.55, 0.05, 5.3291E-06, 2.4050000000000004E-12, -5.3432000000000008E-06, 5.3291E-06, 2.4050000000000004E-12, 5.3432000000000008E-06, 1.6583999999999996E-05
DataValue, 0.57500000000000007, 0.05, 5.7014E-06, 2.335E-12, -5.7253000000000009E-06, 5.7014E-06, 2.335E-12, 5.7253000000000009E-06, 1.4891999999999979E-05
DataValue, 0.6, 0.05, 6.1212000000000008E-06, 2.105E-12, -6.1309000000000009E-06, 6.1212000000000008E-06, 2.105E-12, 6.1309000000000009E-06, 1.6792000000000086E-05
DataValue, 0.625, 0.05, 6.543900000000001E-06, 2.515E-12, -6.5574000000000009E-06, 6.543900000000001E-06, 2.515E-12, 6.5574000000000009E-06, 1.6907999999999995E-05
DataValue, 0.65, 0.05, 6.9841000000000006E-06, 2.3550000000000004E-12, -7.003200000000001E-06, 6.9841000000000006E-06, 2.3550000000000004E-12, 7.003200000000001E-06, 1.7607999999999968E-05
DataValue, 0.675, 0.05, 7.4329000000000004E-06, 1.8450000000000003E-12, -7.4419000000000007E-06, 7.4329000000000004E-06, 1.8450000000000003E-12, 7.4419000000000007E-06, 1.7951999999999977E-05
DataValue, 0.70000000000000007, 0.05, 7.9071000000000009E-06, 2.365E-12, -7.9041000000000011E-06, 7.9071000000000009E-06, 2.365E-12, 7.9041000000000011E-06, 1.8968000000000002E-05
DataValue, 0.72500000000000009, 0.05, 8.3867E-06, 1.7450000000000001E-12, -8.3979000000000014E-06, 8.3867E-06, 1.7450000000000001E-12, 8.3979000000000014E-06, 1.9183999999999967E-05
DataValue, 0.75, 0.05, 8.8566000000000009E-06, 2.0750000000000003E-12, -8.8575000000000012E-06, 8.8566000000000009E-06, 2.0750000000000003E-12, 8.8575000000000012E-06, 1.8796000000000082E-05
DataValue, 0.775, 0.05, 9.2801000000000012E-06, 2.315E-12, -9.273E-06, 9.2801000000000012E-06, 2.315E-12, 9.273E-06, 1.6939999999999997E-05
DataValue, 0.8, 0.05, 9.8328000000000018E-06, 2.545E-12, -9.8364000000000012E-06, 9.8328000000000018E-06, 2.545E-12, 9.8364000000000012E-06, 2.2108000000000006E-05
DataValue, 0.82500000000000007, 0.05, 1.0328700000000002E-05, 2.515E-12, -1.03228E-05, 1.0328700000000002E-05, 2.515E-12, 1.03228E-05, 1.9835999999999974E-05
DataValue, 0.85000000000000009, 0.05, 1.0828400000000001E-05, 2.285E-12, -1.0799000000000001E-05, 1.0828400000000001E-05, 2.285E-12, 1.0799000000000001E-05, 1.9987999999999969E-05
DataValue, 0.875, 0.05, 1.12924E-05, 2.265E-12, -1.1317800000000002E-05, 1.12924E-05, 2.265E-12, 1.1317800000000002E-05, 1.8560000000000036E-05
DataValue, 0.9, 0.05, 1.1798000000000001E-05, 1.885E-12, -1.1838E-05, 1.1798000000000001E-05, 1.885E-12, 1.1838E-05, 2.0224000000000012E-05
DataValue, 0.925, 0.05, 1.2368E-05, 2.215E-12, -1.237E-05, 1.2368E-05, 2.215E-12, 1.237E-05, 2.2799999999999965E-05
DataValue, 0.95000000000000007, 0.05, 1.2892000000000001E-05, 2.545E-12, -1.2882E-05, 1.2892000000000001E-05, 2.545E-12, 1.2882E-05, 2.096E-05
DataValue, 0.97500000000000009, 0.05, 1.3448E-05, 2.6250000000000002E-12, -1.3462000000000001E-05, 1.3448E-05, 2.6250000000000002E-12, 1.3462000000000001E-05, 2.2239999999999956E-05
DataValue, 1, 0.05, 1.3956E-05, 2.335E-12, -1.3982000000000001E-05, 1.3956E-05, 2.335E-12, 1.3982000000000001E-05, 2.0320000000000039E-05
DataValue, 1.0250000000000001, 0.05, 1.4572E-05, 2.5050000000000003E-12, -1.4572E-05, 1.4572E-05, 2.5050000000000003E-12, 1.4572E-05, 2.4639999999999889E-05
DataValue, 1.05, 0.05, 1.5098E-05, 2.265E-12, -1.5156E-05, 1.5098E-05, 2.265E-12, 1.5156E-05, 2.1040000000000063E-05
DataValue, 1.075, 0.05, 1.5626E-05, 2.185E-12, -1.5688E-05, 1.5626E-05, 2.185E-12, 1.5688E-05, 2.1120000000000035E-05
