
SetupTitle, IdVg_Vd_par
PrimitiveTest, I/V Sweep
TestParameter, Context.MainFrame, B1500A
TestParameter, Channel.UnitType, SMU, SMU, SMU
TestParameter, Channel.Unit, SMU3:HR, SMU2:HR, SMU1:HR
TestParameter, Channel.IName, Id, Ig, Is
TestParameter, Channel.VName, Vd, Vg, Vs
TestParameter, Channel.Mode, V, V, V
TestParameter, Channel.Func, VAR2, VAR1, CONST
TestParameter, Channel.Index, 
TestParameter, Channel.Time, 
TestParameter, Measurement.Port.Unit, SMU3:HR, SMU2:HR, SMU1:HR
TestParameter, Measurement.Port.SeriesResistor, NONE, NONE, NONE
TestParameter, Measurement.Port.Filter, ON, ON, ON
TestParameter, Measurement.Port.OutputVoltageComparison, 0, 0, 0
TestParameter, Measurement.Primary.Locus, Double
TestParameter, Measurement.Primary.Scale, LINEAR
TestParameter, Measurement.Primary.Start, -1
TestParameter, Measurement.Primary.Stop, 2
TestParameter, Measurement.Primary.Step, 0.025
TestParameter, Measurement.Primary.Compliance, 0.1
TestParameter, Measurement.Primary.PowerCompliance, 0
TestParameter, Measurement.Aborting.Condition, STOP AT ANY ABNORMAL
TestParameter, Measurement.PostOutput.Value, START
TestParameter, Measurement.PostOutput.Retention, OFF
TestParameter, Measurement.Secondary.Start, 0.05
TestParameter, Measurement.Secondary.Count, 2
TestParameter, Measurement.Secondary.Step, 0.95000000000000007
TestParameter, Measurement.Secondary.Compliance, 0.1
TestParameter, Measurement.Secondary.PowerCompliance, 0
TestParameter, Measurement.Bias.Source, 0.05, -1, 0
TestParameter, Measurement.Bias.Compliance, 0.1, 0.1, 0.1
TestParameter, Measurement.Monitor.Unit, SMU3:HR, SMU2:HR, SMU1:HR
TestParameter, Measurement.Monitor.Adc, HR ADC, HR ADC, HR ADC
TestParameter, Measurement.Monitor.Measurement, Compliance Side, Compliance Side, Compliance Side
TestParameter, Measurement.Monitor.RangingMode, LIMITED, LIMITED, LIMITED
TestParameter, Measurement.Monitor.RangeBoundary, 1nA, 1nA, 1nA
TestParameter, Measurement.Monitor.RangeRating, BY FULL RANGE, BY FULL RANGE, BY FULL RANGE
TestParameter, Measurement.Monitor.RangeRatingCoeff, 50, 50, 50
TestParameter, Measurement.Timing.Hold, 0
TestParameter, Measurement.Timing.Delay, 0
TestParameter, Measurement.Adc.HighSpeed.Mode, AUTO
TestParameter, Measurement.Adc.HighSpeed.Coeff, 1
TestParameter, Measurement.Adc.HighResolution.AutoZero, OFF
TestParameter, Measurement.Adc.HighResolution.Mode, AUTO
TestParameter, Measurement.Adc.HighResolution.Coeff, 6
TestParameter, Measurement.WaitTime.Source.Coeff, 1
TestParameter, Measurement.WaitTime.Source.Offset, 0
TestParameter, Measurement.WaitTime.Monitor.Coeff, 1
TestParameter, Measurement.WaitTime.Monitor.Offset, 0
TestParameter, Function.User.Name, absId, absIg, absIs, gm
TestParameter, Function.User.Unit, A, A, A, S
TestParameter, Function.User.Definition, abs(Id), abs(Ig), abs(Is), diff(abs(Id))/diff(Vg)
TestParameter, Output.Graph.Enabled, true
TestParameter, Output.Graph.AutoScaling, false
TestParameter, Output.Graph.XAxis.Data, Vg
TestParameter, Output.Graph.XAxis.Scale, Linear
TestParameter, Output.Graph.XAxis.Left, -1
TestParameter, Output.Graph.XAxis.Right, 2
TestParameter, Output.Graph.XAxis.RunTimeAutoScale, false
TestParameter, Output.Graph.YAxis.Data, absId, gm, absIg, absIs
TestParameter, Output.Graph.YAxis.Scale, Log, Linear, Log, Log
TestParameter, Output.Graph.YAxis.Bottom, 1E-15, 0, 1E-15, 1E-15
TestParameter, Output.Graph.YAxis.Top, 0.001, 1, 0.001, 0.001
TestParameter, Output.Graph.YAxis.Group, , , , 
TestParameter, Output.Graph.YAxis.RunTimeAutoScale, false, true, false, false
TestParameter, Output.List.Data, Vg, Vd, Id, Is, Ig, absId, absIs, absIg, gm
TestParameter, AutoAnalysis.Interpolation, false
TestParameter, AutoAnalysis.Var2StepCount, 1
TestParameter, AutoAnalysis.Var2StepScript, 
TestParameter, AutoAnalysis.Line1.Enabled, false
TestParameter, AutoAnalysis.Line1.Type, 1
TestParameter, AutoAnalysis.Line1.Fix, True
TestParameter, AutoAnalysis.Line1.YAxis, 0
TestParameter, AutoAnalysis.Line1.Point1.Type, 0
TestParameter, AutoAnalysis.Line1.Point1.XY.X, 
TestParameter, AutoAnalysis.Line1.Point1.XY.Y, 
TestParameter, AutoAnalysis.Line1.Point1.Data.Var, 
TestParameter, AutoAnalysis.Line1.Point1.Data.Condition, 
TestParameter, AutoAnalysis.Line1.Point1.Data.Start, false
TestParameter, AutoAnalysis.Line1.Point1.Data.StartVar, 
TestParameter, AutoAnalysis.Line1.Point1.Data.StartCondition, 
TestParameter, AutoAnalysis.Line1.Point2.Type, 0
TestParameter, AutoAnalysis.Line1.Point2.XY.X, 
TestParameter, AutoAnalysis.Line1.Point2.XY.Y, 
TestParameter, AutoAnalysis.Line1.Point2.Data.Var, 
TestParameter, AutoAnalysis.Line1.Point2.Data.Condition, 
TestParameter, AutoAnalysis.Line1.Point2.Data.Start, false
TestParameter, AutoAnalysis.Line1.Point2.Data.StartVar, 
TestParameter, AutoAnalysis.Line1.Point2.Data.StartCondition, 
TestParameter, AutoAnalysis.Line1.GradientExpr, 0
TestParameter, AutoAnalysis.Line2.Enabled, false
TestParameter, AutoAnalysis.Line2.Type, 1
TestParameter, AutoAnalysis.Line2.Fix, True
TestParameter, AutoAnalysis.Line2.YAxis, 0
TestParameter, AutoAnalysis.Line2.Point1.Type, 0
TestParameter, AutoAnalysis.Line2.Point1.XY.X, 
TestParameter, AutoAnalysis.Line2.Point1.XY.Y, 
TestParameter, AutoAnalysis.Line2.Point1.Data.Var, 
TestParameter, AutoAnalysis.Line2.Point1.Data.Condition, 
TestParameter, AutoAnalysis.Line2.Point1.Data.Start, false
TestParameter, AutoAnalysis.Line2.Point1.Data.StartVar, 
TestParameter, AutoAnalysis.Line2.Point1.Data.StartCondition, 
TestParameter, AutoAnalysis.Line2.Point2.Type, 0
TestParameter, AutoAnalysis.Line2.Point2.XY.X, 
TestParameter, AutoAnalysis.Line2.Point2.XY.Y, 
TestParameter, AutoAnalysis.Line2.Point2.Data.Var, 
TestParameter, AutoAnalysis.Line2.Point2.Data.Condition, 
TestParameter, AutoAnalysis.Line2.Point2.Data.Start, false
TestParameter, AutoAnalysis.Line2.Point2.Data.StartVar, 
TestParameter, AutoAnalysis.Line2.Point2.Data.StartCondition, 
TestParameter, AutoAnalysis.Line2.GradientExpr, 0
TestParameter, AutoAnalysis.Marker.Enabled, false
TestParameter, AutoAnalysis.Marker.Data.Var, 
TestParameter, AutoAnalysis.Marker.Data.Condition, 
TestParameter, AutoAnalysis.Marker.Data.Start, false
TestParameter, AutoAnalysis.Marker.Data.StartVar, 
TestParameter, AutoAnalysis.Marker.Data.StartCondition, 
MetaData, TestRecord.EntryPoint, true
MetaData, TestRecord.RecordTime, 06/03/2025 15:30:51
MetaData, TestRecord.TestTarget, R[6]_D[6]_L[70]
MetaData, TestRecord.IterationIndex, 1
MetaData, TestRecord.Preservation, true
MetaData, TestRecord.Flag, !
MetaData, TestRecord.Remarks, 
MetaData, TestRecord.LinkKey, 4ccc33d7-dc5a-4423-b638-02d890712a30
MetaData, TestRecord.Parameters, 
Dimension1, 242, 242, 242, 242, 242, 242, 242, 242, 242
Dimension2, 2, 2, 2, 2, 2, 2, 2, 2, 2
DataName, Vg, Vd, Id, Ig, Is, absId, absIg, absIs, gm
DataValue, -1, 0.05, 1.17E-13, 1.0250000000000002E-12, -2.4960000000000003E-12, 1.17E-13, 1.0250000000000002E-12, 2.4960000000000003E-12, 
DataValue, -0.97500000000000009, 0.05, 1.3700000000000002E-13, 7.25E-13, -2.0160000000000003E-12, 1.3700000000000002E-13, 7.25E-13, 2.0160000000000003E-12, 8.0000000000000346E-13
DataValue, -0.95000000000000007, 0.05, -5.3E-14, 1.145E-12, -2.466E-12, 5.3E-14, 1.145E-12, 2.466E-12, -3.3599999999999978E-12
DataValue, -0.925, 0.05, -8.3000000000000012E-14, 9.15E-13, -2.386E-12, 8.3000000000000012E-14, 9.15E-13, 2.386E-12, 1.1999999999999993E-12
DataValue, -0.9, 0.05, -1.03E-13, 1.1650000000000002E-12, -2.236E-12, 1.03E-13, 1.1650000000000002E-12, 2.236E-12, 7.9999999999999891E-13
DataValue, -0.875, 0.05, 3.87E-13, 9.15E-13, -2.4960000000000003E-12, 3.87E-13, 9.15E-13, 2.4960000000000003E-12, 1.135999999999999E-11
DataValue, -0.85000000000000009, 0.05, 2.37E-13, 7.6500000000000007E-13, -2.436E-12, 2.37E-13, 7.6500000000000007E-13, 2.436E-12, -6.0000000000000221E-12
DataValue, -0.82500000000000007, 0.05, 2.2700000000000002E-13, 1.095E-12, -2.136E-12, 2.2700000000000002E-13, 1.095E-12, 2.136E-12, -3.9999999999999895E-13
DataValue, -0.8, 0.05, -3.1300000000000003E-13, 1.055E-12, -2.456E-12, 3.1300000000000003E-13, 1.055E-12, 2.456E-12, 3.4399999999999975E-12
DataValue, -0.775, 0.05, -1.63E-13, 8.5500000000000009E-13, -2.9360000000000004E-12, 1.63E-13, 8.5500000000000009E-13, 2.9360000000000004E-12, -5.9999999999999954E-12
DataValue, -0.75, 0.05, -5.23E-13, 5.9500000000000009E-13, -2.3460000000000003E-12, 5.23E-13, 5.9500000000000009E-13, 2.3460000000000003E-12, 1.4399999999999987E-11
DataValue, -0.72500000000000009, 0.05, 1.6700000000000002E-13, 7.55E-13, -2.276E-12, 1.6700000000000002E-13, 7.55E-13, 2.276E-12, -1.4240000000000051E-11
DataValue, -0.70000000000000007, 0.05, 5.0700000000000006E-13, 1.095E-12, -2.6260000000000003E-12, 5.0700000000000006E-13, 1.095E-12, 2.6260000000000003E-12, 1.3599999999999991E-11
DataValue, -0.675, 0.05, 4.2700000000000005E-13, 8.3500000000000008E-13, -2.466E-12, 4.2700000000000005E-13, 8.3500000000000008E-13, 2.466E-12, -3.1999999999999977E-12
DataValue, -0.65, 0.05, 2.7000000000000002E-14, 8.65E-13, -2.516E-12, 2.7000000000000002E-14, 8.65E-13, 2.516E-12, -1.5999999999999987E-11
DataValue, -0.625, 0.05, -1.03E-13, 8.65E-13, -2.846E-12, 1.03E-13, 8.65E-13, 2.846E-12, 3.0399999999999975E-12
DataValue, -0.6, 0.05, -8.3000000000000012E-14, 9.8500000000000014E-13, -2.326E-12, 8.3000000000000012E-14, 9.8500000000000014E-13, 2.326E-12, -7.9999999999999891E-13
DataValue, -0.57500000000000007, 0.05, 1.2700000000000001E-13, 1.1250000000000002E-12, -2.276E-12, 1.2700000000000001E-13, 1.1250000000000002E-12, 2.276E-12, 1.7600000000000062E-12
DataValue, -0.55, 0.05, -3.0000000000000002E-15, 6.4500000000000008E-13, -2.2460000000000003E-12, 3.0000000000000002E-15, 6.4500000000000008E-13, 2.2460000000000003E-12, -4.9599999999999958E-12
DataValue, -0.525, 0.05, 1.47E-13, 8.050000000000001E-13, -2.1660000000000003E-12, 1.47E-13, 8.050000000000001E-13, 2.1660000000000003E-12, 5.7599999999999948E-12
DataValue, -0.5, 0.05, 6.7E-14, 1.2250000000000001E-12, -2.3460000000000003E-12, 6.7E-14, 1.2250000000000001E-12, 2.3460000000000003E-12, -3.1999999999999973E-12
DataValue, -0.47500000000000003, 0.05, -6.13E-13, 1.395E-12, -2.326E-12, 6.13E-13, 1.395E-12, 2.326E-12, 2.1840000000000028E-11
DataValue, -0.45, 0.05, -2.33E-13, 9.4500000000000011E-13, -2.4160000000000002E-12, 2.33E-13, 9.4500000000000011E-13, 2.4160000000000002E-12, -1.5199999999999987E-11
DataValue, -0.42500000000000004, 0.05, 7E-15, 9.3500000000000016E-13, -2.586E-12, 7E-15, 9.3500000000000016E-13, 2.586E-12, -9.0400000000000132E-12
DataValue, -0.4, 0.05, -2.33E-13, 5.15E-13, -2.516E-12, 2.33E-13, 5.15E-13, 2.516E-12, 9.0399999999999922E-12
DataValue, -0.375, 0.05, 1.47E-13, 1.185E-12, -2.306E-12, 1.47E-13, 1.185E-12, 2.306E-12, -3.4399999999999975E-12
DataValue, -0.35000000000000003, 0.05, -3.03E-13, 7.8500000000000009E-13, -2.436E-12, 3.03E-13, 7.8500000000000009E-13, 2.436E-12, 6.240000000000009E-12
DataValue, -0.325, 0.05, -9.3000000000000008E-14, 1.055E-12, -2.5960000000000002E-12, 9.3000000000000008E-14, 1.055E-12, 2.5960000000000002E-12, -8.3999999999999933E-12
DataValue, -0.3, 0.05, 1.17E-13, 7.95E-13, -2.7060000000000004E-12, 1.17E-13, 7.95E-13, 2.7060000000000004E-12, 9.5999999999999914E-13
DataValue, -0.275, 0.05, 1.3700000000000002E-13, 6.85E-13, -2.5760000000000003E-12, 1.3700000000000002E-13, 6.85E-13, 2.5760000000000003E-12, 8.0000000000000174E-13
DataValue, -0.25, 0.05, 3.4700000000000004E-13, 7.8500000000000009E-13, -2.966E-12, 3.4700000000000004E-13, 7.8500000000000009E-13, 2.966E-12, 8.3999999999999933E-12
DataValue, -0.225, 0.05, 9.8700000000000014E-13, 1.195E-12, -3.066E-12, 9.8700000000000014E-13, 1.195E-12, 3.066E-12, 2.560000000000001E-11
DataValue, -0.2, 0.05, 1.897E-12, 8.65E-13, -4.1060000000000005E-12, 1.897E-12, 8.65E-13, 4.1060000000000005E-12, 3.6400000000000005E-11
DataValue, -0.17500000000000002, 0.05, 4.517E-12, 1.2150000000000002E-12, -7.326E-12, 4.517E-12, 1.2150000000000002E-12, 7.326E-12, 1.0480000000000003E-10
DataValue, -0.15, 0.05, 1.0507000000000001E-11, 6.4500000000000008E-13, -1.3306000000000002E-11, 1.0507000000000001E-11, 6.4500000000000008E-13, 1.3306000000000002E-11, 2.3959999999999982E-10
DataValue, -0.125, 0.05, 2.5477000000000002E-11, 9.950000000000001E-13, -2.8076000000000003E-11, 2.5477000000000002E-11, 9.950000000000001E-13, 2.8076000000000003E-11, 5.9880000000000014E-10
DataValue, -0.1, 0.05, 6.0177E-11, 9.0500000000000008E-13, -6.2316E-11, 6.0177E-11, 9.0500000000000008E-13, 6.2316E-11, 1.3880000000000006E-09
DataValue, -0.075, 0.05, 1.31737E-10, 1.5950000000000002E-12, -1.36136E-10, 1.31737E-10, 1.5950000000000002E-12, 1.36136E-10, 2.8623999999999987E-09
DataValue, -0.05, 0.05, 3.0489700000000003E-10, 1.285E-12, -3.0855600000000004E-10, 3.0489700000000003E-10, 1.285E-12, 3.0855600000000004E-10, 6.9264000000000029E-09
DataValue, -0.025, 0.05, 6.48387E-10, 1.235E-12, -6.33006E-10, 6.48387E-10, 1.235E-12, 6.33006E-10, 1.37396E-08
DataValue, 0, 0.05, 1.34647E-09, 8.5500000000000009E-13, -1.35264E-09, 1.34647E-09, 8.5500000000000009E-13, 1.35264E-09, 2.7923319999999997E-08
DataValue, 0.025, 0.05, 2.81897E-09, 1.295E-12, -2.77554E-09, 2.81897E-09, 1.295E-12, 2.77554E-09, 5.8899999999999991E-08
DataValue, 0.05, 0.05, 5.60817E-09, 6.9500000000000007E-13, -5.56674E-09, 5.60817E-09, 6.9500000000000007E-13, 5.56674E-09, 1.1156800000000001E-07
DataValue, 0.075, 0.05, 1.080817E-08, 8.95E-13, -1.082724E-08, 1.080817E-08, 8.95E-13, 1.082724E-08, 2.08E-07
DataValue, 0.1, 0.05, 1.8943999999999997E-08, 5.45E-13, -1.8654999999999997E-08, 1.8943999999999997E-08, 5.45E-13, 1.8654999999999997E-08, 3.2543319999999983E-07
DataValue, 0.125, 0.05, 3.19916E-08, 1.105E-12, -3.2234599999999995E-08, 3.19916E-08, 1.105E-12, 3.2234599999999995E-08, 5.2190400000000014E-07
DataValue, 0.15, 0.05, 5.2574399999999993E-08, 7.8500000000000009E-13, -5.1234999999999995E-08, 5.2574399999999993E-08, 7.8500000000000009E-13, 5.1234999999999995E-08, 8.23312E-07
DataValue, 0.17500000000000002, 0.05, 7.8846199999999988E-08, 1.2150000000000002E-12, -7.8772799999999989E-08, 7.8846199999999988E-08, 1.2150000000000002E-12, 7.8772799999999989E-08, 1.0508719999999988E-06
DataValue, 0.2, 0.05, 1.141E-07, 9.75E-13, -1.1598E-07, 1.141E-07, 9.75E-13, 1.1598E-07, 1.4101520000000007E-06
DataValue, 0.225, 0.05, 1.6378E-07, 8.45E-13, -1.6343999999999999E-07, 1.6378E-07, 8.45E-13, 1.6343999999999999E-07, 1.9872000000000006E-06
DataValue, 0.25, 0.05, 2.2194E-07, 1.105E-12, -2.1974E-07, 2.2194E-07, 1.105E-12, 2.1974E-07, 2.3264E-06
DataValue, 0.275, 0.05, 2.8788E-07, 1.1650000000000002E-12, -2.8736E-07, 2.8788E-07, 1.1650000000000002E-12, 2.8736E-07, 2.6375999999999983E-06
DataValue, 0.3, 0.05, 3.6956E-07, 1.2150000000000002E-12, -3.663E-07, 3.6956E-07, 1.2150000000000002E-12, 3.663E-07, 3.2672000000000032E-06
DataValue, 0.325, 0.05, 4.573E-07, 9.3500000000000016E-13, -4.5496E-07, 4.573E-07, 9.3500000000000016E-13, 4.5496E-07, 3.5095999999999977E-06
DataValue, 0.35000000000000003, 0.05, 5.6048E-07, 1.065E-12, -5.5922E-07, 5.6048E-07, 1.065E-12, 5.5922E-07, 4.1271999999999941E-06
DataValue, 0.375, 0.05, 6.7456E-07, 1.2150000000000002E-12, -6.7404E-07, 6.7456E-07, 1.2150000000000002E-12, 6.7404E-07, 4.5632000000000091E-06
DataValue, 0.4, 0.05, 8.0491999999999993E-07, 1.3050000000000002E-12, -8.0886E-07, 8.0491999999999993E-07, 1.3050000000000002E-12, 8.0886E-07, 5.214399999999992E-06
DataValue, 0.42500000000000004, 0.05, 9.357E-07, 8.8500000000000007E-13, -9.3726E-07, 9.357E-07, 8.8500000000000007E-13, 9.3726E-07, 5.2311999999999983E-06
DataValue, 0.45, 0.05, 1.09512E-06, 1.3250000000000001E-12, -1.0814599999999999E-06, 1.09512E-06, 1.3250000000000001E-12, 1.0814599999999999E-06, 6.37680000000001E-06
DataValue, 0.47500000000000003, 0.05, 1.2468E-06, 9.75E-13, -1.2528E-06, 1.2468E-06, 9.75E-13, 1.2528E-06, 6.0671999999999967E-06
DataValue, 0.5, 0.05, 1.4419000000000001E-06, 1.4650000000000001E-12, -1.4402000000000002E-06, 1.4419000000000001E-06, 1.4650000000000001E-12, 1.4402000000000002E-06, 7.804000000000012E-06
DataValue, 0.525, 0.05, 1.6284000000000002E-06, 8.8500000000000007E-13, -1.6371000000000002E-06, 1.6284000000000002E-06, 8.8500000000000007E-13, 1.6371000000000002E-06, 7.4599999999999946E-06
DataValue, 0.55, 0.05, 1.8354000000000003E-06, 1.015E-12, -1.8299000000000003E-06, 1.8354000000000003E-06, 1.015E-12, 1.8299000000000003E-06, 8.279999999999997E-06
DataValue, 0.57500000000000007, 0.05, 2.0544E-06, 1.005E-12, -2.0582E-06, 2.0544E-06, 1.005E-12, 2.0582E-06, 8.759999999999989E-06
DataValue, 0.6, 0.05, 2.3103E-06, 1.1750000000000001E-12, -2.3015000000000003E-06, 2.3103E-06, 1.1750000000000001E-12, 2.3015000000000003E-06, 1.0236000000000034E-05
DataValue, 0.625, 0.05, 2.5673000000000004E-06, 4.2500000000000006E-13, -2.567E-06, 2.5673000000000004E-06, 4.2500000000000006E-13, 2.567E-06, 1.0280000000000002E-05
DataValue, 0.65, 0.05, 2.8291E-06, 7.6500000000000007E-13, -2.8281E-06, 2.8291E-06, 7.6500000000000007E-13, 2.8281E-06, 1.0471999999999982E-05
DataValue, 0.675, 0.05, 3.1032E-06, 6.9500000000000007E-13, -3.1028E-06, 3.1032E-06, 6.9500000000000007E-13, 3.1028E-06, 1.0963999999999992E-05
DataValue, 0.70000000000000007, 0.05, 3.3749000000000005E-06, 9.0500000000000008E-13, -3.3729000000000004E-06, 3.3749000000000005E-06, 9.0500000000000008E-13, 3.3729000000000004E-06, 1.0868000000000002E-05
DataValue, 0.72500000000000009, 0.05, 3.7019000000000005E-06, 8.8500000000000007E-13, -3.6843000000000005E-06, 3.7019000000000005E-06, 8.8500000000000007E-13, 3.6843000000000005E-06, 1.3079999999999988E-05
DataValue, 0.75, 0.05, 4.0247000000000006E-06, 1.185E-12, -4.0197000000000007E-06, 4.0247000000000006E-06, 1.185E-12, 4.0197000000000007E-06, 1.291200000000005E-05
DataValue, 0.775, 0.05, 4.342E-06, 1.235E-12, -4.3546000000000006E-06, 4.342E-06, 1.235E-12, 4.3546000000000006E-06, 1.2691999999999968E-05
DataValue, 0.8, 0.05, 4.6907000000000007E-06, 1.1650000000000002E-12, -4.6885E-06, 4.6907000000000007E-06, 1.1650000000000002E-12, 4.6885E-06, 1.3948000000000011E-05
DataValue, 0.82500000000000007, 0.05, 5.0303000000000008E-06, 1.1750000000000001E-12, -5.0360000000000006E-06, 5.0303000000000008E-06, 1.1750000000000001E-12, 5.0360000000000006E-06, 1.3583999999999992E-05
DataValue, 0.85000000000000009, 0.05, 5.3972000000000006E-06, 7.95E-13, -5.4023000000000008E-06, 5.3972000000000006E-06, 7.95E-13, 5.4023000000000008E-06, 1.4675999999999979E-05
DataValue, 0.875, 0.05, 5.7736000000000009E-06, 1.3150000000000002E-12, -5.7807E-06, 5.7736000000000009E-06, 1.3150000000000002E-12, 5.7807E-06, 1.5056000000000067E-05
DataValue, 0.9, 0.05, 6.1914000000000006E-06, 8.5500000000000009E-13, -6.1948E-06, 6.1914000000000006E-06, 8.5500000000000009E-13, 6.1948E-06, 1.6711999999999971E-05
DataValue, 0.925, 0.05, 6.600300000000001E-06, 8.95E-13, -6.602600000000001E-06, 6.600300000000001E-06, 8.95E-13, 6.602600000000001E-06, 1.6356000000000004E-05
DataValue, 0.95000000000000007, 0.05, 7.0027000000000007E-06, 7.4500000000000006E-13, -6.9912000000000009E-06, 7.0027000000000007E-06, 7.4500000000000006E-13, 6.9912000000000009E-06, 1.6095999999999976E-05
DataValue, 0.97500000000000009, 0.05, 7.469100000000001E-06, 7.4500000000000006E-13, -7.4299000000000006E-06, 7.469100000000001E-06, 7.4500000000000006E-13, 7.4299000000000006E-06, 1.8655999999999996E-05
DataValue, 1, 0.05, 7.8462000000000012E-06, 7.4500000000000006E-13, -7.8543E-06, 7.8462000000000012E-06, 7.4500000000000006E-13, 7.8543E-06, 1.5084000000000061E-05
DataValue, 1.0250000000000001, 0.05, 8.2889000000000012E-06, 1.2250000000000001E-12, -8.2450000000000015E-06, 8.2889000000000012E-06, 1.2250000000000001E-12, 8.2450000000000015E-06, 1.7707999999999906E-05
DataValue, 1.05, 0.05, 8.7502000000000014E-06, 6.85E-13, -8.7366E-06, 8.7502000000000014E-06, 6.85E-13, 8.7366E-06, 1.845200000000007E-05
