
SetupTitle, IdVg_Vd_par
PrimitiveTest, I/V Sweep
TestParameter, Context.MainFrame, B1500A
TestParameter, Channel.UnitType, SMU, SMU, SMU
TestParameter, Channel.Unit, SMU3:HR, SMU2:HR, SMU1:HR
TestParameter, Channel.IName, Id, Ig, Is
TestParameter, Channel.VName, Vd, Vg, Vs
TestParameter, Channel.Mode, V, V, V
TestParameter, Channel.Func, VAR2, VAR1, CONST
TestParameter, Channel.Index, 
TestParameter, Channel.Time, 
TestParameter, Measurement.Port.Unit, SMU3:HR, SMU2:HR, SMU1:HR
TestParameter, Measurement.Port.SeriesResistor, NONE, NONE, NONE
TestParameter, Measurement.Port.Filter, ON, ON, ON
TestParameter, Measurement.Port.OutputVoltageComparison, 0, 0, 0
TestParameter, Measurement.Primary.Locus, Double
TestParameter, Measurement.Primary.Scale, LINEAR
TestParameter, Measurement.Primary.Start, -1
TestParameter, Measurement.Primary.Stop, 2
TestParameter, Measurement.Primary.Step, 0.025
TestParameter, Measurement.Primary.Compliance, 0.1
TestParameter, Measurement.Primary.PowerCompliance, 0
TestParameter, Measurement.Aborting.Condition, STOP AT ANY ABNORMAL
TestParameter, Measurement.PostOutput.Value, START
TestParameter, Measurement.PostOutput.Retention, OFF
TestParameter, Measurement.Secondary.Start, 0.05
TestParameter, Measurement.Secondary.Count, 2
TestParameter, Measurement.Secondary.Step, 0.95000000000000007
TestParameter, Measurement.Secondary.Compliance, 0.1
TestParameter, Measurement.Secondary.PowerCompliance, 0
TestParameter, Measurement.Bias.Source, 0.05, -1, 0
TestParameter, Measurement.Bias.Compliance, 0.1, 0.1, 0.1
TestParameter, Measurement.Monitor.Unit, SMU3:HR, SMU2:HR, SMU1:HR
TestParameter, Measurement.Monitor.Adc, HR ADC, HR ADC, HR ADC
TestParameter, Measurement.Monitor.Measurement, Compliance Side, Compliance Side, Compliance Side
TestParameter, Measurement.Monitor.RangingMode, LIMITED, LIMITED, LIMITED
TestParameter, Measurement.Monitor.RangeBoundary, 1nA, 1nA, 1nA
TestParameter, Measurement.Monitor.RangeRating, BY FULL RANGE, BY FULL RANGE, BY FULL RANGE
TestParameter, Measurement.Monitor.RangeRatingCoeff, 50, 50, 50
TestParameter, Measurement.Timing.Hold, 0
TestParameter, Measurement.Timing.Delay, 0
TestParameter, Measurement.Adc.HighSpeed.Mode, AUTO
TestParameter, Measurement.Adc.HighSpeed.Coeff, 1
TestParameter, Measurement.Adc.HighResolution.AutoZero, OFF
TestParameter, Measurement.Adc.HighResolution.Mode, AUTO
TestParameter, Measurement.Adc.HighResolution.Coeff, 6
TestParameter, Measurement.WaitTime.Source.Coeff, 1
TestParameter, Measurement.WaitTime.Source.Offset, 0
TestParameter, Measurement.WaitTime.Monitor.Coeff, 1
TestParameter, Measurement.WaitTime.Monitor.Offset, 0
TestParameter, Function.User.Name, absId, absIg, absIs, gm
TestParameter, Function.User.Unit, A, A, A, S
TestParameter, Function.User.Definition, abs(Id), abs(Ig), abs(Is), diff(abs(Id))/diff(Vg)
TestParameter, Output.Graph.Enabled, true
TestParameter, Output.Graph.AutoScaling, false
TestParameter, Output.Graph.XAxis.Data, Vg
TestParameter, Output.Graph.XAxis.Scale, Linear
TestParameter, Output.Graph.XAxis.Left, -1
TestParameter, Output.Graph.XAxis.Right, 2
TestParameter, Output.Graph.XAxis.RunTimeAutoScale, false
TestParameter, Output.Graph.YAxis.Data, absId, gm, absIg, absIs
TestParameter, Output.Graph.YAxis.Scale, Log, Linear, Log, Log
TestParameter, Output.Graph.YAxis.Bottom, 1E-15, 0, 1E-15, 1E-15
TestParameter, Output.Graph.YAxis.Top, 0.001, 1, 0.001, 0.001
TestParameter, Output.Graph.YAxis.Group, , , , 
TestParameter, Output.Graph.YAxis.RunTimeAutoScale, false, true, false, false
TestParameter, Output.List.Data, Vg, Vd, Id, Is, Ig, absId, absIs, absIg, gm
TestParameter, AutoAnalysis.Interpolation, false
TestParameter, AutoAnalysis.Var2StepCount, 1
TestParameter, AutoAnalysis.Var2StepScript, 
TestParameter, AutoAnalysis.Line1.Enabled, false
TestParameter, AutoAnalysis.Line1.Type, 1
TestParameter, AutoAnalysis.Line1.Fix, True
TestParameter, AutoAnalysis.Line1.YAxis, 0
TestParameter, AutoAnalysis.Line1.Point1.Type, 0
TestParameter, AutoAnalysis.Line1.Point1.XY.X, 
TestParameter, AutoAnalysis.Line1.Point1.XY.Y, 
TestParameter, AutoAnalysis.Line1.Point1.Data.Var, 
TestParameter, AutoAnalysis.Line1.Point1.Data.Condition, 
TestParameter, AutoAnalysis.Line1.Point1.Data.Start, false
TestParameter, AutoAnalysis.Line1.Point1.Data.StartVar, 
TestParameter, AutoAnalysis.Line1.Point1.Data.StartCondition, 
TestParameter, AutoAnalysis.Line1.Point2.Type, 0
TestParameter, AutoAnalysis.Line1.Point2.XY.X, 
TestParameter, AutoAnalysis.Line1.Point2.XY.Y, 
TestParameter, AutoAnalysis.Line1.Point2.Data.Var, 
TestParameter, AutoAnalysis.Line1.Point2.Data.Condition, 
TestParameter, AutoAnalysis.Line1.Point2.Data.Start, false
TestParameter, AutoAnalysis.Line1.Point2.Data.StartVar, 
TestParameter, AutoAnalysis.Line1.Point2.Data.StartCondition, 
TestParameter, AutoAnalysis.Line1.GradientExpr, 0
TestParameter, AutoAnalysis.Line2.Enabled, false
TestParameter, AutoAnalysis.Line2.Type, 1
TestParameter, AutoAnalysis.Line2.Fix, True
TestParameter, AutoAnalysis.Line2.YAxis, 0
TestParameter, AutoAnalysis.Line2.Point1.Type, 0
TestParameter, AutoAnalysis.Line2.Point1.XY.X, 
TestParameter, AutoAnalysis.Line2.Point1.XY.Y, 
TestParameter, AutoAnalysis.Line2.Point1.Data.Var, 
TestParameter, AutoAnalysis.Line2.Point1.Data.Condition, 
TestParameter, AutoAnalysis.Line2.Point1.Data.Start, false
TestParameter, AutoAnalysis.Line2.Point1.Data.StartVar, 
TestParameter, AutoAnalysis.Line2.Point1.Data.StartCondition, 
TestParameter, AutoAnalysis.Line2.Point2.Type, 0
TestParameter, AutoAnalysis.Line2.Point2.XY.X, 
TestParameter, AutoAnalysis.Line2.Point2.XY.Y, 
TestParameter, AutoAnalysis.Line2.Point2.Data.Var, 
TestParameter, AutoAnalysis.Line2.Point2.Data.Condition, 
TestParameter, AutoAnalysis.Line2.Point2.Data.Start, false
TestParameter, AutoAnalysis.Line2.Point2.Data.StartVar, 
TestParameter, AutoAnalysis.Line2.Point2.Data.StartCondition, 
TestParameter, AutoAnalysis.Line2.GradientExpr, 0
TestParameter, AutoAnalysis.Marker.Enabled, false
TestParameter, AutoAnalysis.Marker.Data.Var, 
TestParameter, AutoAnalysis.Marker.Data.Condition, 
TestParameter, AutoAnalysis.Marker.Data.Start, false
TestParameter, AutoAnalysis.Marker.Data.StartVar, 
TestParameter, AutoAnalysis.Marker.Data.StartCondition, 
MetaData, TestRecord.EntryPoint, true
MetaData, TestRecord.RecordTime, 06/03/2025 14:52:59
MetaData, TestRecord.TestTarget, R[5]_D[6]_L[100]
MetaData, TestRecord.IterationIndex, 1
MetaData, TestRecord.Preservation, true
MetaData, TestRecord.Flag, !
MetaData, TestRecord.Remarks, 
MetaData, TestRecord.LinkKey, b199216e-2719-4cb8-8a10-16e23365a2e0
MetaData, TestRecord.Parameters, 
Dimension1, 242, 242, 242, 242, 242, 242, 242, 242, 242
Dimension2, 2, 2, 2, 2, 2, 2, 2, 2, 2
DataName, Vg, Vd, Id, Ig, Is, absId, absIg, absIs, gm
DataValue, -1, 0.05, 4.0700000000000003E-13, 1.2250000000000001E-12, -2.206E-12, 4.0700000000000003E-13, 1.2250000000000001E-12, 2.206E-12, 
DataValue, -0.97500000000000009, 0.05, -1.7300000000000002E-13, 1.955E-12, -2.1460000000000003E-12, 1.7300000000000002E-13, 1.955E-12, 2.1460000000000003E-12, -9.3600000000000344E-12
DataValue, -0.95000000000000007, 0.05, 7E-15, 1.1750000000000001E-12, -2.306E-12, 7E-15, 1.1750000000000001E-12, 2.306E-12, -6.6399999999999951E-12
DataValue, -0.925, 0.05, 7.7E-14, 1.425E-12, -2.0660000000000003E-12, 7.7E-14, 1.425E-12, 2.0660000000000003E-12, 2.7999999999999978E-12
DataValue, -0.9, 0.05, -5.3E-14, 1.2150000000000002E-12, -1.9660000000000003E-12, 5.3E-14, 1.2150000000000002E-12, 1.9660000000000003E-12, -9.5999999999999914E-13
DataValue, -0.875, 0.05, 2.7000000000000002E-14, 1.475E-12, -1.926E-12, 2.7000000000000002E-14, 1.475E-12, 1.926E-12, -1.039999999999999E-12
DataValue, -0.85000000000000009, 0.05, 3.7E-14, 1.5050000000000002E-12, -2.026E-12, 3.7E-14, 1.5050000000000002E-12, 2.026E-12, 4.0000000000000138E-13
DataValue, -0.82500000000000007, 0.05, 2.7000000000000002E-14, 1.715E-12, -2.006E-12, 2.7000000000000002E-14, 1.715E-12, 2.006E-12, -3.9999999999999956E-13
DataValue, -0.8, 0.05, 8.7000000000000008E-14, 1.425E-12, -2.436E-12, 8.7000000000000008E-14, 1.425E-12, 2.436E-12, 2.3999999999999983E-12
DataValue, -0.775, 0.05, 2.17E-13, 1.3650000000000001E-12, -1.926E-12, 2.17E-13, 1.3650000000000001E-12, 1.926E-12, 5.1999999999999956E-12
DataValue, -0.75, 0.05, 1.3700000000000002E-13, 1.4050000000000002E-12, -1.9660000000000003E-12, 1.3700000000000002E-13, 1.4050000000000002E-12, 1.9660000000000003E-12, -3.1999999999999965E-12
DataValue, -0.72500000000000009, 0.05, 1.2700000000000001E-13, 1.245E-12, -1.9360000000000002E-12, 1.2700000000000001E-13, 1.245E-12, 1.9360000000000002E-12, -4.0000000000000173E-13
DataValue, -0.70000000000000007, 0.05, -9.3000000000000008E-14, 1.625E-12, -1.846E-12, 9.3000000000000008E-14, 1.625E-12, 1.846E-12, -1.3599999999999991E-12
DataValue, -0.675, 0.05, -2.23E-13, 2.0450000000000003E-12, -1.8360000000000003E-12, 2.23E-13, 2.0450000000000003E-12, 1.8360000000000003E-12, 5.1999999999999956E-12
DataValue, -0.65, 0.05, -3.8300000000000003E-13, 1.3150000000000002E-12, -2.306E-12, 3.8300000000000003E-13, 1.3150000000000002E-12, 2.306E-12, 6.3999999999999953E-12
DataValue, -0.625, 0.05, 1.7E-14, 1.2150000000000002E-12, -2.0160000000000003E-12, 1.7E-14, 1.2150000000000002E-12, 2.0160000000000003E-12, -1.4639999999999988E-11
DataValue, -0.6, 0.05, 1.57E-13, 1.295E-12, -2.1660000000000003E-12, 1.57E-13, 1.295E-12, 2.1660000000000003E-12, 5.5999999999999955E-12
DataValue, -0.57500000000000007, 0.05, 3.27E-13, 1.715E-12, -2.3660000000000002E-12, 3.27E-13, 1.715E-12, 2.3660000000000002E-12, 6.8000000000000243E-12
DataValue, -0.55, 0.05, 3.87E-13, 1.5050000000000002E-12, -1.6660000000000002E-12, 3.87E-13, 1.5050000000000002E-12, 1.6660000000000002E-12, 2.3999999999999979E-12
DataValue, -0.525, 0.05, -2.43E-13, 1.5450000000000002E-12, -2.2160000000000003E-12, 2.43E-13, 1.5450000000000002E-12, 2.2160000000000003E-12, -5.7599999999999948E-12
DataValue, -0.5, 0.05, 2.17E-13, 1.4050000000000002E-12, -2.0360000000000002E-12, 2.17E-13, 1.4050000000000002E-12, 2.0360000000000002E-12, -1.0399999999999996E-12
DataValue, -0.47500000000000003, 0.05, -1.3000000000000001E-14, 1.6950000000000002E-12, -2.226E-12, 1.3000000000000001E-14, 1.6950000000000002E-12, 2.226E-12, -8.1600000000000121E-12
DataValue, -0.45, 0.05, -1.1300000000000001E-13, 1.475E-12, -2.136E-12, 1.1300000000000001E-13, 1.475E-12, 2.136E-12, 3.9999999999999967E-12
DataValue, -0.42500000000000004, 0.05, -1.4300000000000002E-13, 1.7050000000000001E-12, -2.326E-12, 1.4300000000000002E-13, 1.7050000000000001E-12, 2.326E-12, 1.200000000000002E-12
DataValue, -0.4, 0.05, 1.6700000000000002E-13, 2.0950000000000003E-12, -1.946E-12, 1.6700000000000002E-13, 2.0950000000000003E-12, 1.946E-12, 9.5999999999999914E-13
DataValue, -0.375, 0.05, 7E-15, 1.5150000000000001E-12, -2.0160000000000003E-12, 7E-15, 1.5150000000000001E-12, 2.0160000000000003E-12, -6.3999999999999953E-12
DataValue, -0.35000000000000003, 0.05, -3.63E-13, 1.525E-12, -2.356E-12, 3.63E-13, 1.525E-12, 2.356E-12, 1.4240000000000019E-11
DataValue, -0.325, 0.05, -2.43E-13, 1.4550000000000002E-12, -2.256E-12, 2.43E-13, 1.4550000000000002E-12, 2.256E-12, -4.7999999999999957E-12
DataValue, -0.3, 0.05, 3.7E-14, 1.5550000000000001E-12, -1.826E-12, 3.7E-14, 1.5550000000000001E-12, 1.826E-12, -8.239999999999994E-12
DataValue, -0.275, 0.05, 5.37E-13, 1.5550000000000001E-12, -2.256E-12, 5.37E-13, 1.5550000000000001E-12, 2.256E-12, 2.0000000000000025E-11
DataValue, -0.25, 0.05, 4.5700000000000007E-13, 1.3150000000000002E-12, -2.3660000000000002E-12, 4.5700000000000007E-13, 1.3150000000000002E-12, 2.3660000000000002E-12, -3.1999999999999957E-12
DataValue, -0.225, 0.05, -1.3300000000000001E-13, 1.5450000000000002E-12, -2.566E-12, 1.3300000000000001E-13, 1.5450000000000002E-12, 2.566E-12, -1.2960000000000005E-11
DataValue, -0.2, 0.05, 5.9700000000000008E-13, 1.3650000000000001E-12, -2.846E-12, 5.9700000000000008E-13, 1.3650000000000001E-12, 2.846E-12, 1.8560000000000005E-11
DataValue, -0.17500000000000002, 0.05, 1.387E-12, 1.3550000000000002E-12, -3.676E-12, 1.387E-12, 1.3550000000000002E-12, 3.676E-12, 3.1600000000000006E-11
DataValue, -0.15, 0.05, 4.407E-12, 1.255E-12, -6.7060000000000007E-12, 4.407E-12, 1.255E-12, 6.7060000000000007E-12, 1.2079999999999988E-10
DataValue, -0.125, 0.05, 1.0787E-11, 1.6050000000000001E-12, -1.2626E-11, 1.0787E-11, 1.6050000000000001E-12, 1.2626E-11, 2.5520000000000006E-10
DataValue, -0.1, 0.05, 2.6587000000000002E-11, 1.6450000000000002E-12, -2.8256000000000002E-11, 2.6587000000000002E-11, 1.6450000000000002E-12, 2.8256000000000002E-11, 6.3200000000000009E-10
DataValue, -0.075, 0.05, 6.3597E-11, 1.5850000000000002E-12, -6.6396E-11, 6.3597E-11, 1.5850000000000002E-12, 6.6396E-11, 1.4803999999999996E-09
DataValue, -0.05, 0.05, 1.5274700000000002E-10, 1.7450000000000001E-12, -1.56416E-10, 1.5274700000000002E-10, 1.7450000000000001E-12, 1.56416E-10, 3.5660000000000011E-09
DataValue, -0.025, 0.05, 3.5975700000000003E-10, 1.4150000000000001E-12, -3.6150600000000004E-10, 3.5975700000000003E-10, 1.4150000000000001E-12, 3.6150600000000004E-10, 8.2804E-09
DataValue, 0, 0.05, 8.08857E-10, 1.525E-12, -8.1478600000000011E-10, 8.08857E-10, 1.525E-12, 8.1478600000000011E-10, 1.7963999999999998E-08
DataValue, 0.025, 0.05, 1.83407E-09, 1.6050000000000001E-12, -1.81614E-09, 1.83407E-09, 1.6050000000000001E-12, 1.81614E-09, 4.1008520000000006E-08
DataValue, 0.05, 0.05, 3.76997E-09, 1.7250000000000002E-12, -3.75014E-09, 3.76997E-09, 1.7250000000000002E-12, 3.75014E-09, 7.7436E-08
DataValue, 0.075, 0.05, 7.36087E-09, 1.6850000000000002E-12, -7.36814E-09, 7.36087E-09, 1.6850000000000002E-12, 7.36814E-09, 1.43636E-07
DataValue, 0.1, 0.05, 1.33356E-08, 1.835E-12, -1.3376799999999999E-08, 1.33356E-08, 1.835E-12, 1.3376799999999999E-08, 2.389891999999999E-07
DataValue, 0.125, 0.05, 2.3160199999999998E-08, 1.385E-12, -2.3239999999999998E-08, 2.3160199999999998E-08, 1.385E-12, 2.3239999999999998E-08, 3.92984E-07
DataValue, 0.15, 0.05, 3.7381599999999995E-08, 1.535E-12, -3.7273799999999996E-08, 3.7381599999999995E-08, 1.535E-12, 3.7273799999999996E-08, 5.68856E-07
DataValue, 0.17500000000000002, 0.05, 5.7242999999999992E-08, 1.4650000000000001E-12, -5.7215599999999993E-08, 5.7242999999999992E-08, 1.4650000000000001E-12, 5.7215599999999993E-08, 7.9445599999999918E-07
DataValue, 0.2, 0.05, 8.2901E-08, 1.575E-12, -8.34052E-08, 8.2901E-08, 1.575E-12, 8.34052E-08, 1.0263200000000004E-06
DataValue, 0.225, 0.05, 1.169E-07, 1.9150000000000002E-12, -1.1655999999999999E-07, 1.169E-07, 1.9150000000000002E-12, 1.1655999999999999E-07, 1.3599600000000003E-06
DataValue, 0.25, 0.05, 1.583E-07, 1.715E-12, -1.5834E-07, 1.583E-07, 1.715E-12, 1.5834E-07, 1.656000000000001E-06
DataValue, 0.275, 0.05, 2.062E-07, 1.625E-12, -2.0556E-07, 2.062E-07, 1.625E-12, 2.0556E-07, 1.9159999999999983E-06
DataValue, 0.3, 0.05, 2.6392E-07, 1.625E-12, -2.6228E-07, 2.6392E-07, 1.625E-12, 2.6228E-07, 2.3088000000000028E-06
DataValue, 0.325, 0.05, 3.3082E-07, 1.675E-12, -3.2962E-07, 3.3082E-07, 1.675E-12, 3.2962E-07, 2.6759999999999973E-06
DataValue, 0.35000000000000003, 0.05, 4.0278E-07, 1.6050000000000001E-12, -4.054E-07, 4.0278E-07, 1.6050000000000001E-12, 4.054E-07, 2.8783999999999981E-06
DataValue, 0.375, 0.05, 4.9104E-07, 1.6350000000000002E-12, -4.9004E-07, 4.9104E-07, 1.6350000000000002E-12, 4.9004E-07, 3.5304000000000035E-06
DataValue, 0.4, 0.05, 5.7944E-07, 1.575E-12, -5.816E-07, 5.7944E-07, 1.575E-12, 5.816E-07, 3.5359999999999959E-06
DataValue, 0.42500000000000004, 0.05, 6.7898E-07, 1.6850000000000002E-12, -6.7974E-07, 6.7898E-07, 1.6850000000000002E-12, 6.7974E-07, 3.9815999999999967E-06
DataValue, 0.45, 0.05, 7.9408E-07, 1.955E-12, -7.9338E-07, 7.9408E-07, 1.955E-12, 7.9338E-07, 4.6040000000000088E-06
DataValue, 0.47500000000000003, 0.05, 9.1809999999999994E-07, 1.6550000000000001E-12, -9.1644E-07, 9.1809999999999994E-07, 1.6550000000000001E-12, 9.1644E-07, 4.9607999999999924E-06
DataValue, 0.5, 0.05, 1.0417599999999999E-06, 1.665E-12, -1.04544E-06, 1.0417599999999999E-06, 1.665E-12, 1.04544E-06, 4.946400000000004E-06
DataValue, 0.525, 0.05, 1.1766E-06, 1.7050000000000001E-12, -1.1726000000000002E-06, 1.1766E-06, 1.7050000000000001E-12, 1.1726000000000002E-06, 5.3936000000000037E-06
DataValue, 0.55, 0.05, 1.3259E-06, 1.6350000000000002E-12, -1.3248000000000002E-06, 1.3259E-06, 1.6350000000000002E-12, 1.3248000000000002E-06, 5.9719999999999947E-06
DataValue, 0.57500000000000007, 0.05, 1.4728000000000001E-06, 1.4450000000000002E-12, -1.4775000000000003E-06, 1.4728000000000001E-06, 1.4450000000000002E-12, 1.4775000000000003E-06, 5.8759999999999959E-06
DataValue, 0.6, 0.05, 1.6607000000000003E-06, 1.395E-12, -1.6545000000000002E-06, 1.6607000000000003E-06, 1.395E-12, 1.6545000000000002E-06, 7.5160000000000327E-06
DataValue, 0.625, 0.05, 1.8402000000000002E-06, 1.765E-12, -1.8309000000000001E-06, 1.8402000000000002E-06, 1.765E-12, 1.8309000000000001E-06, 7.1799999999999905E-06
DataValue, 0.65, 0.05, 2.0191000000000003E-06, 1.7050000000000001E-12, -2.0064000000000004E-06, 2.0191000000000003E-06, 1.7050000000000001E-12, 2.0064000000000004E-06, 7.1559999999999972E-06
DataValue, 0.675, 0.05, 2.2233000000000004E-06, 1.615E-12, -2.211E-06, 2.2233000000000004E-06, 1.615E-12, 2.211E-06, 8.167999999999997E-06
DataValue, 0.70000000000000007, 0.05, 2.4372E-06, 1.665E-12, -2.4287E-06, 2.4372E-06, 1.665E-12, 2.4287E-06, 8.5559999999999838E-06
DataValue, 0.72500000000000009, 0.05, 2.6291000000000004E-06, 1.6050000000000001E-12, -2.6313E-06, 2.6291000000000004E-06, 1.6050000000000001E-12, 2.6313E-06, 7.6760000000000024E-06
DataValue, 0.75, 0.05, 2.8498000000000002E-06, 1.5950000000000002E-12, -2.8429000000000003E-06, 2.8498000000000002E-06, 1.5950000000000002E-12, 2.8429000000000003E-06, 8.8280000000000263E-06
DataValue, 0.775, 0.05, 3.0971000000000004E-06, 1.4950000000000002E-12, -3.0971000000000004E-06, 3.0971000000000004E-06, 1.4950000000000002E-12, 3.0971000000000004E-06, 9.8919999999999978E-06
DataValue, 0.8, 0.05, 3.3334E-06, 1.855E-12, -3.3448E-06, 3.3334E-06, 1.855E-12, 3.3448E-06, 9.4519999999999817E-06
DataValue, 0.82500000000000007, 0.05, 3.5753000000000003E-06, 1.6950000000000002E-12, -3.5791E-06, 3.5753000000000003E-06, 1.6950000000000002E-12, 3.5791E-06, 9.6759999999999985E-06
DataValue, 0.85000000000000009, 0.05, 3.8512000000000005E-06, 1.5450000000000002E-12, -3.8657E-06, 3.8512000000000005E-06, 1.5450000000000002E-12, 3.8657E-06, 1.1035999999999997E-05
DataValue, 0.875, 0.05, 4.1098E-06, 1.7250000000000002E-12, -4.1106E-06, 4.1098E-06, 1.7250000000000002E-12, 4.1106E-06, 1.0344000000000018E-05
DataValue, 0.9, 0.05, 4.3909000000000006E-06, 1.5050000000000002E-12, -4.3796E-06, 4.3909000000000006E-06, 1.5050000000000002E-12, 4.3796E-06, 1.1244000000000013E-05
DataValue, 0.925, 0.05, 4.6684E-06, 1.6450000000000002E-12, -4.6666E-06, 4.6684E-06, 1.6450000000000002E-12, 4.6666E-06, 1.1099999999999968E-05
DataValue, 0.95000000000000007, 0.05, 4.9578E-06, 1.7250000000000002E-12, -4.9551E-06, 4.9578E-06, 1.7250000000000002E-12, 4.9551E-06, 1.1575999999999996E-05
DataValue, 0.97500000000000009, 0.05, 5.2533E-06, 1.885E-12, -5.2472E-06, 5.2533E-06, 1.885E-12, 5.2472E-06, 1.1819999999999989E-05
DataValue, 1, 0.05, 5.5693E-06, 1.435E-12, -5.5725000000000004E-06, 5.5693E-06, 1.435E-12, 5.5725000000000004E-06, 1.2640000000000047E-05
DataValue, 1.0250000000000001, 0.05, 5.9078000000000004E-06, 1.7050000000000001E-12, -5.8963000000000006E-06, 5.9078000000000004E-06, 1.7050000000000001E-12, 5.8963000000000006E-06, 1.3539999999999936E-05
DataValue, 1.05, 0.05, 6.2107000000000005E-06, 1.835E-12, -6.2097000000000009E-06, 6.2107000000000005E-06, 1.835E-12, 6.2097000000000009E-06, 1.2116000000000046E-05
