
SetupTitle, IdVg_Vd_par
PrimitiveTest, I/V Sweep
TestParameter, Context.MainFrame, B1500A
TestParameter, Channel.UnitType, SMU, SMU, SMU
TestParameter, Channel.Unit, SMU3:HR, SMU2:HR, SMU1:HR
TestParameter, Channel.IName, Id, Ig, Is
TestParameter, Channel.VName, Vd, Vg, Vs
TestParameter, Channel.Mode, V, V, V
TestParameter, Channel.Func, VAR2, VAR1, CONST
TestParameter, Channel.Index, 
TestParameter, Channel.Time, 
TestParameter, Measurement.Port.Unit, SMU3:HR, SMU2:HR, SMU1:HR
TestParameter, Measurement.Port.SeriesResistor, NONE, NONE, NONE
TestParameter, Measurement.Port.Filter, ON, ON, ON
TestParameter, Measurement.Port.OutputVoltageComparison, 0, 0, 0
TestParameter, Measurement.Primary.Locus, Double
TestParameter, Measurement.Primary.Scale, LINEAR
TestParameter, Measurement.Primary.Start, -1
TestParameter, Measurement.Primary.Stop, 2
TestParameter, Measurement.Primary.Step, 0.025
TestParameter, Measurement.Primary.Compliance, 0.1
TestParameter, Measurement.Primary.PowerCompliance, 0
TestParameter, Measurement.Aborting.Condition, STOP AT ANY ABNORMAL
TestParameter, Measurement.PostOutput.Value, START
TestParameter, Measurement.PostOutput.Retention, OFF
TestParameter, Measurement.Secondary.Start, 0.05
TestParameter, Measurement.Secondary.Count, 2
TestParameter, Measurement.Secondary.Step, 0.95000000000000007
TestParameter, Measurement.Secondary.Compliance, 0.1
TestParameter, Measurement.Secondary.PowerCompliance, 0
TestParameter, Measurement.Bias.Source, 0.05, -1, 0
TestParameter, Measurement.Bias.Compliance, 0.1, 0.1, 0.1
TestParameter, Measurement.Monitor.Unit, SMU3:HR, SMU2:HR, SMU1:HR
TestParameter, Measurement.Monitor.Adc, HR ADC, HR ADC, HR ADC
TestParameter, Measurement.Monitor.Measurement, Compliance Side, Compliance Side, Compliance Side
TestParameter, Measurement.Monitor.RangingMode, LIMITED, LIMITED, LIMITED
TestParameter, Measurement.Monitor.RangeBoundary, 1nA, 1nA, 1nA
TestParameter, Measurement.Monitor.RangeRating, BY FULL RANGE, BY FULL RANGE, BY FULL RANGE
TestParameter, Measurement.Monitor.RangeRatingCoeff, 50, 50, 50
TestParameter, Measurement.Timing.Hold, 0
TestParameter, Measurement.Timing.Delay, 0
TestParameter, Measurement.Adc.HighSpeed.Mode, AUTO
TestParameter, Measurement.Adc.HighSpeed.Coeff, 1
TestParameter, Measurement.Adc.HighResolution.AutoZero, OFF
TestParameter, Measurement.Adc.HighResolution.Mode, AUTO
TestParameter, Measurement.Adc.HighResolution.Coeff, 6
TestParameter, Measurement.WaitTime.Source.Coeff, 1
TestParameter, Measurement.WaitTime.Source.Offset, 0
TestParameter, Measurement.WaitTime.Monitor.Coeff, 1
TestParameter, Measurement.WaitTime.Monitor.Offset, 0
TestParameter, Function.User.Name, absId, absIg, absIs, gm
TestParameter, Function.User.Unit, A, A, A, S
TestParameter, Function.User.Definition, abs(Id), abs(Ig), abs(Is), diff(abs(Id))/diff(Vg)
TestParameter, Output.Graph.Enabled, true
TestParameter, Output.Graph.AutoScaling, false
TestParameter, Output.Graph.XAxis.Data, Vg
TestParameter, Output.Graph.XAxis.Scale, Linear
TestParameter, Output.Graph.XAxis.Left, -1
TestParameter, Output.Graph.XAxis.Right, 2
TestParameter, Output.Graph.XAxis.RunTimeAutoScale, false
TestParameter, Output.Graph.YAxis.Data, absId, gm, absIg, absIs
TestParameter, Output.Graph.YAxis.Scale, Log, Linear, Log, Log
TestParameter, Output.Graph.YAxis.Bottom, 1E-15, 0, 1E-15, 1E-15
TestParameter, Output.Graph.YAxis.Top, 0.001, 1, 0.001, 0.001
TestParameter, Output.Graph.YAxis.Group, , , , 
TestParameter, Output.Graph.YAxis.RunTimeAutoScale, false, true, false, false
TestParameter, Output.List.Data, Vg, Vd, Id, Is, Ig, absId, absIs, absIg, gm
TestParameter, AutoAnalysis.Interpolation, false
TestParameter, AutoAnalysis.Var2StepCount, 1
TestParameter, AutoAnalysis.Var2StepScript, 
TestParameter, AutoAnalysis.Line1.Enabled, false
TestParameter, AutoAnalysis.Line1.Type, 1
TestParameter, AutoAnalysis.Line1.Fix, True
TestParameter, AutoAnalysis.Line1.YAxis, 0
TestParameter, AutoAnalysis.Line1.Point1.Type, 0
TestParameter, AutoAnalysis.Line1.Point1.XY.X, 
TestParameter, AutoAnalysis.Line1.Point1.XY.Y, 
TestParameter, AutoAnalysis.Line1.Point1.Data.Var, 
TestParameter, AutoAnalysis.Line1.Point1.Data.Condition, 
TestParameter, AutoAnalysis.Line1.Point1.Data.Start, false
TestParameter, AutoAnalysis.Line1.Point1.Data.StartVar, 
TestParameter, AutoAnalysis.Line1.Point1.Data.StartCondition, 
TestParameter, AutoAnalysis.Line1.Point2.Type, 0
TestParameter, AutoAnalysis.Line1.Point2.XY.X, 
TestParameter, AutoAnalysis.Line1.Point2.XY.Y, 
TestParameter, AutoAnalysis.Line1.Point2.Data.Var, 
TestParameter, AutoAnalysis.Line1.Point2.Data.Condition, 
TestParameter, AutoAnalysis.Line1.Point2.Data.Start, false
TestParameter, AutoAnalysis.Line1.Point2.Data.StartVar, 
TestParameter, AutoAnalysis.Line1.Point2.Data.StartCondition, 
TestParameter, AutoAnalysis.Line1.GradientExpr, 0
TestParameter, AutoAnalysis.Line2.Enabled, false
TestParameter, AutoAnalysis.Line2.Type, 1
TestParameter, AutoAnalysis.Line2.Fix, True
TestParameter, AutoAnalysis.Line2.YAxis, 0
TestParameter, AutoAnalysis.Line2.Point1.Type, 0
TestParameter, AutoAnalysis.Line2.Point1.XY.X, 
TestParameter, AutoAnalysis.Line2.Point1.XY.Y, 
TestParameter, AutoAnalysis.Line2.Point1.Data.Var, 
TestParameter, AutoAnalysis.Line2.Point1.Data.Condition, 
TestParameter, AutoAnalysis.Line2.Point1.Data.Start, false
TestParameter, AutoAnalysis.Line2.Point1.Data.StartVar, 
TestParameter, AutoAnalysis.Line2.Point1.Data.StartCondition, 
TestParameter, AutoAnalysis.Line2.Point2.Type, 0
TestParameter, AutoAnalysis.Line2.Point2.XY.X, 
TestParameter, AutoAnalysis.Line2.Point2.XY.Y, 
TestParameter, AutoAnalysis.Line2.Point2.Data.Var, 
TestParameter, AutoAnalysis.Line2.Point2.Data.Condition, 
TestParameter, AutoAnalysis.Line2.Point2.Data.Start, false
TestParameter, AutoAnalysis.Line2.Point2.Data.StartVar, 
TestParameter, AutoAnalysis.Line2.Point2.Data.StartCondition, 
TestParameter, AutoAnalysis.Line2.GradientExpr, 0
TestParameter, AutoAnalysis.Marker.Enabled, false
TestParameter, AutoAnalysis.Marker.Data.Var, 
TestParameter, AutoAnalysis.Marker.Data.Condition, 
TestParameter, AutoAnalysis.Marker.Data.Start, false
TestParameter, AutoAnalysis.Marker.Data.StartVar, 
TestParameter, AutoAnalysis.Marker.Data.StartCondition, 
MetaData, TestRecord.EntryPoint, true
MetaData, TestRecord.RecordTime, 06/03/2025 15:25:15
MetaData, TestRecord.TestTarget, R[5R]_D[5]_L[60]
MetaData, TestRecord.IterationIndex, 1
MetaData, TestRecord.Preservation, true
MetaData, TestRecord.Flag, !
MetaData, TestRecord.Remarks, 
MetaData, TestRecord.LinkKey, b083fd9d-df67-4bff-a2b4-73055c92ccb5
MetaData, TestRecord.Parameters, 
Dimension1, 242, 242, 242, 242, 242, 242, 242, 242, 242
Dimension2, 2, 2, 2, 2, 2, 2, 2, 2, 2
DataName, Vg, Vd, Id, Ig, Is, absId, absIg, absIs, gm
DataValue, -1, 0.05, -3.3673000000000005E-11, 1.4450000000000002E-12, -1.5860000000000001E-12, 3.3673000000000005E-11, 1.4450000000000002E-12, 1.5860000000000001E-12, 
DataValue, -0.97500000000000009, 0.05, 1.2047000000000002E-11, 1.875E-12, -1.856E-12, 1.2047000000000002E-11, 1.875E-12, 1.856E-12, -8.6504000000000325E-10
DataValue, -0.95000000000000007, 0.05, 5.2157000000000004E-11, 1.435E-12, -2.206E-12, 5.2157000000000004E-11, 1.435E-12, 2.206E-12, 1.6043999999999987E-09
DataValue, -0.925, 0.05, 4.2337000000000006E-11, 1.095E-12, -2.9760000000000002E-12, 4.2337000000000006E-11, 1.095E-12, 2.9760000000000002E-12, -3.9279999999999956E-10
DataValue, -0.9, 0.05, -1.0653000000000002E-11, 6.05E-13, -3.066E-12, 1.0653000000000002E-11, 6.05E-13, 3.066E-12, -1.267359999999999E-09
DataValue, -0.875, 0.05, -5.0543000000000007E-11, 4.45E-13, -2.276E-12, 5.0543000000000007E-11, 4.45E-13, 2.276E-12, 1.5955999999999987E-09
DataValue, -0.85000000000000009, 0.05, -4.4623E-11, 1.295E-12, -1.5260000000000002E-12, 4.4623E-11, 1.295E-12, 1.5260000000000002E-12, -2.36800000000001E-10
DataValue, -0.82500000000000007, 0.05, 7.517E-12, 1.7750000000000002E-12, -1.5360000000000001E-12, 7.517E-12, 1.7750000000000002E-12, 1.5360000000000001E-12, -1.484239999999999E-09
DataValue, -0.8, 0.05, 4.8787000000000007E-11, 1.395E-12, -2.7960000000000002E-12, 4.8787000000000007E-11, 1.395E-12, 2.7960000000000002E-12, 1.6507999999999987E-09
DataValue, -0.775, 0.05, 4.6757E-11, 9.25E-13, -3.276E-12, 4.6757E-11, 9.25E-13, 3.276E-12, -8.1200000000000118E-11
DataValue, -0.75, 0.05, -3.083E-12, 4.0500000000000004E-13, -3.2060000000000003E-12, 3.083E-12, 4.0500000000000004E-13, 3.2060000000000003E-12, -1.7469599999999987E-09
DataValue, -0.72500000000000009, 0.05, -4.5753000000000003E-11, 4.75E-13, -2.486E-12, 4.5753000000000003E-11, 4.75E-13, 2.486E-12, 1.7068000000000064E-09
DataValue, -0.70000000000000007, 0.05, -4.9063E-11, 6.85E-13, -1.6660000000000002E-12, 4.9063E-11, 6.85E-13, 1.6660000000000002E-12, 1.3239999999999985E-10
DataValue, -0.675, 0.05, -1.2630000000000002E-12, 1.4550000000000002E-12, -1.976E-12, 1.2630000000000002E-12, 1.4550000000000002E-12, 1.976E-12, -1.9119999999999984E-09
DataValue, -0.65, 0.05, 4.6127000000000007E-11, 1.6350000000000002E-12, -2.436E-12, 4.6127000000000007E-11, 1.6350000000000002E-12, 2.436E-12, 1.7945599999999988E-09
DataValue, -0.625, 0.05, 4.9497000000000004E-11, 1.0350000000000001E-12, -2.9360000000000004E-12, 4.9497000000000004E-11, 1.0350000000000001E-12, 2.9360000000000004E-12, 1.3479999999999976E-10
DataValue, -0.6, 0.05, -1.53E-13, 4.65E-13, -3.1860000000000004E-12, 1.53E-13, 4.65E-13, 3.1860000000000004E-12, -1.9737599999999984E-09
DataValue, -0.57500000000000007, 0.05, -4.4873E-11, 1.35E-13, -2.386E-12, 4.4873E-11, 1.35E-13, 2.386E-12, 1.7888000000000065E-09
DataValue, -0.55, 0.05, -5.1143000000000004E-11, 8.45E-13, -1.926E-12, 5.1143000000000004E-11, 8.45E-13, 1.926E-12, 2.5079999999999985E-10
DataValue, -0.525, 0.05, -5.343E-12, 1.6350000000000002E-12, -1.8360000000000003E-12, 5.343E-12, 1.6350000000000002E-12, 1.8360000000000003E-12, -1.8319999999999986E-09
DataValue, -0.5, 0.05, 4.0797000000000004E-11, 1.295E-12, -2.236E-12, 4.0797000000000004E-11, 1.295E-12, 2.236E-12, 1.418159999999999E-09
DataValue, -0.47500000000000003, 0.05, 5.3517000000000006E-11, 1.185E-12, -3.116E-12, 5.3517000000000006E-11, 1.185E-12, 3.116E-12, 5.0880000000000077E-10
DataValue, -0.45, 0.05, 1.0067E-11, 4.2500000000000006E-13, -3.936E-12, 1.0067E-11, 4.2500000000000006E-13, 3.936E-12, -1.7379999999999986E-09
DataValue, -0.42500000000000004, 0.05, -3.8283E-11, 6.2500000000000006E-13, -4.1060000000000005E-12, 3.8283E-11, 6.2500000000000006E-13, 4.1060000000000005E-12, 1.1286400000000016E-09
DataValue, -0.4, 0.05, -3.6883000000000006E-11, 1.055E-12, -5.1760000000000006E-12, 3.6883000000000006E-11, 1.055E-12, 5.1760000000000006E-12, -5.5999999999999807E-11
DataValue, -0.375, 0.05, 2.1017000000000002E-11, 1.475E-12, -9.486E-12, 2.1017000000000002E-11, 1.475E-12, 9.486E-12, -6.3463999999999958E-10
DataValue, -0.35000000000000003, 0.05, 6.9217000000000008E-11, 2.015E-12, -1.9926E-11, 6.9217000000000008E-11, 2.015E-12, 1.9926E-11, 1.9280000000000029E-09
DataValue, -0.325, 0.05, 7.7297000000000007E-11, 1.0250000000000002E-12, -3.8556000000000005E-11, 7.7297000000000007E-11, 1.0250000000000002E-12, 3.8556000000000005E-11, 3.2319999999999967E-10
DataValue, -0.3, 0.05, 6.8327000000000011E-11, 2.85E-13, -8.3426000000000007E-11, 6.8327000000000011E-11, 2.85E-13, 8.3426000000000007E-11, -3.5879999999999953E-10
DataValue, -0.275, 0.05, 1.12927E-10, 4.0500000000000004E-13, -1.7353600000000002E-10, 1.12927E-10, 4.0500000000000004E-13, 1.7353600000000002E-10, 1.7840000000000021E-09
DataValue, -0.25, 0.05, 2.99917E-10, 8.3500000000000008E-13, -3.49636E-10, 2.99917E-10, 8.3500000000000008E-13, 3.49636E-10, 7.4795999999999931E-09
DataValue, -0.225, 0.05, 6.8359700000000007E-10, 1.4950000000000002E-12, -7.11256E-10, 6.8359700000000007E-10, 1.4950000000000002E-12, 7.11256E-10, 1.5347200000000006E-08
DataValue, -0.2, 0.05, 1.27977E-09, 1.425E-12, -1.27164E-09, 1.27977E-09, 1.425E-12, 1.27164E-09, 2.3846920000000003E-08
DataValue, -0.17500000000000002, 0.05, 2.44197E-09, 2.055E-12, -2.38194E-09, 2.44197E-09, 2.055E-12, 2.38194E-09, 4.6488000000000012E-08
DataValue, -0.15, 0.05, 4.34967E-09, 9.8500000000000014E-13, -4.26244E-09, 4.34967E-09, 9.8500000000000014E-13, 4.26244E-09, 7.6307999999999931E-08
DataValue, -0.125, 0.05, 7.51597E-09, 4.5500000000000008E-13, -7.62384E-09, 7.51597E-09, 4.5500000000000008E-13, 7.62384E-09, 1.2665200000000002E-07
DataValue, -0.1, 0.05, 1.2401799999999998E-08, 1.2150000000000002E-12, -1.2354199999999999E-08, 1.2401799999999998E-08, 1.2150000000000002E-12, 1.2354199999999999E-08, 1.9543319999999999E-07
DataValue, -0.075, 0.05, 1.9958999999999997E-08, 1.425E-12, -1.9672E-08, 1.9958999999999997E-08, 1.425E-12, 1.9672E-08, 3.0228799999999983E-07
DataValue, -0.05, 0.05, 3.1668199999999994E-08, 1.0750000000000002E-12, -3.13792E-08, 3.1668199999999994E-08, 1.0750000000000002E-12, 3.13792E-08, 4.6836799999999995E-07
DataValue, -0.025, 0.05, 4.6677999999999996E-08, 1.195E-12, -4.7257199999999995E-08, 4.6677999999999996E-08, 1.195E-12, 4.7257199999999995E-08, 6.003920000000001E-07
DataValue, 0, 0.05, 7.1056799999999988E-08, 1.485E-12, -7.26462E-08, 7.1056799999999988E-08, 1.485E-12, 7.26462E-08, 9.7515199999999952E-07
DataValue, 0.025, 0.05, 1.018352E-07, 5.85E-13, -1.0338199999999999E-07, 1.018352E-07, 5.85E-13, 1.0338199999999999E-07, 1.2311360000000003E-06
DataValue, 0.05, 0.05, 1.416E-07, 1.6350000000000002E-12, -1.4186E-07, 1.416E-07, 1.6350000000000002E-12, 1.4186E-07, 1.590592E-06
DataValue, 0.075, 0.05, 1.9622E-07, 1.4450000000000002E-12, -1.9429999999999999E-07, 1.9622E-07, 1.4450000000000002E-12, 1.9429999999999999E-07, 2.1848000000000002E-06
DataValue, 0.1, 0.05, 2.5556E-07, 1.4950000000000002E-12, -2.5623999999999997E-07, 2.5556E-07, 1.4950000000000002E-12, 2.5623999999999997E-07, 2.3735999999999992E-06
DataValue, 0.125, 0.05, 3.3135999999999997E-07, 1.5550000000000001E-12, -3.2894E-07, 3.3135999999999997E-07, 1.5550000000000001E-12, 3.2894E-07, 3.032E-06
DataValue, 0.15, 0.05, 4.1484E-07, 1.4950000000000002E-12, -4.179E-07, 4.1484E-07, 1.4950000000000002E-12, 4.179E-07, 3.339200000000001E-06
DataValue, 0.17500000000000002, 0.05, 5.1574E-07, 1.565E-12, -5.2178E-07, 5.1574E-07, 1.565E-12, 5.2178E-07, 4.0359999999999991E-06
DataValue, 0.2, 0.05, 6.416E-07, 1.6950000000000002E-12, -6.3628E-07, 6.416E-07, 1.6950000000000002E-12, 6.3628E-07, 5.0344000000000005E-06
DataValue, 0.225, 0.05, 7.6212E-07, 1.6550000000000001E-12, -7.5414E-07, 7.6212E-07, 1.6550000000000001E-12, 7.5414E-07, 4.8208E-06
DataValue, 0.25, 0.05, 8.9962E-07, 1.4950000000000002E-12, -8.9857999999999994E-07, 8.9962E-07, 1.4950000000000002E-12, 8.9857999999999994E-07, 5.499999999999999E-06
DataValue, 0.275, 0.05, 1.05956E-06, 1.7750000000000002E-12, -1.0534E-06, 1.05956E-06, 1.7750000000000002E-12, 1.0534E-06, 6.3975999999999936E-06
DataValue, 0.3, 0.05, 1.2110000000000001E-06, 6.35E-13, -1.2109000000000001E-06, 1.2110000000000001E-06, 6.35E-13, 1.2109000000000001E-06, 6.0576000000000163E-06
DataValue, 0.325, 0.05, 1.3884000000000001E-06, 1.5850000000000002E-12, -1.3917000000000002E-06, 1.3884000000000001E-06, 1.5850000000000002E-12, 1.3917000000000002E-06, 7.0959999999999936E-06
DataValue, 0.35000000000000003, 0.05, 1.5719000000000002E-06, 8.45E-13, -1.5823E-06, 1.5719000000000002E-06, 8.45E-13, 1.5823E-06, 7.3399999999999941E-06
DataValue, 0.375, 0.05, 1.8071000000000002E-06, 5.2500000000000009E-13, -1.7995E-06, 1.8071000000000002E-06, 5.2500000000000009E-13, 1.7995E-06, 9.4080000000000156E-06
DataValue, 0.4, 0.05, 2.0183000000000002E-06, 1.65E-13, -2.0101E-06, 2.0183000000000002E-06, 1.65E-13, 2.0101E-06, 8.4479999999999926E-06
DataValue, 0.42500000000000004, 0.05, 2.2391000000000003E-06, 5.35E-13, -2.2341000000000003E-06, 2.2391000000000003E-06, 5.35E-13, 2.2341000000000003E-06, 8.8319999999999944E-06
DataValue, 0.45, 0.05, 2.4950000000000003E-06, 4.65E-13, -2.493E-06, 2.4950000000000003E-06, 4.65E-13, 2.493E-06, 1.0236000000000012E-05
DataValue, 0.47500000000000003, 0.05, 2.7814E-06, 1.1250000000000002E-12, -2.7776000000000003E-06, 2.7814E-06, 1.1250000000000002E-12, 2.7776000000000003E-06, 1.1455999999999987E-05
DataValue, 0.5, 0.05, 3.0710000000000003E-06, 1.3550000000000002E-12, -3.0682E-06, 3.0710000000000003E-06, 1.3550000000000002E-12, 3.0682E-06, 1.1584000000000022E-05
DataValue, 0.525, 0.05, 3.3578000000000003E-06, 2.065E-12, -3.3589E-06, 3.3578000000000003E-06, 2.065E-12, 3.3589E-06, 1.1471999999999988E-05
DataValue, 0.55, 0.05, 3.6787000000000005E-06, 1.615E-12, -3.6714000000000005E-06, 3.6787000000000005E-06, 1.615E-12, 3.6714000000000005E-06, 1.2835999999999995E-05
DataValue, 0.57500000000000007, 0.05, 3.9785E-06, 1.5450000000000002E-12, -3.9724E-06, 3.9785E-06, 1.5450000000000002E-12, 3.9724E-06, 1.1991999999999976E-05
DataValue, 0.6, 0.05, 4.3247E-06, 1.255E-12, -4.3462000000000008E-06, 4.3247E-06, 1.255E-12, 4.3462000000000008E-06, 1.3848000000000056E-05
DataValue, 0.625, 0.05, 4.7003000000000006E-06, 1.0850000000000001E-12, -4.6786E-06, 4.7003000000000006E-06, 1.0850000000000001E-12, 4.6786E-06, 1.5023999999999997E-05
DataValue, 0.65, 0.05, 5.0676E-06, 4.8500000000000005E-13, -5.0831000000000005E-06, 5.0676E-06, 4.8500000000000005E-13, 5.0831000000000005E-06, 1.4691999999999981E-05
DataValue, 0.675, 0.05, 5.4577E-06, 4.45E-13, -5.4509000000000006E-06, 5.4577E-06, 4.45E-13, 5.4509000000000006E-06, 1.5603999999999981E-05
DataValue, 0.70000000000000007, 0.05, 5.8328E-06, 6.2500000000000006E-13, -5.8359E-06, 5.8328E-06, 6.2500000000000006E-13, 5.8359E-06, 1.5003999999999987E-05
DataValue, 0.72500000000000009, 0.05, 6.2634000000000009E-06, 4.1500000000000005E-13, -6.2227000000000006E-06, 6.2634000000000009E-06, 4.1500000000000005E-13, 6.2227000000000006E-06, 1.7224000000000007E-05
DataValue, 0.75, 0.05, 6.6429E-06, 7.1500000000000008E-13, -6.6293000000000011E-06, 6.6429E-06, 7.1500000000000008E-13, 6.6293000000000011E-06, 1.5180000000000034E-05
DataValue, 0.775, 0.05, 7.087400000000001E-06, 9.65E-13, -7.0599000000000008E-06, 7.087400000000001E-06, 9.65E-13, 7.0599000000000008E-06, 1.7780000000000006E-05
DataValue, 0.8, 0.05, 7.5147000000000011E-06, 1.3150000000000002E-12, -7.5057000000000008E-06, 7.5147000000000011E-06, 1.3150000000000002E-12, 7.5057000000000008E-06, 1.7091999999999992E-05
DataValue, 0.82500000000000007, 0.05, 7.9835E-06, 1.535E-12, -7.9741E-06, 7.9835E-06, 1.535E-12, 7.9741E-06, 1.8751999999999969E-05
DataValue, 0.85000000000000009, 0.05, 8.4369E-06, 1.9450000000000003E-12, -8.4375E-06, 8.4369E-06, 1.9450000000000003E-12, 8.4375E-06, 1.8135999999999973E-05
DataValue, 0.875, 0.05, 8.8927E-06, 1.5850000000000002E-12, -8.8545000000000014E-06, 8.8927E-06, 1.5850000000000002E-12, 8.8545000000000014E-06, 1.8232000000000062E-05
DataValue, 0.9, 0.05, 9.3907000000000014E-06, 1.4050000000000002E-12, -9.3782000000000011E-06, 9.3907000000000014E-06, 1.4050000000000002E-12, 9.3782000000000011E-06, 1.9920000000000023E-05
DataValue, 0.925, 0.05, 9.8767000000000015E-06, 1.145E-12, -9.870300000000001E-06, 9.8767000000000015E-06, 1.145E-12, 9.870300000000001E-06, 1.9439999999999987E-05
DataValue, 0.95000000000000007, 0.05, 1.0373600000000002E-05, 9.0500000000000008E-13, -1.0355700000000002E-05, 1.0373600000000002E-05, 9.0500000000000008E-13, 1.0355700000000002E-05, 1.9875999999999994E-05
DataValue, 0.97500000000000009, 0.05, 1.0902800000000002E-05, 4.95E-13, -1.08792E-05, 1.0902800000000002E-05, 4.95E-13, 1.08792E-05, 2.1167999999999978E-05
DataValue, 1, 0.05, 1.14075E-05, 3.2500000000000003E-13, -1.1381700000000002E-05, 1.14075E-05, 3.2500000000000003E-13, 1.1381700000000002E-05, 2.0188000000000021E-05
DataValue, 1.0250000000000001, 0.05, 1.195E-05, 1.4550000000000002E-12, -1.1994E-05, 1.195E-05, 1.4550000000000002E-12, 1.1994E-05, 2.1699999999999897E-05
