
SetupTitle, IdVg_Vd_par
PrimitiveTest, I/V Sweep
TestParameter, Context.MainFrame, B1500A
TestParameter, Channel.UnitType, SMU, SMU, SMU
TestParameter, Channel.Unit, SMU3:HR, SMU2:HR, SMU1:HR
TestParameter, Channel.IName, Id, Ig, Is
TestParameter, Channel.VName, Vd, Vg, Vs
TestParameter, Channel.Mode, V, V, V
TestParameter, Channel.Func, VAR2, VAR1, CONST
TestParameter, Channel.Index, 
TestParameter, Channel.Time, 
TestParameter, Measurement.Port.Unit, SMU3:HR, SMU2:HR, SMU1:HR
TestParameter, Measurement.Port.SeriesResistor, NONE, NONE, NONE
TestParameter, Measurement.Port.Filter, ON, ON, ON
TestParameter, Measurement.Port.OutputVoltageComparison, 0, 0, 0
TestParameter, Measurement.Primary.Locus, Double
TestParameter, Measurement.Primary.Scale, LINEAR
TestParameter, Measurement.Primary.Start, -1
TestParameter, Measurement.Primary.Stop, 2
TestParameter, Measurement.Primary.Step, 0.025
TestParameter, Measurement.Primary.Compliance, 0.1
TestParameter, Measurement.Primary.PowerCompliance, 0
TestParameter, Measurement.Aborting.Condition, STOP AT ANY ABNORMAL
TestParameter, Measurement.PostOutput.Value, START
TestParameter, Measurement.PostOutput.Retention, OFF
TestParameter, Measurement.Secondary.Start, 0.05
TestParameter, Measurement.Secondary.Count, 2
TestParameter, Measurement.Secondary.Step, 0.95000000000000007
TestParameter, Measurement.Secondary.Compliance, 0.1
TestParameter, Measurement.Secondary.PowerCompliance, 0
TestParameter, Measurement.Bias.Source, 0.05, -1, 0
TestParameter, Measurement.Bias.Compliance, 0.1, 0.1, 0.1
TestParameter, Measurement.Monitor.Unit, SMU3:HR, SMU2:HR, SMU1:HR
TestParameter, Measurement.Monitor.Adc, HR ADC, HR ADC, HR ADC
TestParameter, Measurement.Monitor.Measurement, Compliance Side, Compliance Side, Compliance Side
TestParameter, Measurement.Monitor.RangingMode, LIMITED, LIMITED, LIMITED
TestParameter, Measurement.Monitor.RangeBoundary, 1nA, 1nA, 1nA
TestParameter, Measurement.Monitor.RangeRating, BY FULL RANGE, BY FULL RANGE, BY FULL RANGE
TestParameter, Measurement.Monitor.RangeRatingCoeff, 50, 50, 50
TestParameter, Measurement.Timing.Hold, 0
TestParameter, Measurement.Timing.Delay, 0
TestParameter, Measurement.Adc.HighSpeed.Mode, AUTO
TestParameter, Measurement.Adc.HighSpeed.Coeff, 1
TestParameter, Measurement.Adc.HighResolution.AutoZero, OFF
TestParameter, Measurement.Adc.HighResolution.Mode, AUTO
TestParameter, Measurement.Adc.HighResolution.Coeff, 6
TestParameter, Measurement.WaitTime.Source.Coeff, 1
TestParameter, Measurement.WaitTime.Source.Offset, 0
TestParameter, Measurement.WaitTime.Monitor.Coeff, 1
TestParameter, Measurement.WaitTime.Monitor.Offset, 0
TestParameter, Function.User.Name, absId, absIg, absIs, gm
TestParameter, Function.User.Unit, A, A, A, S
TestParameter, Function.User.Definition, abs(Id), abs(Ig), abs(Is), diff(abs(Id))/diff(Vg)
TestParameter, Output.Graph.Enabled, true
TestParameter, Output.Graph.AutoScaling, false
TestParameter, Output.Graph.XAxis.Data, Vg
TestParameter, Output.Graph.XAxis.Scale, Linear
TestParameter, Output.Graph.XAxis.Left, -1
TestParameter, Output.Graph.XAxis.Right, 2
TestParameter, Output.Graph.XAxis.RunTimeAutoScale, false
TestParameter, Output.Graph.YAxis.Data, absId, gm, absIg, absIs
TestParameter, Output.Graph.YAxis.Scale, Log, Linear, Log, Log
TestParameter, Output.Graph.YAxis.Bottom, 1E-15, 0, 1E-15, 1E-15
TestParameter, Output.Graph.YAxis.Top, 0.001, 1, 0.001, 0.001
TestParameter, Output.Graph.YAxis.Group, , , , 
TestParameter, Output.Graph.YAxis.RunTimeAutoScale, false, true, false, false
TestParameter, Output.List.Data, Vg, Vd, Id, Is, Ig, absId, absIs, absIg, gm
TestParameter, AutoAnalysis.Interpolation, false
TestParameter, AutoAnalysis.Var2StepCount, 1
TestParameter, AutoAnalysis.Var2StepScript, 
TestParameter, AutoAnalysis.Line1.Enabled, false
TestParameter, AutoAnalysis.Line1.Type, 1
TestParameter, AutoAnalysis.Line1.Fix, True
TestParameter, AutoAnalysis.Line1.YAxis, 0
TestParameter, AutoAnalysis.Line1.Point1.Type, 0
TestParameter, AutoAnalysis.Line1.Point1.XY.X, 
TestParameter, AutoAnalysis.Line1.Point1.XY.Y, 
TestParameter, AutoAnalysis.Line1.Point1.Data.Var, 
TestParameter, AutoAnalysis.Line1.Point1.Data.Condition, 
TestParameter, AutoAnalysis.Line1.Point1.Data.Start, false
TestParameter, AutoAnalysis.Line1.Point1.Data.StartVar, 
TestParameter, AutoAnalysis.Line1.Point1.Data.StartCondition, 
TestParameter, AutoAnalysis.Line1.Point2.Type, 0
TestParameter, AutoAnalysis.Line1.Point2.XY.X, 
TestParameter, AutoAnalysis.Line1.Point2.XY.Y, 
TestParameter, AutoAnalysis.Line1.Point2.Data.Var, 
TestParameter, AutoAnalysis.Line1.Point2.Data.Condition, 
TestParameter, AutoAnalysis.Line1.Point2.Data.Start, false
TestParameter, AutoAnalysis.Line1.Point2.Data.StartVar, 
TestParameter, AutoAnalysis.Line1.Point2.Data.StartCondition, 
TestParameter, AutoAnalysis.Line1.GradientExpr, 0
TestParameter, AutoAnalysis.Line2.Enabled, false
TestParameter, AutoAnalysis.Line2.Type, 1
TestParameter, AutoAnalysis.Line2.Fix, True
TestParameter, AutoAnalysis.Line2.YAxis, 0
TestParameter, AutoAnalysis.Line2.Point1.Type, 0
TestParameter, AutoAnalysis.Line2.Point1.XY.X, 
TestParameter, AutoAnalysis.Line2.Point1.XY.Y, 
TestParameter, AutoAnalysis.Line2.Point1.Data.Var, 
TestParameter, AutoAnalysis.Line2.Point1.Data.Condition, 
TestParameter, AutoAnalysis.Line2.Point1.Data.Start, false
TestParameter, AutoAnalysis.Line2.Point1.Data.StartVar, 
TestParameter, AutoAnalysis.Line2.Point1.Data.StartCondition, 
TestParameter, AutoAnalysis.Line2.Point2.Type, 0
TestParameter, AutoAnalysis.Line2.Point2.XY.X, 
TestParameter, AutoAnalysis.Line2.Point2.XY.Y, 
TestParameter, AutoAnalysis.Line2.Point2.Data.Var, 
TestParameter, AutoAnalysis.Line2.Point2.Data.Condition, 
TestParameter, AutoAnalysis.Line2.Point2.Data.Start, false
TestParameter, AutoAnalysis.Line2.Point2.Data.StartVar, 
TestParameter, AutoAnalysis.Line2.Point2.Data.StartCondition, 
TestParameter, AutoAnalysis.Line2.GradientExpr, 0
TestParameter, AutoAnalysis.Marker.Enabled, false
TestParameter, AutoAnalysis.Marker.Data.Var, 
TestParameter, AutoAnalysis.Marker.Data.Condition, 
TestParameter, AutoAnalysis.Marker.Data.Start, false
TestParameter, AutoAnalysis.Marker.Data.StartVar, 
TestParameter, AutoAnalysis.Marker.Data.StartCondition, 
MetaData, TestRecord.EntryPoint, true
MetaData, TestRecord.RecordTime, 06/03/2025 15:38:42
MetaData, TestRecord.TestTarget, R[5]_D[6]_L[90]
MetaData, TestRecord.IterationIndex, 1
MetaData, TestRecord.Preservation, true
MetaData, TestRecord.Flag, !
MetaData, TestRecord.Remarks, 
MetaData, TestRecord.LinkKey, 68a9aae5-659d-4915-8175-d8f6593affe5
MetaData, TestRecord.Parameters, 
Dimension1, 242, 242, 242, 242, 242, 242, 242, 242, 242
Dimension2, 2, 2, 2, 2, 2, 2, 2, 2, 2
DataName, Vg, Vd, Id, Ig, Is, absId, absIg, absIs, gm
DataValue, -1, 0.05, -2.23E-13, 1.2150000000000002E-12, -2.176E-12, 2.23E-13, 1.2150000000000002E-12, 2.176E-12, 
DataValue, -0.97500000000000009, 0.05, 1.57E-13, 1.095E-12, -1.7060000000000002E-12, 1.57E-13, 1.095E-12, 1.7060000000000002E-12, -2.6400000000000093E-12
DataValue, -0.95000000000000007, 0.05, 1.77E-13, 1.205E-12, -2.176E-12, 1.77E-13, 1.205E-12, 2.176E-12, 7.9999999999999891E-13
DataValue, -0.925, 0.05, 4.7E-14, 1.0850000000000001E-12, -2.076E-12, 4.7E-14, 1.0850000000000001E-12, 2.076E-12, -5.1999999999999956E-12
DataValue, -0.9, 0.05, 4.7E-14, 1.3550000000000002E-12, -2.176E-12, 4.7E-14, 1.3550000000000002E-12, 2.176E-12, 0
DataValue, -0.875, 0.05, -7.3E-14, 7.95E-13, -1.946E-12, 7.3E-14, 7.95E-13, 1.946E-12, 1.0399999999999992E-12
DataValue, -0.85000000000000009, 0.05, -5.3E-14, 1.1750000000000001E-12, -2.306E-12, 5.3E-14, 1.1750000000000001E-12, 2.306E-12, -8.00000000000003E-13
DataValue, -0.82500000000000007, 0.05, 3.27E-13, 7.25E-13, -2.0960000000000004E-12, 3.27E-13, 7.25E-13, 2.0960000000000004E-12, 1.0959999999999992E-11
DataValue, -0.8, 0.05, -2.3000000000000003E-14, 1.1650000000000002E-12, -1.6660000000000002E-12, 2.3000000000000003E-14, 1.1650000000000002E-12, 1.6660000000000002E-12, -1.215999999999999E-11
DataValue, -0.775, 0.05, -2.5300000000000003E-13, 1.245E-12, -2.176E-12, 2.5300000000000003E-13, 1.245E-12, 2.176E-12, 9.1999999999999931E-12
DataValue, -0.75, 0.05, -1.23E-13, 1.015E-12, -2.156E-12, 1.23E-13, 1.015E-12, 2.156E-12, -5.1999999999999964E-12
DataValue, -0.72500000000000009, 0.05, 1.7E-14, 9.3500000000000016E-13, -2.3460000000000003E-12, 1.7E-14, 9.3500000000000016E-13, 2.3460000000000003E-12, -4.2400000000000151E-12
DataValue, -0.70000000000000007, 0.05, 4.77E-13, 1.055E-12, -2.186E-12, 4.77E-13, 1.055E-12, 2.186E-12, 1.8399999999999983E-11
DataValue, -0.675, 0.05, 2.2700000000000002E-13, 1.3150000000000002E-12, -1.7460000000000002E-12, 2.2700000000000002E-13, 1.3150000000000002E-12, 1.7460000000000002E-12, -9.99999999999999E-12
DataValue, -0.65, 0.05, -1.03E-13, 1.0350000000000001E-12, -2.306E-12, 1.03E-13, 1.0350000000000001E-12, 2.306E-12, -4.9599999999999966E-12
DataValue, -0.625, 0.05, -2.43E-13, 1.5050000000000002E-12, -2.2160000000000003E-12, 2.43E-13, 1.5050000000000002E-12, 2.2160000000000003E-12, 5.5999999999999955E-12
DataValue, -0.6, 0.05, -3.2300000000000004E-13, 1.2650000000000002E-12, -2.046E-12, 3.2300000000000004E-13, 1.2650000000000002E-12, 2.046E-12, 3.1999999999999977E-12
DataValue, -0.57500000000000007, 0.05, -5.0300000000000008E-13, 1.245E-12, -2.236E-12, 5.0300000000000008E-13, 1.245E-12, 2.236E-12, 7.2000000000000275E-12
DataValue, -0.55, 0.05, 1.6700000000000002E-13, 8.7500000000000011E-13, -2.176E-12, 1.6700000000000002E-13, 8.7500000000000011E-13, 2.176E-12, -1.3439999999999991E-11
DataValue, -0.525, 0.05, 3.17E-13, 1.1350000000000001E-12, -1.996E-12, 3.17E-13, 1.1350000000000001E-12, 1.996E-12, 5.9999999999999946E-12
DataValue, -0.5, 0.05, 5.57E-13, 1.4450000000000002E-12, -1.9860000000000002E-12, 5.57E-13, 1.4450000000000002E-12, 1.9860000000000002E-12, 9.599999999999993E-12
DataValue, -0.47500000000000003, 0.05, -3.0000000000000002E-15, 1.4550000000000002E-12, -2.076E-12, 3.0000000000000002E-15, 1.4550000000000002E-12, 2.076E-12, -2.2160000000000033E-11
DataValue, -0.45, 0.05, -5.0300000000000008E-13, 1.205E-12, -2.226E-12, 5.0300000000000008E-13, 1.205E-12, 2.226E-12, 1.9999999999999986E-11
DataValue, -0.42500000000000004, 0.05, -2.0300000000000002E-13, 9.25E-13, -2.126E-12, 2.0300000000000002E-13, 9.25E-13, 2.126E-12, -1.2000000000000017E-11
DataValue, -0.4, 0.05, -1.63E-13, 1.0250000000000002E-12, -2.0660000000000003E-12, 1.63E-13, 1.0250000000000002E-12, 2.0660000000000003E-12, -1.5999999999999988E-12
DataValue, -0.375, 0.05, 5.700000000000001E-14, 1.4050000000000002E-12, -2.0960000000000004E-12, 5.700000000000001E-14, 1.4050000000000002E-12, 2.0960000000000004E-12, -4.2399999999999965E-12
DataValue, -0.35000000000000003, 0.05, 4.0700000000000003E-13, 1.3050000000000002E-12, -1.9360000000000002E-12, 4.0700000000000003E-13, 1.3050000000000002E-12, 1.9360000000000002E-12, 1.400000000000002E-11
DataValue, -0.325, 0.05, 8.7000000000000008E-14, 7.8500000000000009E-13, -2.1160000000000003E-12, 8.7000000000000008E-14, 7.8500000000000009E-13, 2.1160000000000003E-12, -1.2799999999999991E-11
DataValue, -0.3, 0.05, -2.6300000000000004E-13, 1.245E-12, -2.1460000000000003E-12, 2.6300000000000004E-13, 1.245E-12, 2.1460000000000003E-12, 7.039999999999995E-12
DataValue, -0.275, 0.05, 7E-15, 1.105E-12, -2.4160000000000002E-12, 7E-15, 1.105E-12, 2.4160000000000002E-12, -1.0240000000000015E-11
DataValue, -0.25, 0.05, 4.7E-14, 1.0750000000000002E-12, -2.186E-12, 4.7E-14, 1.0750000000000002E-12, 2.186E-12, 1.5999999999999986E-12
DataValue, -0.225, 0.05, 3.87E-13, 1.3650000000000001E-12, -2.326E-12, 3.87E-13, 1.3650000000000001E-12, 2.326E-12, 1.3600000000000003E-11
DataValue, -0.2, 0.05, 7.47E-13, 9.25E-13, -2.606E-12, 7.47E-13, 9.25E-13, 2.606E-12, 1.4400000000000005E-11
DataValue, -0.17500000000000002, 0.05, 8.9700000000000012E-13, 1.5850000000000002E-12, -3.1260000000000002E-12, 8.9700000000000012E-13, 1.5850000000000002E-12, 3.1260000000000002E-12, 6.0000000000000043E-12
DataValue, -0.15, 0.05, 2.407E-12, 1.255E-12, -4.796E-12, 2.407E-12, 1.255E-12, 4.796E-12, 6.0399999999999941E-11
DataValue, -0.125, 0.05, 6.1570000000000005E-12, 1.295E-12, -8.6160000000000013E-12, 6.1570000000000005E-12, 1.295E-12, 8.6160000000000013E-12, 1.5000000000000003E-10
DataValue, -0.1, 0.05, 1.5357000000000003E-11, 1.2250000000000001E-12, -1.7436E-11, 1.5357000000000003E-11, 1.2250000000000001E-12, 1.7436E-11, 3.6800000000000013E-10
DataValue, -0.075, 0.05, 3.6297E-11, 1.155E-12, -3.8266000000000005E-11, 3.6297E-11, 1.155E-12, 3.8266000000000005E-11, 8.3759999999999967E-10
DataValue, -0.05, 0.05, 8.7067E-11, 1.235E-12, -8.8326000000000011E-11, 8.7067E-11, 1.235E-12, 8.8326000000000011E-11, 2.0308000000000005E-09
DataValue, -0.025, 0.05, 1.9796700000000002E-10, 1.295E-12, -2.0202600000000002E-10, 1.9796700000000002E-10, 1.295E-12, 2.0202600000000002E-10, 4.436E-09
DataValue, 0, 0.05, 4.50087E-10, 1.105E-12, -4.53366E-10, 4.50087E-10, 1.105E-12, 4.53366E-10, 1.00848E-08
DataValue, 0.025, 0.05, 1.0313070000000001E-09, 1.155E-12, -1.054506E-09, 1.0313070000000001E-09, 1.155E-12, 1.054506E-09, 2.32488E-08
DataValue, 0.05, 0.05, 2.19927E-09, 1.185E-12, -2.13944E-09, 2.19927E-09, 1.185E-12, 2.13944E-09, 4.6718519999999996E-08
DataValue, 0.075, 0.05, 4.47867E-09, 9.8500000000000014E-13, -4.43564E-09, 4.47867E-09, 9.8500000000000014E-13, 4.43564E-09, 9.1176000000000009E-08
DataValue, 0.1, 0.05, 8.53957E-09, 1.2750000000000001E-12, -8.57954E-09, 8.53957E-09, 1.2750000000000001E-12, 8.57954E-09, 1.6243599999999993E-07
DataValue, 0.125, 0.05, 1.5275E-08, 1.375E-12, -1.53604E-08, 1.5275E-08, 1.375E-12, 1.53604E-08, 2.6941720000000005E-07
DataValue, 0.15, 0.05, 2.57082E-08, 1.115E-12, -2.5824599999999996E-08, 2.57082E-08, 1.115E-12, 2.5824599999999996E-08, 4.1732800000000004E-07
DataValue, 0.17500000000000002, 0.05, 4.1409599999999996E-08, 1.015E-12, -4.1351E-08, 4.1409599999999996E-08, 1.015E-12, 4.1351E-08, 6.2805599999999939E-07
DataValue, 0.2, 0.05, 6.2777199999999991E-08, 1.0750000000000002E-12, -6.2724E-08, 6.2777199999999991E-08, 1.0750000000000002E-12, 6.2724E-08, 8.54704E-07
DataValue, 0.225, 0.05, 9.0169399999999987E-08, 1.2250000000000001E-12, -9.1147199999999986E-08, 9.0169399999999987E-08, 1.2250000000000001E-12, 9.1147199999999986E-08, 1.095688E-06
DataValue, 0.25, 0.05, 1.2514E-07, 1.205E-12, -1.2524E-07, 1.2514E-07, 1.205E-12, 1.2524E-07, 1.3988240000000005E-06
DataValue, 0.275, 0.05, 1.69E-07, 8.5500000000000009E-13, -1.6748E-07, 1.69E-07, 8.5500000000000009E-13, 1.6748E-07, 1.7543999999999984E-06
DataValue, 0.3, 0.05, 2.1742E-07, 1.4050000000000002E-12, -2.1732E-07, 2.1742E-07, 1.4050000000000002E-12, 2.1732E-07, 1.9368000000000028E-06
DataValue, 0.325, 0.05, 2.8058E-07, 1.155E-12, -2.8222E-07, 2.8058E-07, 1.155E-12, 2.8222E-07, 2.5263999999999975E-06
DataValue, 0.35000000000000003, 0.05, 3.48E-07, 9.4500000000000011E-13, -3.4774E-07, 3.48E-07, 9.4500000000000011E-13, 3.4774E-07, 2.6967999999999976E-06
DataValue, 0.375, 0.05, 4.2994E-07, 1.0750000000000002E-12, -4.2816E-07, 4.2994E-07, 1.0750000000000002E-12, 4.2816E-07, 3.2776000000000044E-06
DataValue, 0.4, 0.05, 5.1593999999999995E-07, 9.0500000000000008E-13, -5.1387999999999994E-07, 5.1593999999999995E-07, 9.0500000000000008E-13, 5.1387999999999994E-07, 3.439999999999995E-06
DataValue, 0.42500000000000004, 0.05, 6.174E-07, 1.435E-12, -6.1302E-07, 6.174E-07, 1.435E-12, 6.1302E-07, 4.0583999999999991E-06
DataValue, 0.45, 0.05, 7.1826E-07, 1.1350000000000001E-12, -7.1722E-07, 7.1826E-07, 1.1350000000000001E-12, 7.1722E-07, 4.0344000000000058E-06
DataValue, 0.47500000000000003, 0.05, 8.3828E-07, 1.235E-12, -8.4092E-07, 8.3828E-07, 1.235E-12, 8.4092E-07, 4.8007999999999931E-06
DataValue, 0.5, 0.05, 9.6799999999999988E-07, 1.195E-12, -9.664E-07, 9.6799999999999988E-07, 1.195E-12, 9.664E-07, 5.1888000000000036E-06
DataValue, 0.525, 0.05, 1.10942E-06, 1.155E-12, -1.1077799999999999E-06, 1.10942E-06, 1.155E-12, 1.1077799999999999E-06, 5.6568000000000015E-06
DataValue, 0.55, 0.05, 1.2549E-06, 1.285E-12, -1.2432000000000002E-06, 1.2549E-06, 1.285E-12, 1.2432000000000002E-06, 5.819199999999995E-06
DataValue, 0.57500000000000007, 0.05, 1.3996000000000001E-06, 1.2250000000000001E-12, -1.4069000000000002E-06, 1.3996000000000001E-06, 1.2250000000000001E-12, 1.4069000000000002E-06, 5.7879999999999978E-06
DataValue, 0.6, 0.05, 1.5864000000000002E-06, 1.3150000000000002E-12, -1.5771000000000001E-06, 1.5864000000000002E-06, 1.3150000000000002E-12, 1.5771000000000001E-06, 7.4720000000000286E-06
DataValue, 0.625, 0.05, 1.7543E-06, 1.205E-12, -1.76E-06, 1.7543E-06, 1.205E-12, 1.76E-06, 6.71599999999999E-06
DataValue, 0.65, 0.05, 1.945E-06, 1.285E-12, -1.9443E-06, 1.945E-06, 1.285E-12, 1.9443E-06, 7.62799999999999E-06
DataValue, 0.675, 0.05, 2.1496E-06, 1.2150000000000002E-12, -2.1608E-06, 2.1496E-06, 1.2150000000000002E-12, 2.1608E-06, 8.1839999999999982E-06
DataValue, 0.70000000000000007, 0.05, 2.3574E-06, 1.2750000000000001E-12, -2.3573000000000003E-06, 2.3574E-06, 1.2750000000000001E-12, 2.3573000000000003E-06, 8.3119999999999909E-06
DataValue, 0.72500000000000009, 0.05, 2.5762000000000004E-06, 1.1250000000000002E-12, -2.5835000000000003E-06, 2.5762000000000004E-06, 1.1250000000000002E-12, 2.5835000000000003E-06, 8.7520000000000053E-06
DataValue, 0.75, 0.05, 2.8033000000000003E-06, 1.0350000000000001E-12, -2.8067E-06, 2.8033000000000003E-06, 1.0350000000000001E-12, 2.8067E-06, 9.0840000000000286E-06
DataValue, 0.775, 0.05, 3.0618000000000005E-06, 1.095E-12, -3.0616000000000005E-06, 3.0618000000000005E-06, 1.095E-12, 3.0616000000000005E-06, 1.0339999999999998E-05
DataValue, 0.8, 0.05, 3.3228E-06, 1.1750000000000001E-12, -3.3093000000000002E-06, 3.3228E-06, 1.1750000000000001E-12, 3.3093000000000002E-06, 1.043999999999998E-05
DataValue, 0.82500000000000007, 0.05, 3.5852000000000004E-06, 1.245E-12, -3.5659000000000005E-06, 3.5852000000000004E-06, 1.245E-12, 3.5659000000000005E-06, 1.0495999999999999E-05
DataValue, 0.85000000000000009, 0.05, 3.8590000000000007E-06, 1.095E-12, -3.8446000000000004E-06, 3.8590000000000007E-06, 1.095E-12, 3.8446000000000004E-06, 1.0952E-05
DataValue, 0.875, 0.05, 4.1225000000000008E-06, 1.235E-12, -4.1089000000000006E-06, 4.1225000000000008E-06, 1.235E-12, 4.1089000000000006E-06, 1.0540000000000041E-05
DataValue, 0.9, 0.05, 4.424E-06, 1.2650000000000002E-12, -4.4245000000000006E-06, 4.424E-06, 1.2650000000000002E-12, 4.4245000000000006E-06, 1.2059999999999973E-05
DataValue, 0.925, 0.05, 4.7352000000000008E-06, 1.535E-12, -4.7339000000000005E-06, 4.7352000000000008E-06, 1.535E-12, 4.7339000000000005E-06, 1.2448000000000009E-05
DataValue, 0.95000000000000007, 0.05, 5.0597000000000009E-06, 1.285E-12, -5.0621E-06, 5.0597000000000009E-06, 1.285E-12, 5.0621E-06, 1.2979999999999989E-05
DataValue, 0.97500000000000009, 0.05, 5.3695000000000009E-06, 7.8500000000000009E-13, -5.3645000000000009E-06, 5.3695000000000009E-06, 7.8500000000000009E-13, 5.3645000000000009E-06, 1.2391999999999989E-05
DataValue, 1, 0.05, 5.6779E-06, 9.0500000000000008E-13, -5.6997000000000007E-06, 5.6779E-06, 9.0500000000000008E-13, 5.6997000000000007E-06, 1.2336000000000022E-05
DataValue, 1.0250000000000001, 0.05, 6.0751000000000005E-06, 1.045E-12, -6.0813000000000005E-06, 6.0751000000000005E-06, 1.045E-12, 6.0813000000000005E-06, 1.5887999999999923E-05
DataValue, 1.05, 0.05, 6.4142E-06, 1.475E-12, -6.4232000000000006E-06, 6.4142E-06, 1.475E-12, 6.4232000000000006E-06, 1.3564000000000042E-05
DataValue, 1.075, 0.05, 6.7786000000000006E-06, 1.5550000000000001E-12, -6.7777E-06, 6.7786000000000006E-06, 1.5550000000000001E-12, 6.7777E-06, 1.4576000000000063E-05
