
SetupTitle, IdVg_Vd_par
PrimitiveTest, I/V Sweep
TestParameter, Context.MainFrame, B1500A
TestParameter, Channel.UnitType, SMU, SMU, SMU
TestParameter, Channel.Unit, SMU3:HR, SMU2:HR, SMU1:HR
TestParameter, Channel.IName, Id, Ig, Is
TestParameter, Channel.VName, Vd, Vg, Vs
TestParameter, Channel.Mode, V, V, V
TestParameter, Channel.Func, VAR2, VAR1, CONST
TestParameter, Channel.Index, 
TestParameter, Channel.Time, 
TestParameter, Measurement.Port.Unit, SMU3:HR, SMU2:HR, SMU1:HR
TestParameter, Measurement.Port.SeriesResistor, NONE, NONE, NONE
TestParameter, Measurement.Port.Filter, ON, ON, ON
TestParameter, Measurement.Port.OutputVoltageComparison, 0, 0, 0
TestParameter, Measurement.Primary.Locus, Double
TestParameter, Measurement.Primary.Scale, LINEAR
TestParameter, Measurement.Primary.Start, -1
TestParameter, Measurement.Primary.Stop, 2
TestParameter, Measurement.Primary.Step, 0.025
TestParameter, Measurement.Primary.Compliance, 0.1
TestParameter, Measurement.Primary.PowerCompliance, 0
TestParameter, Measurement.Aborting.Condition, STOP AT ANY ABNORMAL
TestParameter, Measurement.PostOutput.Value, START
TestParameter, Measurement.PostOutput.Retention, OFF
TestParameter, Measurement.Secondary.Start, 0.05
TestParameter, Measurement.Secondary.Count, 2
TestParameter, Measurement.Secondary.Step, 0.95000000000000007
TestParameter, Measurement.Secondary.Compliance, 0.1
TestParameter, Measurement.Secondary.PowerCompliance, 0
TestParameter, Measurement.Bias.Source, 0.05, -1, 0
TestParameter, Measurement.Bias.Compliance, 0.1, 0.1, 0.1
TestParameter, Measurement.Monitor.Unit, SMU3:HR, SMU2:HR, SMU1:HR
TestParameter, Measurement.Monitor.Adc, HR ADC, HR ADC, HR ADC
TestParameter, Measurement.Monitor.Measurement, Compliance Side, Compliance Side, Compliance Side
TestParameter, Measurement.Monitor.RangingMode, LIMITED, LIMITED, LIMITED
TestParameter, Measurement.Monitor.RangeBoundary, 1nA, 1nA, 1nA
TestParameter, Measurement.Monitor.RangeRating, BY FULL RANGE, BY FULL RANGE, BY FULL RANGE
TestParameter, Measurement.Monitor.RangeRatingCoeff, 50, 50, 50
TestParameter, Measurement.Timing.Hold, 0
TestParameter, Measurement.Timing.Delay, 0
TestParameter, Measurement.Adc.HighSpeed.Mode, AUTO
TestParameter, Measurement.Adc.HighSpeed.Coeff, 1
TestParameter, Measurement.Adc.HighResolution.AutoZero, OFF
TestParameter, Measurement.Adc.HighResolution.Mode, AUTO
TestParameter, Measurement.Adc.HighResolution.Coeff, 6
TestParameter, Measurement.WaitTime.Source.Coeff, 1
TestParameter, Measurement.WaitTime.Source.Offset, 0
TestParameter, Measurement.WaitTime.Monitor.Coeff, 1
TestParameter, Measurement.WaitTime.Monitor.Offset, 0
TestParameter, Function.User.Name, absId, absIg, absIs, gm
TestParameter, Function.User.Unit, A, A, A, S
TestParameter, Function.User.Definition, abs(Id), abs(Ig), abs(Is), diff(abs(Id))/diff(Vg)
TestParameter, Output.Graph.Enabled, true
TestParameter, Output.Graph.AutoScaling, false
TestParameter, Output.Graph.XAxis.Data, Vg
TestParameter, Output.Graph.XAxis.Scale, Linear
TestParameter, Output.Graph.XAxis.Left, -1
TestParameter, Output.Graph.XAxis.Right, 2
TestParameter, Output.Graph.XAxis.RunTimeAutoScale, false
TestParameter, Output.Graph.YAxis.Data, absId, gm, absIg, absIs
TestParameter, Output.Graph.YAxis.Scale, Log, Linear, Log, Log
TestParameter, Output.Graph.YAxis.Bottom, 1E-15, 0, 1E-15, 1E-15
TestParameter, Output.Graph.YAxis.Top, 0.001, 1, 0.001, 0.001
TestParameter, Output.Graph.YAxis.Group, , , , 
TestParameter, Output.Graph.YAxis.RunTimeAutoScale, false, true, false, false
TestParameter, Output.List.Data, Vg, Vd, Id, Is, Ig, absId, absIs, absIg, gm
TestParameter, AutoAnalysis.Interpolation, false
TestParameter, AutoAnalysis.Var2StepCount, 1
TestParameter, AutoAnalysis.Var2StepScript, 
TestParameter, AutoAnalysis.Line1.Enabled, false
TestParameter, AutoAnalysis.Line1.Type, 1
TestParameter, AutoAnalysis.Line1.Fix, True
TestParameter, AutoAnalysis.Line1.YAxis, 0
TestParameter, AutoAnalysis.Line1.Point1.Type, 0
TestParameter, AutoAnalysis.Line1.Point1.XY.X, 
TestParameter, AutoAnalysis.Line1.Point1.XY.Y, 
TestParameter, AutoAnalysis.Line1.Point1.Data.Var, 
TestParameter, AutoAnalysis.Line1.Point1.Data.Condition, 
TestParameter, AutoAnalysis.Line1.Point1.Data.Start, false
TestParameter, AutoAnalysis.Line1.Point1.Data.StartVar, 
TestParameter, AutoAnalysis.Line1.Point1.Data.StartCondition, 
TestParameter, AutoAnalysis.Line1.Point2.Type, 0
TestParameter, AutoAnalysis.Line1.Point2.XY.X, 
TestParameter, AutoAnalysis.Line1.Point2.XY.Y, 
TestParameter, AutoAnalysis.Line1.Point2.Data.Var, 
TestParameter, AutoAnalysis.Line1.Point2.Data.Condition, 
TestParameter, AutoAnalysis.Line1.Point2.Data.Start, false
TestParameter, AutoAnalysis.Line1.Point2.Data.StartVar, 
TestParameter, AutoAnalysis.Line1.Point2.Data.StartCondition, 
TestParameter, AutoAnalysis.Line1.GradientExpr, 0
TestParameter, AutoAnalysis.Line2.Enabled, false
TestParameter, AutoAnalysis.Line2.Type, 1
TestParameter, AutoAnalysis.Line2.Fix, True
TestParameter, AutoAnalysis.Line2.YAxis, 0
TestParameter, AutoAnalysis.Line2.Point1.Type, 0
TestParameter, AutoAnalysis.Line2.Point1.XY.X, 
TestParameter, AutoAnalysis.Line2.Point1.XY.Y, 
TestParameter, AutoAnalysis.Line2.Point1.Data.Var, 
TestParameter, AutoAnalysis.Line2.Point1.Data.Condition, 
TestParameter, AutoAnalysis.Line2.Point1.Data.Start, false
TestParameter, AutoAnalysis.Line2.Point1.Data.StartVar, 
TestParameter, AutoAnalysis.Line2.Point1.Data.StartCondition, 
TestParameter, AutoAnalysis.Line2.Point2.Type, 0
TestParameter, AutoAnalysis.Line2.Point2.XY.X, 
TestParameter, AutoAnalysis.Line2.Point2.XY.Y, 
TestParameter, AutoAnalysis.Line2.Point2.Data.Var, 
TestParameter, AutoAnalysis.Line2.Point2.Data.Condition, 
TestParameter, AutoAnalysis.Line2.Point2.Data.Start, false
TestParameter, AutoAnalysis.Line2.Point2.Data.StartVar, 
TestParameter, AutoAnalysis.Line2.Point2.Data.StartCondition, 
TestParameter, AutoAnalysis.Line2.GradientExpr, 0
TestParameter, AutoAnalysis.Marker.Enabled, false
TestParameter, AutoAnalysis.Marker.Data.Var, 
TestParameter, AutoAnalysis.Marker.Data.Condition, 
TestParameter, AutoAnalysis.Marker.Data.Start, false
TestParameter, AutoAnalysis.Marker.Data.StartVar, 
TestParameter, AutoAnalysis.Marker.Data.StartCondition, 
MetaData, TestRecord.EntryPoint, true
MetaData, TestRecord.RecordTime, 06/03/2025 16:07:01
MetaData, TestRecord.TestTarget, R[5]_D[6]_L[200]
MetaData, TestRecord.IterationIndex, 1
MetaData, TestRecord.Preservation, true
MetaData, TestRecord.Flag, !
MetaData, TestRecord.Remarks, 
MetaData, TestRecord.LinkKey, a55ceadb-4da0-48da-8268-5cab6aa9dbba
MetaData, TestRecord.Parameters, 
Dimension1, 242, 242, 242, 242, 242, 242, 242, 242, 242
Dimension2, 2, 2, 2, 2, 2, 2, 2, 2, 2
DataName, Vg, Vd, Id, Ig, Is, absId, absIg, absIs, gm
DataValue, -1, 0.05, 3.6347E-11, 6.55E-13, -2.616E-12, 3.6347E-11, 6.55E-13, 2.616E-12, 
DataValue, -0.97500000000000009, 0.05, -1.8803000000000002E-11, 8.5500000000000009E-13, -2.3760000000000004E-12, 1.8803000000000002E-11, 8.5500000000000009E-13, 2.3760000000000004E-12, -7.0176000000000255E-10
DataValue, -0.95000000000000007, 0.05, -5.3403000000000004E-11, 1.015E-12, -1.7560000000000002E-12, 5.3403000000000004E-11, 1.015E-12, 1.7560000000000002E-12, 1.3839999999999989E-09
DataValue, -0.925, 0.05, -3.4463E-11, 1.425E-12, -8.66E-13, 3.4463E-11, 1.425E-12, 8.66E-13, -7.5759999999999933E-10
DataValue, -0.9, 0.05, 1.9947000000000003E-11, 2.015E-12, -1.7560000000000002E-12, 1.9947000000000003E-11, 2.015E-12, 1.7560000000000002E-12, -5.8063999999999945E-10
DataValue, -0.875, 0.05, 5.3267000000000007E-11, 1.765E-12, -2.5460000000000003E-12, 5.3267000000000007E-11, 1.765E-12, 2.5460000000000003E-12, 1.3327999999999992E-09
DataValue, -0.85000000000000009, 0.05, 3.6637E-11, 1.1350000000000001E-12, -2.566E-12, 3.6637E-11, 1.1350000000000001E-12, 2.566E-12, -6.6520000000000252E-10
DataValue, -0.82500000000000007, 0.05, -1.4043E-11, 7.25E-13, -2.1660000000000003E-12, 1.4043E-11, 7.25E-13, 2.1660000000000003E-12, -9.0375999999999927E-10
DataValue, -0.8, 0.05, -5.2043E-11, 9.15E-13, -1.5160000000000002E-12, 5.2043E-11, 9.15E-13, 1.5160000000000002E-12, 1.5199999999999985E-09
DataValue, -0.775, 0.05, -3.8413000000000006E-11, 1.2150000000000002E-12, -1.186E-12, 3.8413000000000006E-11, 1.2150000000000002E-12, 1.186E-12, -5.4519999999999932E-10
DataValue, -0.75, 0.05, 1.3577000000000002E-11, 1.9650000000000002E-12, -1.326E-12, 1.3577000000000002E-11, 1.9650000000000002E-12, 1.326E-12, -9.9343999999999941E-10
DataValue, -0.72500000000000009, 0.05, 5.1537000000000004E-11, 1.935E-12, -1.7060000000000002E-12, 5.1537000000000004E-11, 1.935E-12, 1.7060000000000002E-12, 1.5184000000000056E-09
DataValue, -0.70000000000000007, 0.05, 3.9537E-11, 1.435E-12, -2.466E-12, 3.9537E-11, 1.435E-12, 2.466E-12, -4.7999999999999969E-10
DataValue, -0.675, 0.05, -1.0303000000000001E-11, 7.95E-13, -2.276E-12, 1.0303000000000001E-11, 7.95E-13, 2.276E-12, -1.169359999999999E-09
DataValue, -0.65, 0.05, -4.9393000000000003E-11, 9.25E-13, -1.6160000000000002E-12, 4.9393000000000003E-11, 9.25E-13, 1.6160000000000002E-12, 1.5635999999999988E-09
DataValue, -0.625, 0.05, -4.1513E-11, 1.5050000000000002E-12, -8.760000000000001E-13, 4.1513E-11, 1.5050000000000002E-12, 8.760000000000001E-13, -3.1519999999999985E-10
DataValue, -0.6, 0.05, 7.0370000000000008E-12, 2.155E-12, -9.5600000000000017E-13, 7.0370000000000008E-12, 2.155E-12, 9.5600000000000017E-13, -1.3790399999999988E-09
DataValue, -0.57500000000000007, 0.05, 4.8007000000000004E-11, 1.7050000000000001E-12, -2.106E-12, 4.8007000000000004E-11, 1.7050000000000001E-12, 2.106E-12, 1.638800000000006E-09
DataValue, -0.55, 0.05, 4.4737000000000005E-11, 1.5850000000000002E-12, -2.556E-12, 4.4737000000000005E-11, 1.5850000000000002E-12, 2.556E-12, -1.3079999999999985E-10
DataValue, -0.525, 0.05, -3.973E-12, 8.65E-13, -2.4960000000000003E-12, 3.973E-12, 8.65E-13, 2.4960000000000003E-12, -1.6305599999999988E-09
DataValue, -0.5, 0.05, -4.6863000000000007E-11, 8.45E-13, -2.086E-12, 4.6863000000000007E-11, 8.45E-13, 2.086E-12, 1.7155999999999987E-09
DataValue, -0.47500000000000003, 0.05, -4.6913E-11, 1.245E-12, -6.16E-13, 4.6913E-11, 1.245E-12, 6.16E-13, 1.9999999999998408E-12
DataValue, -0.45, 0.05, 2.987E-12, 2.105E-12, -1.0560000000000002E-12, 2.987E-12, 2.105E-12, 1.0560000000000002E-12, -1.7570399999999985E-09
DataValue, -0.42500000000000004, 0.05, 4.4947000000000004E-11, 1.7950000000000001E-12, -1.3960000000000001E-12, 4.4947000000000004E-11, 1.7950000000000001E-12, 1.3960000000000001E-12, 1.6784000000000024E-09
DataValue, -0.4, 0.05, 4.8397E-11, 1.155E-12, -2.176E-12, 4.8397E-11, 1.155E-12, 2.176E-12, 1.3799999999999981E-10
DataValue, -0.375, 0.05, 1.757E-12, 8.1500000000000006E-13, -2.516E-12, 1.757E-12, 8.1500000000000006E-13, 2.516E-12, -1.8655999999999982E-09
DataValue, -0.35000000000000003, 0.05, -4.3193E-11, 7.55E-13, -2.076E-12, 4.3193E-11, 7.55E-13, 2.076E-12, 1.6574400000000021E-09
DataValue, -0.325, 0.05, -4.9783E-11, 1.145E-12, -1.3460000000000001E-12, 4.9783E-11, 1.145E-12, 1.3460000000000001E-12, 2.6359999999999974E-10
DataValue, -0.3, 0.05, -4.2130000000000007E-12, 2.0950000000000003E-12, -1.186E-12, 4.2130000000000007E-12, 2.0950000000000003E-12, 1.186E-12, -1.8227999999999985E-09
DataValue, -0.275, 0.05, 4.2337000000000006E-11, 1.7950000000000001E-12, -1.896E-12, 4.2337000000000006E-11, 1.7950000000000001E-12, 1.896E-12, 1.5249600000000022E-09
DataValue, -0.25, 0.05, 5.0477E-11, 1.5150000000000001E-12, -2.4960000000000003E-12, 5.0477E-11, 1.5150000000000001E-12, 2.4960000000000003E-12, 3.2559999999999958E-10
DataValue, -0.225, 0.05, 6.297E-12, 7.8500000000000009E-13, -2.486E-12, 6.297E-12, 7.8500000000000009E-13, 2.486E-12, -1.7672000000000005E-09
DataValue, -0.2, 0.05, -4.1423000000000004E-11, 5.65E-13, -1.6160000000000002E-12, 4.1423000000000004E-11, 5.65E-13, 1.6160000000000002E-12, 1.4050400000000006E-09
DataValue, -0.17500000000000002, 0.05, -5.1153000000000005E-11, 1.285E-12, -1.496E-12, 5.1153000000000005E-11, 1.285E-12, 1.496E-12, 3.8920000000000017E-10
DataValue, -0.15, 0.05, -6.6430000000000007E-12, 1.9150000000000002E-12, -1.166E-12, 6.6430000000000007E-12, 1.9150000000000002E-12, 1.166E-12, -1.7803999999999985E-09
DataValue, -0.125, 0.05, 3.9517E-11, 1.925E-12, -1.946E-12, 3.9517E-11, 1.925E-12, 1.946E-12, 1.3149600000000004E-09
DataValue, -0.1, 0.05, 5.2907E-11, 1.7350000000000002E-12, -2.616E-12, 5.2907E-11, 1.7350000000000002E-12, 2.616E-12, 5.3560000000000009E-10
DataValue, -0.075, 0.05, 1.2487E-11, 8.8500000000000007E-13, -3.676E-12, 1.2487E-11, 8.8500000000000007E-13, 3.676E-12, -1.6167999999999994E-09
DataValue, -0.05, 0.05, -3.4853E-11, 9.75E-13, -4.126E-12, 3.4853E-11, 9.75E-13, 4.126E-12, 8.9464000000000023E-10
DataValue, -0.025, 0.05, -4.8643000000000006E-11, 1.145E-12, -7.0960000000000005E-12, 4.8643000000000006E-11, 1.145E-12, 7.0960000000000005E-12, 5.5160000000000014E-10
DataValue, 0, 0.05, 5.7570000000000006E-12, 1.395E-12, -1.4746000000000002E-11, 5.7570000000000006E-12, 1.395E-12, 1.4746000000000002E-11, -1.71544E-09
DataValue, 0.025, 0.05, 7.4697000000000011E-11, 1.755E-12, -3.6766000000000004E-11, 7.4697000000000011E-11, 1.755E-12, 3.6766000000000004E-11, 2.7576E-09
DataValue, 0.05, 0.05, 1.35607E-10, 1.4050000000000002E-12, -8.7176000000000007E-11, 1.35607E-10, 1.4050000000000002E-12, 8.7176000000000007E-11, 2.4364E-09
DataValue, 0.075, 0.05, 2.0754700000000002E-10, 8.65E-13, -1.98846E-10, 2.0754700000000002E-10, 8.65E-13, 1.98846E-10, 2.8776000000000013E-09
DataValue, 0.1, 0.05, 4.1784700000000004E-10, 1.0750000000000002E-12, -4.4731600000000003E-10, 4.1784700000000004E-10, 1.0750000000000002E-12, 4.4731600000000003E-10, 8.4119999999999978E-09
DataValue, 0.125, 0.05, 9.3343700000000011E-10, 1.285E-12, -9.8706600000000016E-10, 9.3343700000000011E-10, 1.285E-12, 9.8706600000000016E-10, 2.0623600000000008E-08
DataValue, 0.15, 0.05, 2.04827E-09, 1.815E-12, -2.08174E-09, 2.04827E-09, 1.815E-12, 2.08174E-09, 4.4593320000000004E-08
DataValue, 0.17500000000000002, 0.05, 3.98827E-09, 1.385E-12, -4.04574E-09, 3.98827E-09, 1.385E-12, 4.04574E-09, 7.7599999999999927E-08
DataValue, 0.2, 0.05, 7.38357E-09, 2.215E-12, -7.38764E-09, 7.38357E-09, 2.215E-12, 7.38764E-09, 1.3581200000000005E-07
DataValue, 0.225, 0.05, 1.2549599999999998E-08, 1.3050000000000002E-12, -1.2415599999999998E-08, 1.2549599999999998E-08, 1.3050000000000002E-12, 1.2415599999999998E-08, 2.0664119999999996E-07
DataValue, 0.25, 0.05, 1.9710399999999998E-08, 1.2250000000000001E-12, -1.97778E-08, 1.9710399999999998E-08, 1.2250000000000001E-12, 1.97778E-08, 2.8643200000000006E-07
DataValue, 0.275, 0.05, 3.00714E-08, 1.615E-12, -2.99512E-08, 3.00714E-08, 1.615E-12, 2.99512E-08, 4.1443999999999973E-07
DataValue, 0.3, 0.05, 4.3616999999999993E-08, 1.345E-12, -4.37516E-08, 4.3616999999999993E-08, 1.345E-12, 4.37516E-08, 5.4182400000000039E-07
DataValue, 0.325, 0.05, 6.05184E-08, 1.4550000000000002E-12, -6.033E-08, 6.05184E-08, 1.4550000000000002E-12, 6.033E-08, 6.760559999999995E-07
DataValue, 0.35000000000000003, 0.05, 8.11236E-08, 1.5450000000000002E-12, -8.160539999999999E-08, 8.11236E-08, 1.5450000000000002E-12, 8.160539999999999E-08, 8.2420799999999936E-07
DataValue, 0.375, 0.05, 1.0577019999999998E-07, 8.65E-13, -1.0591519999999999E-07, 1.0577019999999998E-07, 8.65E-13, 1.0591519999999999E-07, 9.8586400000000087E-07
DataValue, 0.4, 0.05, 1.3656E-07, 1.815E-12, -1.3516E-07, 1.3656E-07, 1.815E-12, 1.3516E-07, 1.2315919999999996E-06
DataValue, 0.42500000000000004, 0.05, 1.7014E-07, 1.8950000000000003E-12, -1.7078E-07, 1.7014E-07, 1.8950000000000003E-12, 1.7078E-07, 1.3431999999999982E-06
DataValue, 0.45, 0.05, 2.0984E-07, 1.6050000000000001E-12, -2.0942E-07, 2.0984E-07, 1.6050000000000001E-12, 2.0942E-07, 1.5880000000000028E-06
DataValue, 0.47500000000000003, 0.05, 2.528E-07, 1.905E-12, -2.5402E-07, 2.528E-07, 1.905E-12, 2.5402E-07, 1.7183999999999978E-06
DataValue, 0.5, 0.05, 2.9954E-07, 2.0750000000000003E-12, -2.9968E-07, 2.9954E-07, 2.0750000000000003E-12, 2.9968E-07, 1.8696000000000028E-06
DataValue, 0.525, 0.05, 3.5362E-07, 2.135E-12, -3.5483999999999997E-07, 3.5362E-07, 2.135E-12, 3.5483999999999997E-07, 2.1631999999999986E-06
DataValue, 0.55, 0.05, 4.1258E-07, 2.1750000000000003E-12, -4.124E-07, 4.1258E-07, 2.1750000000000003E-12, 4.124E-07, 2.3583999999999976E-06
DataValue, 0.57500000000000007, 0.05, 4.755E-07, 1.8650000000000002E-12, -4.7416E-07, 4.755E-07, 1.8650000000000002E-12, 4.7416E-07, 2.5167999999999972E-06
DataValue, 0.6, 0.05, 5.4346E-07, 1.8650000000000002E-12, -5.4342E-07, 5.4346E-07, 1.8650000000000002E-12, 5.4342E-07, 2.7184000000000111E-06
DataValue, 0.625, 0.05, 6.1672E-07, 1.885E-12, -6.2018E-07, 6.1672E-07, 1.885E-12, 6.2018E-07, 2.9303999999999957E-06
DataValue, 0.65, 0.05, 6.974E-07, 1.755E-12, -6.9912E-07, 6.974E-07, 1.755E-12, 6.9912E-07, 3.2271999999999972E-06
DataValue, 0.675, 0.05, 7.8422E-07, 1.6050000000000001E-12, -7.8372E-07, 7.8422E-07, 1.6050000000000001E-12, 7.8372E-07, 3.4727999999999962E-06
DataValue, 0.70000000000000007, 0.05, 8.7394E-07, 1.435E-12, -8.739E-07, 8.7394E-07, 1.435E-12, 8.739E-07, 3.588799999999996E-06
DataValue, 0.72500000000000009, 0.05, 9.6736E-07, 1.1750000000000001E-12, -9.6998E-07, 9.6736E-07, 1.1750000000000001E-12, 9.6998E-07, 3.7367999999999987E-06
DataValue, 0.75, 0.05, 1.06654E-06, 1.375E-12, -1.06832E-06, 1.06654E-06, 1.375E-12, 1.06832E-06, 3.9672000000000109E-06
DataValue, 0.775, 0.05, 1.1739E-06, 1.2750000000000001E-12, -1.1792E-06, 1.1739E-06, 1.2750000000000001E-12, 1.1792E-06, 4.2944000000000033E-06
DataValue, 0.8, 0.05, 1.2930000000000002E-06, 9.3500000000000016E-13, -1.2903000000000002E-06, 1.2930000000000002E-06, 9.3500000000000016E-13, 1.2903000000000002E-06, 4.7639999999999979E-06
DataValue, 0.82500000000000007, 0.05, 1.4110000000000001E-06, 4.8500000000000005E-13, -1.4078E-06, 1.4110000000000001E-06, 4.8500000000000005E-13, 1.4078E-06, 4.7199999999999946E-06
DataValue, 0.85000000000000009, 0.05, 1.523E-06, 6.15E-13, -1.5281000000000002E-06, 1.523E-06, 6.15E-13, 1.5281000000000002E-06, 4.4799999999999935E-06
DataValue, 0.875, 0.05, 1.6636000000000003E-06, 1.115E-12, -1.6602000000000002E-06, 1.6636000000000003E-06, 1.115E-12, 1.6602000000000002E-06, 5.6240000000000278E-06
DataValue, 0.9, 0.05, 1.7988000000000003E-06, 1.4650000000000001E-12, -1.7941000000000001E-06, 1.7988000000000003E-06, 1.4650000000000001E-12, 1.7941000000000001E-06, 5.4079999999999946E-06
DataValue, 0.925, 0.05, 1.939E-06, 1.8450000000000003E-12, -1.9357000000000004E-06, 1.939E-06, 1.8450000000000003E-12, 1.9357000000000004E-06, 5.6079999999999843E-06
DataValue, 0.95000000000000007, 0.05, 2.0922E-06, 2.155E-12, -2.093E-06, 2.0922E-06, 2.155E-12, 2.093E-06, 6.1279999999999979E-06
DataValue, 0.97500000000000009, 0.05, 2.2424000000000003E-06, 2.155E-12, -2.2401000000000004E-06, 2.2424000000000003E-06, 2.155E-12, 2.2401000000000004E-06, 6.0080000000000058E-06
DataValue, 1, 0.05, 2.3993E-06, 1.825E-12, -2.4026E-06, 2.3993E-06, 1.825E-12, 2.4026E-06, 6.2760000000000107E-06
DataValue, 1.0250000000000001, 0.05, 2.5741E-06, 1.3550000000000002E-12, -2.5788E-06, 2.5741E-06, 1.3550000000000002E-12, 2.5788E-06, 6.9919999999999629E-06
DataValue, 1.05, 0.05, 2.7434000000000003E-06, 1.245E-12, -2.7464E-06, 2.7434000000000003E-06, 1.245E-12, 2.7464E-06, 6.7720000000000327E-06
DataValue, 1.075, 0.05, 2.9203000000000002E-06, 7.6500000000000007E-13, -2.9193E-06, 2.9203000000000002E-06, 7.6500000000000007E-13, 2.9193E-06, 7.0760000000000234E-06
DataValue, 1.1, 0.05, 3.1062000000000004E-06, 6.55E-13, -3.1026E-06, 3.1062000000000004E-06, 6.55E-13, 3.1026E-06, 7.4359999999999683E-06
