
SetupTitle, IdVg_Vd_par
PrimitiveTest, I/V Sweep
TestParameter, Context.MainFrame, B1500A
TestParameter, Channel.UnitType, SMU, SMU, SMU
TestParameter, Channel.Unit, SMU3:HR, SMU2:HR, SMU1:HR
TestParameter, Channel.IName, Id, Ig, Is
TestParameter, Channel.VName, Vd, Vg, Vs
TestParameter, Channel.Mode, V, V, V
TestParameter, Channel.Func, VAR2, VAR1, CONST
TestParameter, Channel.Index, 
TestParameter, Channel.Time, 
TestParameter, Measurement.Port.Unit, SMU3:HR, SMU2:HR, SMU1:HR
TestParameter, Measurement.Port.SeriesResistor, NONE, NONE, NONE
TestParameter, Measurement.Port.Filter, ON, ON, ON
TestParameter, Measurement.Port.OutputVoltageComparison, 0, 0, 0
TestParameter, Measurement.Primary.Locus, Double
TestParameter, Measurement.Primary.Scale, LINEAR
TestParameter, Measurement.Primary.Start, -1
TestParameter, Measurement.Primary.Stop, 2
TestParameter, Measurement.Primary.Step, 0.025
TestParameter, Measurement.Primary.Compliance, 0.1
TestParameter, Measurement.Primary.PowerCompliance, 0
TestParameter, Measurement.Aborting.Condition, STOP AT ANY ABNORMAL
TestParameter, Measurement.PostOutput.Value, START
TestParameter, Measurement.PostOutput.Retention, OFF
TestParameter, Measurement.Secondary.Start, 0.05
TestParameter, Measurement.Secondary.Count, 2
TestParameter, Measurement.Secondary.Step, 0.95000000000000007
TestParameter, Measurement.Secondary.Compliance, 0.1
TestParameter, Measurement.Secondary.PowerCompliance, 0
TestParameter, Measurement.Bias.Source, 0.05, -1, 0
TestParameter, Measurement.Bias.Compliance, 0.1, 0.1, 0.1
TestParameter, Measurement.Monitor.Unit, SMU3:HR, SMU2:HR, SMU1:HR
TestParameter, Measurement.Monitor.Adc, HR ADC, HR ADC, HR ADC
TestParameter, Measurement.Monitor.Measurement, Compliance Side, Compliance Side, Compliance Side
TestParameter, Measurement.Monitor.RangingMode, LIMITED, LIMITED, LIMITED
TestParameter, Measurement.Monitor.RangeBoundary, 1nA, 1nA, 1nA
TestParameter, Measurement.Monitor.RangeRating, BY FULL RANGE, BY FULL RANGE, BY FULL RANGE
TestParameter, Measurement.Monitor.RangeRatingCoeff, 50, 50, 50
TestParameter, Measurement.Timing.Hold, 0
TestParameter, Measurement.Timing.Delay, 0
TestParameter, Measurement.Adc.HighSpeed.Mode, AUTO
TestParameter, Measurement.Adc.HighSpeed.Coeff, 1
TestParameter, Measurement.Adc.HighResolution.AutoZero, OFF
TestParameter, Measurement.Adc.HighResolution.Mode, AUTO
TestParameter, Measurement.Adc.HighResolution.Coeff, 6
TestParameter, Measurement.WaitTime.Source.Coeff, 1
TestParameter, Measurement.WaitTime.Source.Offset, 0
TestParameter, Measurement.WaitTime.Monitor.Coeff, 1
TestParameter, Measurement.WaitTime.Monitor.Offset, 0
TestParameter, Function.User.Name, absId, absIg, absIs, gm
TestParameter, Function.User.Unit, A, A, A, S
TestParameter, Function.User.Definition, abs(Id), abs(Ig), abs(Is), diff(abs(Id))/diff(Vg)
TestParameter, Output.Graph.Enabled, true
TestParameter, Output.Graph.AutoScaling, false
TestParameter, Output.Graph.XAxis.Data, Vg
TestParameter, Output.Graph.XAxis.Scale, Linear
TestParameter, Output.Graph.XAxis.Left, -1
TestParameter, Output.Graph.XAxis.Right, 2
TestParameter, Output.Graph.XAxis.RunTimeAutoScale, false
TestParameter, Output.Graph.YAxis.Data, absId, gm, absIg, absIs
TestParameter, Output.Graph.YAxis.Scale, Log, Linear, Log, Log
TestParameter, Output.Graph.YAxis.Bottom, 1E-15, 0, 1E-15, 1E-15
TestParameter, Output.Graph.YAxis.Top, 0.001, 1, 0.001, 0.001
TestParameter, Output.Graph.YAxis.Group, , , , 
TestParameter, Output.Graph.YAxis.RunTimeAutoScale, false, true, false, false
TestParameter, Output.List.Data, Vg, Vd, Id, Is, Ig, absId, absIs, absIg, gm
TestParameter, AutoAnalysis.Interpolation, false
TestParameter, AutoAnalysis.Var2StepCount, 1
TestParameter, AutoAnalysis.Var2StepScript, 
TestParameter, AutoAnalysis.Line1.Enabled, false
TestParameter, AutoAnalysis.Line1.Type, 1
TestParameter, AutoAnalysis.Line1.Fix, True
TestParameter, AutoAnalysis.Line1.YAxis, 0
TestParameter, AutoAnalysis.Line1.Point1.Type, 0
TestParameter, AutoAnalysis.Line1.Point1.XY.X, 
TestParameter, AutoAnalysis.Line1.Point1.XY.Y, 
TestParameter, AutoAnalysis.Line1.Point1.Data.Var, 
TestParameter, AutoAnalysis.Line1.Point1.Data.Condition, 
TestParameter, AutoAnalysis.Line1.Point1.Data.Start, false
TestParameter, AutoAnalysis.Line1.Point1.Data.StartVar, 
TestParameter, AutoAnalysis.Line1.Point1.Data.StartCondition, 
TestParameter, AutoAnalysis.Line1.Point2.Type, 0
TestParameter, AutoAnalysis.Line1.Point2.XY.X, 
TestParameter, AutoAnalysis.Line1.Point2.XY.Y, 
TestParameter, AutoAnalysis.Line1.Point2.Data.Var, 
TestParameter, AutoAnalysis.Line1.Point2.Data.Condition, 
TestParameter, AutoAnalysis.Line1.Point2.Data.Start, false
TestParameter, AutoAnalysis.Line1.Point2.Data.StartVar, 
TestParameter, AutoAnalysis.Line1.Point2.Data.StartCondition, 
TestParameter, AutoAnalysis.Line1.GradientExpr, 0
TestParameter, AutoAnalysis.Line2.Enabled, false
TestParameter, AutoAnalysis.Line2.Type, 1
TestParameter, AutoAnalysis.Line2.Fix, True
TestParameter, AutoAnalysis.Line2.YAxis, 0
TestParameter, AutoAnalysis.Line2.Point1.Type, 0
TestParameter, AutoAnalysis.Line2.Point1.XY.X, 
TestParameter, AutoAnalysis.Line2.Point1.XY.Y, 
TestParameter, AutoAnalysis.Line2.Point1.Data.Var, 
TestParameter, AutoAnalysis.Line2.Point1.Data.Condition, 
TestParameter, AutoAnalysis.Line2.Point1.Data.Start, false
TestParameter, AutoAnalysis.Line2.Point1.Data.StartVar, 
TestParameter, AutoAnalysis.Line2.Point1.Data.StartCondition, 
TestParameter, AutoAnalysis.Line2.Point2.Type, 0
TestParameter, AutoAnalysis.Line2.Point2.XY.X, 
TestParameter, AutoAnalysis.Line2.Point2.XY.Y, 
TestParameter, AutoAnalysis.Line2.Point2.Data.Var, 
TestParameter, AutoAnalysis.Line2.Point2.Data.Condition, 
TestParameter, AutoAnalysis.Line2.Point2.Data.Start, false
TestParameter, AutoAnalysis.Line2.Point2.Data.StartVar, 
TestParameter, AutoAnalysis.Line2.Point2.Data.StartCondition, 
TestParameter, AutoAnalysis.Line2.GradientExpr, 0
TestParameter, AutoAnalysis.Marker.Enabled, false
TestParameter, AutoAnalysis.Marker.Data.Var, 
TestParameter, AutoAnalysis.Marker.Data.Condition, 
TestParameter, AutoAnalysis.Marker.Data.Start, false
TestParameter, AutoAnalysis.Marker.Data.StartVar, 
TestParameter, AutoAnalysis.Marker.Data.StartCondition, 
MetaData, TestRecord.EntryPoint, true
MetaData, TestRecord.RecordTime, 06/03/2025 14:23:36
MetaData, TestRecord.TestTarget, R[6]_D[6]_L[60]
MetaData, TestRecord.IterationIndex, 2
MetaData, TestRecord.Preservation, true
MetaData, TestRecord.Flag, !
MetaData, TestRecord.Remarks, 
MetaData, TestRecord.LinkKey, d8d3d13b-8e2f-4e7a-a7b5-50bcca22f418
MetaData, TestRecord.Parameters, 
Dimension1, 242, 242, 242, 242, 242, 242, 242, 242, 242
Dimension2, 2, 2, 2, 2, 2, 2, 2, 2, 2
DataName, Vg, Vd, Id, Ig, Is, absId, absIg, absIs, gm
DataValue, -1, 0.05, -2.93E-13, 2.135E-12, -1.556E-12, 2.93E-13, 2.135E-12, 1.556E-12, 
DataValue, -0.97500000000000009, 0.05, 1.57E-13, 1.6850000000000002E-12, -1.7160000000000002E-12, 1.57E-13, 1.6850000000000002E-12, 1.7160000000000002E-12, -5.44000000000002E-12
DataValue, -0.95000000000000007, 0.05, 3.17E-13, 2.015E-12, -1.6660000000000002E-12, 3.17E-13, 2.015E-12, 1.6660000000000002E-12, 6.3999999999999945E-12
DataValue, -0.925, 0.05, 1.77E-13, 2.2250000000000003E-12, -1.3960000000000001E-12, 1.77E-13, 2.2250000000000003E-12, 1.3960000000000001E-12, -5.5999999999999955E-12
DataValue, -0.9, 0.05, 2.7000000000000002E-14, 2.1250000000000003E-12, -1.6160000000000002E-12, 2.7000000000000002E-14, 2.1250000000000003E-12, 1.6160000000000002E-12, -5.9999999999999946E-12
DataValue, -0.875, 0.05, -3.0000000000000002E-15, 2.0450000000000003E-12, -1.856E-12, 3.0000000000000002E-15, 2.0450000000000003E-12, 1.856E-12, -9.5999999999999914E-13
DataValue, -0.85000000000000009, 0.05, -4.33E-13, 2.065E-12, -1.7260000000000001E-12, 4.33E-13, 2.065E-12, 1.7260000000000001E-12, 1.7200000000000064E-11
DataValue, -0.82500000000000007, 0.05, 7E-15, 2.0250000000000004E-12, -1.856E-12, 7E-15, 2.0250000000000004E-12, 1.856E-12, -1.7039999999999984E-11
DataValue, -0.8, 0.05, 1.2700000000000001E-13, 1.9950000000000003E-12, -1.906E-12, 1.2700000000000001E-13, 1.9950000000000003E-12, 1.906E-12, 4.7999999999999965E-12
DataValue, -0.775, 0.05, 5.700000000000001E-14, 2.065E-12, -1.906E-12, 5.700000000000001E-14, 2.065E-12, 1.906E-12, -2.7999999999999978E-12
DataValue, -0.75, 0.05, -3.0000000000000002E-15, 1.7850000000000002E-12, -1.7660000000000002E-12, 3.0000000000000002E-15, 1.7850000000000002E-12, 1.7660000000000002E-12, -2.1599999999999985E-12
DataValue, -0.72500000000000009, 0.05, -5.23E-13, 2.085E-12, -1.5160000000000002E-12, 5.23E-13, 2.085E-12, 1.5160000000000002E-12, 2.0800000000000073E-11
DataValue, -0.70000000000000007, 0.05, -2.23E-13, 2.135E-12, -1.4760000000000002E-12, 2.23E-13, 2.135E-12, 1.4760000000000002E-12, -1.1999999999999989E-11
DataValue, -0.675, 0.05, 1.2700000000000001E-13, 1.925E-12, -1.596E-12, 1.2700000000000001E-13, 1.925E-12, 1.596E-12, -3.8399999999999966E-12
DataValue, -0.65, 0.05, 3.4700000000000004E-13, 2.565E-12, -1.506E-12, 3.4700000000000004E-13, 2.565E-12, 1.506E-12, 8.7999999999999932E-12
DataValue, -0.625, 0.05, 5.700000000000001E-14, 2.2750000000000003E-12, -1.5160000000000002E-12, 5.700000000000001E-14, 2.2750000000000003E-12, 1.5160000000000002E-12, -1.1599999999999991E-11
DataValue, -0.6, 0.05, 6.7E-14, 2.4050000000000004E-12, -1.976E-12, 6.7E-14, 2.4050000000000004E-12, 1.976E-12, 3.9999999999999946E-13
DataValue, -0.57500000000000007, 0.05, -3.53E-13, 1.8450000000000003E-12, -1.596E-12, 3.53E-13, 1.8450000000000003E-12, 1.596E-12, 1.144000000000004E-11
DataValue, -0.55, 0.05, -5.5300000000000007E-13, 2.015E-12, -1.856E-12, 5.5300000000000007E-13, 2.015E-12, 1.856E-12, 7.999999999999995E-12
DataValue, -0.525, 0.05, 1.47E-13, 2.395E-12, -1.3860000000000002E-12, 1.47E-13, 2.395E-12, 1.3860000000000002E-12, -1.6239999999999991E-11
DataValue, -0.5, 0.05, 1.9700000000000002E-13, 2.105E-12, -1.646E-12, 1.9700000000000002E-13, 2.105E-12, 1.646E-12, 1.9999999999999987E-12
DataValue, -0.47500000000000003, 0.05, -1.03E-13, 2.185E-12, -1.496E-12, 1.03E-13, 2.185E-12, 1.496E-12, -3.7600000000000058E-12
DataValue, -0.45, 0.05, 7E-15, 2.1450000000000003E-12, -1.646E-12, 7E-15, 2.1450000000000003E-12, 1.646E-12, -3.8399999999999966E-12
DataValue, -0.42500000000000004, 0.05, 9.7E-14, 2.185E-12, -1.926E-12, 9.7E-14, 2.185E-12, 1.926E-12, 3.6000000000000053E-12
DataValue, -0.4, 0.05, -1.93E-13, 2.335E-12, -1.456E-12, 1.93E-13, 2.335E-12, 1.456E-12, 3.8399999999999966E-12
DataValue, -0.375, 0.05, 1.87E-13, 1.855E-12, -1.4860000000000001E-12, 1.87E-13, 1.855E-12, 1.4860000000000001E-12, -2.3999999999999979E-13
DataValue, -0.35000000000000003, 0.05, 2.8700000000000004E-13, 2.265E-12, -1.276E-12, 2.8700000000000004E-13, 2.265E-12, 1.276E-12, 4.0000000000000064E-12
DataValue, -0.325, 0.05, 2.67E-13, 2.395E-12, -1.686E-12, 2.67E-13, 2.395E-12, 1.686E-12, -7.9999999999999992E-13
DataValue, -0.3, 0.05, 1.6700000000000002E-13, 1.9150000000000002E-12, -1.636E-12, 1.6700000000000002E-13, 1.9150000000000002E-12, 1.636E-12, -3.9999999999999967E-12
DataValue, -0.275, 0.05, 3.97E-13, 2.1750000000000003E-12, -2.5760000000000003E-12, 3.97E-13, 2.1750000000000003E-12, 2.5760000000000003E-12, 9.2000000000000141E-12
DataValue, -0.25, 0.05, 1.707E-12, 2.035E-12, -3.0260000000000002E-12, 1.707E-12, 2.035E-12, 3.0260000000000002E-12, 5.2399999999999956E-11
DataValue, -0.225, 0.05, 3.0470000000000002E-12, 2.105E-12, -4.736E-12, 3.0470000000000002E-12, 2.105E-12, 4.736E-12, 5.360000000000002E-11
DataValue, -0.2, 0.05, 6.4070000000000005E-12, 2.2950000000000002E-12, -8.3160000000000013E-12, 6.4070000000000005E-12, 2.2950000000000002E-12, 8.3160000000000013E-12, 1.3440000000000005E-10
DataValue, -0.17500000000000002, 0.05, 1.1767E-11, 2.215E-12, -1.3246E-11, 1.1767E-11, 2.215E-12, 1.3246E-11, 2.1440000000000003E-10
DataValue, -0.15, 0.05, 2.5717000000000003E-11, 2.1450000000000003E-12, -2.7076000000000003E-11, 2.5717000000000003E-11, 2.1450000000000003E-12, 2.7076000000000003E-11, 5.5799999999999962E-10
DataValue, -0.125, 0.05, 5.4177000000000007E-11, 2.5250000000000002E-12, -5.6626000000000007E-11, 5.4177000000000007E-11, 2.5250000000000002E-12, 5.6626000000000007E-11, 1.1384000000000003E-09
DataValue, -0.1, 0.05, 1.25587E-10, 1.815E-12, -1.30686E-10, 1.25587E-10, 1.815E-12, 1.30686E-10, 2.8564E-09
DataValue, -0.075, 0.05, 2.49687E-10, 2.0950000000000003E-12, -2.4890600000000004E-10, 2.49687E-10, 2.0950000000000003E-12, 2.4890600000000004E-10, 4.963999999999999E-09
DataValue, -0.05, 0.05, 5.05387E-10, 1.9150000000000002E-12, -5.04956E-10, 5.05387E-10, 1.9150000000000002E-12, 5.04956E-10, 1.0228000000000002E-08
DataValue, -0.025, 0.05, 9.8603700000000012E-10, 2.015E-12, -9.90186E-10, 9.8603700000000012E-10, 2.015E-12, 9.90186E-10, 1.9226000000000003E-08
DataValue, 0, 0.05, 1.87787E-09, 2.3550000000000004E-12, -1.86774E-09, 1.87787E-09, 2.3550000000000004E-12, 1.86774E-09, 3.5673319999999987E-08
DataValue, 0.025, 0.05, 3.50867E-09, 1.8950000000000003E-12, -3.41534E-09, 3.50867E-09, 1.8950000000000003E-12, 3.41534E-09, 6.5232E-08
DataValue, 0.05, 0.05, 6.04757E-09, 2.005E-12, -6.0071399999999996E-09, 6.04757E-09, 2.005E-12, 6.0071399999999996E-09, 1.01556E-07
DataValue, 0.075, 0.05, 1.007347E-08, 1.855E-12, -1.032064E-08, 1.007347E-08, 1.855E-12, 1.032064E-08, 1.6103600000000001E-07
DataValue, 0.1, 0.05, 1.71458E-08, 1.935E-12, -1.6783399999999997E-08, 1.71458E-08, 1.935E-12, 1.6783399999999997E-08, 2.8289319999999987E-07
DataValue, 0.125, 0.05, 2.7398399999999997E-08, 1.7850000000000002E-12, -2.72424E-08, 2.7398399999999997E-08, 1.7850000000000002E-12, 2.72424E-08, 4.10104E-07
DataValue, 0.15, 0.05, 4.2460399999999993E-08, 2.0250000000000004E-12, -4.2641E-08, 4.2460399999999993E-08, 2.0250000000000004E-12, 4.2641E-08, 6.0248E-07
DataValue, 0.17500000000000002, 0.05, 6.420239999999999E-08, 1.9650000000000002E-12, -6.48404E-08, 6.420239999999999E-08, 1.9650000000000002E-12, 6.48404E-08, 8.6967999999999914E-07
DataValue, 0.2, 0.05, 9.4198E-08, 2.0450000000000003E-12, -9.4693599999999992E-08, 9.4198E-08, 2.0450000000000003E-12, 9.4693599999999992E-08, 1.1998240000000004E-06
DataValue, 0.225, 0.05, 1.3306E-07, 2.415E-12, -1.3354E-07, 1.3306E-07, 2.415E-12, 1.3354E-07, 1.5544800000000006E-06
DataValue, 0.25, 0.05, 1.8042E-07, 2.115E-12, -1.8142E-07, 1.8042E-07, 2.115E-12, 1.8142E-07, 1.8944000000000002E-06
DataValue, 0.275, 0.05, 2.4204E-07, 2.2450000000000002E-12, -2.3896E-07, 2.4204E-07, 2.2450000000000002E-12, 2.3896E-07, 2.4647999999999984E-06
DataValue, 0.3, 0.05, 3.1508E-07, 2.285E-12, -3.0922E-07, 3.1508E-07, 2.285E-12, 3.0922E-07, 2.9216000000000027E-06
DataValue, 0.325, 0.05, 4.0026E-07, 2.165E-12, -3.9804E-07, 4.0026E-07, 2.165E-12, 3.9804E-07, 3.4071999999999981E-06
DataValue, 0.35000000000000003, 0.05, 4.975E-07, 1.985E-12, -4.9864E-07, 4.975E-07, 1.985E-12, 4.9864E-07, 3.8895999999999958E-06
DataValue, 0.375, 0.05, 6.0812E-07, 1.9950000000000003E-12, -6.1132E-07, 6.0812E-07, 1.9950000000000003E-12, 6.1132E-07, 4.4248000000000046E-06
DataValue, 0.4, 0.05, 7.2828E-07, 2.1750000000000003E-12, -7.3018E-07, 7.2828E-07, 2.1750000000000003E-12, 7.3018E-07, 4.8063999999999952E-06
DataValue, 0.42500000000000004, 0.05, 8.7932E-07, 2.055E-12, -8.7904E-07, 8.7932E-07, 2.055E-12, 8.7904E-07, 6.0415999999999973E-06
DataValue, 0.45, 0.05, 1.0203E-06, 2.0450000000000003E-12, -1.0248599999999999E-06, 1.0203E-06, 2.0450000000000003E-12, 1.0248599999999999E-06, 5.6392000000000069E-06
DataValue, 0.47500000000000003, 0.05, 1.1905E-06, 2.3450000000000002E-12, -1.1890000000000002E-06, 1.1905E-06, 2.3450000000000002E-12, 1.1890000000000002E-06, 6.8079999999999973E-06
DataValue, 0.5, 0.05, 1.357E-06, 1.8950000000000003E-12, -1.3452E-06, 1.357E-06, 1.8950000000000003E-12, 1.3452E-06, 6.6600000000000091E-06
DataValue, 0.525, 0.05, 1.5666000000000002E-06, 1.825E-12, -1.5522000000000002E-06, 1.5666000000000002E-06, 1.825E-12, 1.5522000000000002E-06, 8.3839999999999963E-06
DataValue, 0.55, 0.05, 1.7882E-06, 2.135E-12, -1.7780000000000002E-06, 1.7882E-06, 2.135E-12, 1.7780000000000002E-06, 8.8639999999999883E-06
DataValue, 0.57500000000000007, 0.05, 2.0206E-06, 1.975E-12, -2.0193000000000003E-06, 2.0206E-06, 1.975E-12, 2.0193000000000003E-06, 9.2959999999999954E-06
DataValue, 0.6, 0.05, 2.2643E-06, 2.315E-12, -2.2585E-06, 2.2643E-06, 2.315E-12, 2.2585E-06, 9.74800000000003E-06
DataValue, 0.625, 0.05, 2.5317000000000003E-06, 2.3050000000000004E-12, -2.5197E-06, 2.5317000000000003E-06, 2.3050000000000004E-12, 2.5197E-06, 1.0695999999999997E-05
DataValue, 0.65, 0.05, 2.8240000000000004E-06, 2.085E-12, -2.8340000000000003E-06, 2.8240000000000004E-06, 2.085E-12, 2.8340000000000003E-06, 1.1691999999999996E-05
DataValue, 0.675, 0.05, 3.0933000000000005E-06, 2.105E-12, -3.0993E-06, 3.0933000000000005E-06, 2.105E-12, 3.0993E-06, 1.0771999999999994E-05
DataValue, 0.70000000000000007, 0.05, 3.3915000000000005E-06, 2.255E-12, -3.3946000000000005E-06, 3.3915000000000005E-06, 2.255E-12, 3.3946000000000005E-06, 1.1927999999999988E-05
DataValue, 0.72500000000000009, 0.05, 3.6937000000000003E-06, 2.005E-12, -3.7132000000000003E-06, 3.6937000000000003E-06, 2.005E-12, 3.7132000000000003E-06, 1.2087999999999983E-05
DataValue, 0.75, 0.05, 4.0651E-06, 2.205E-12, -4.0307E-06, 4.0651E-06, 2.205E-12, 4.0307E-06, 1.4856000000000051E-05
DataValue, 0.775, 0.05, 4.3929000000000008E-06, 2.165E-12, -4.4212E-06, 4.3929000000000008E-06, 2.165E-12, 4.4212E-06, 1.3112000000000008E-05
DataValue, 0.8, 0.05, 4.7443000000000005E-06, 2.115E-12, -4.7512E-06, 4.7443000000000005E-06, 2.115E-12, 4.7512E-06, 1.4055999999999977E-05
DataValue, 0.82500000000000007, 0.05, 5.1203000000000008E-06, 2.155E-12, -5.1018000000000009E-06, 5.1203000000000008E-06, 2.155E-12, 5.1018000000000009E-06, 1.5039999999999998E-05
DataValue, 0.85000000000000009, 0.05, 5.5491000000000008E-06, 2.065E-12, -5.5274000000000006E-06, 5.5491000000000008E-06, 2.065E-12, 5.5274000000000006E-06, 1.7151999999999988E-05
DataValue, 0.875, 0.05, 5.9191000000000006E-06, 2.115E-12, -5.8720000000000007E-06, 5.9191000000000006E-06, 2.115E-12, 5.8720000000000007E-06, 1.4800000000000046E-05
DataValue, 0.9, 0.05, 6.3279000000000009E-06, 2.105E-12, -6.3126E-06, 6.3279000000000009E-06, 2.105E-12, 6.3126E-06, 1.6351999999999995E-05
DataValue, 0.925, 0.05, 6.7156000000000006E-06, 2.165E-12, -6.7118000000000007E-06, 6.7156000000000006E-06, 2.165E-12, 6.7118000000000007E-06, 1.5507999999999974E-05
DataValue, 0.95000000000000007, 0.05, 7.1627000000000009E-06, 2.285E-12, -7.200600000000001E-06, 7.1627000000000009E-06, 2.285E-12, 7.200600000000001E-06, 1.7883999999999997E-05
DataValue, 0.97500000000000009, 0.05, 7.6230000000000005E-06, 2.055E-12, -7.6637E-06, 7.6230000000000005E-06, 2.055E-12, 7.6637E-06, 1.8411999999999969E-05
DataValue, 1, 0.05, 8.1215E-06, 1.8450000000000003E-12, -8.1005000000000015E-06, 8.1215E-06, 1.8450000000000003E-12, 8.1005000000000015E-06, 1.9940000000000053E-05
DataValue, 1.0250000000000001, 0.05, 8.615600000000001E-06, 2.1750000000000003E-12, -8.6290000000000016E-06, 8.615600000000001E-06, 2.1750000000000003E-12, 8.6290000000000016E-06, 1.9763999999999931E-05
DataValue, 1.05, 0.05, 9.0544000000000009E-06, 2.115E-12, -9.0352000000000012E-06, 9.0544000000000009E-06, 2.115E-12, 9.0352000000000012E-06, 1.7552000000000058E-05
DataValue, 1.075, 0.05, 9.5123E-06, 2.0450000000000003E-12, -9.5482000000000012E-06, 9.5123E-06, 2.0450000000000003E-12, 9.5482000000000012E-06, 1.8316000000000043E-05
DataValue, 1.1, 0.05, 1.0096900000000002E-05, 2.0750000000000003E-12, -1.00896E-05, 1.0096900000000002E-05, 2.0750000000000003E-12, 1.00896E-05, 2.338399999999992E-05
