
SetupTitle, IdVg_Vd_par
PrimitiveTest, I/V Sweep
TestParameter, Context.MainFrame, B1500A
TestParameter, Channel.UnitType, SMU, SMU, SMU
TestParameter, Channel.Unit, SMU3:HR, SMU2:HR, SMU1:HR
TestParameter, Channel.IName, Id, Ig, Is
TestParameter, Channel.VName, Vd, Vg, Vs
TestParameter, Channel.Mode, V, V, V
TestParameter, Channel.Func, VAR2, VAR1, CONST
TestParameter, Channel.Index, 
TestParameter, Channel.Time, 
TestParameter, Measurement.Port.Unit, SMU3:HR, SMU2:HR, SMU1:HR
TestParameter, Measurement.Port.SeriesResistor, NONE, NONE, NONE
TestParameter, Measurement.Port.Filter, ON, ON, ON
TestParameter, Measurement.Port.OutputVoltageComparison, 0, 0, 0
TestParameter, Measurement.Primary.Locus, Double
TestParameter, Measurement.Primary.Scale, LINEAR
TestParameter, Measurement.Primary.Start, -1
TestParameter, Measurement.Primary.Stop, 2
TestParameter, Measurement.Primary.Step, 0.025
TestParameter, Measurement.Primary.Compliance, 0.1
TestParameter, Measurement.Primary.PowerCompliance, 0
TestParameter, Measurement.Aborting.Condition, STOP AT ANY ABNORMAL
TestParameter, Measurement.PostOutput.Value, START
TestParameter, Measurement.PostOutput.Retention, OFF
TestParameter, Measurement.Secondary.Start, 0.05
TestParameter, Measurement.Secondary.Count, 2
TestParameter, Measurement.Secondary.Step, 0.95000000000000007
TestParameter, Measurement.Secondary.Compliance, 0.1
TestParameter, Measurement.Secondary.PowerCompliance, 0
TestParameter, Measurement.Bias.Source, 0.05, -1, 0
TestParameter, Measurement.Bias.Compliance, 0.1, 0.1, 0.1
TestParameter, Measurement.Monitor.Unit, SMU3:HR, SMU2:HR, SMU1:HR
TestParameter, Measurement.Monitor.Adc, HR ADC, HR ADC, HR ADC
TestParameter, Measurement.Monitor.Measurement, Compliance Side, Compliance Side, Compliance Side
TestParameter, Measurement.Monitor.RangingMode, LIMITED, LIMITED, LIMITED
TestParameter, Measurement.Monitor.RangeBoundary, 1nA, 1nA, 1nA
TestParameter, Measurement.Monitor.RangeRating, BY FULL RANGE, BY FULL RANGE, BY FULL RANGE
TestParameter, Measurement.Monitor.RangeRatingCoeff, 50, 50, 50
TestParameter, Measurement.Timing.Hold, 0
TestParameter, Measurement.Timing.Delay, 0
TestParameter, Measurement.Adc.HighSpeed.Mode, AUTO
TestParameter, Measurement.Adc.HighSpeed.Coeff, 1
TestParameter, Measurement.Adc.HighResolution.AutoZero, OFF
TestParameter, Measurement.Adc.HighResolution.Mode, AUTO
TestParameter, Measurement.Adc.HighResolution.Coeff, 6
TestParameter, Measurement.WaitTime.Source.Coeff, 1
TestParameter, Measurement.WaitTime.Source.Offset, 0
TestParameter, Measurement.WaitTime.Monitor.Coeff, 1
TestParameter, Measurement.WaitTime.Monitor.Offset, 0
TestParameter, Function.User.Name, absId, absIg, absIs, gm
TestParameter, Function.User.Unit, A, A, A, S
TestParameter, Function.User.Definition, abs(Id), abs(Ig), abs(Is), diff(abs(Id))/diff(Vg)
TestParameter, Output.Graph.Enabled, true
TestParameter, Output.Graph.AutoScaling, false
TestParameter, Output.Graph.XAxis.Data, Vg
TestParameter, Output.Graph.XAxis.Scale, Linear
TestParameter, Output.Graph.XAxis.Left, -1
TestParameter, Output.Graph.XAxis.Right, 2
TestParameter, Output.Graph.XAxis.RunTimeAutoScale, false
TestParameter, Output.Graph.YAxis.Data, absId, gm, absIg, absIs
TestParameter, Output.Graph.YAxis.Scale, Log, Linear, Log, Log
TestParameter, Output.Graph.YAxis.Bottom, 1E-15, 0, 1E-15, 1E-15
TestParameter, Output.Graph.YAxis.Top, 0.001, 1, 0.001, 0.001
TestParameter, Output.Graph.YAxis.Group, , , , 
TestParameter, Output.Graph.YAxis.RunTimeAutoScale, false, true, false, false
TestParameter, Output.List.Data, Vg, Vd, Id, Is, Ig, absId, absIs, absIg, gm
TestParameter, AutoAnalysis.Interpolation, false
TestParameter, AutoAnalysis.Var2StepCount, 1
TestParameter, AutoAnalysis.Var2StepScript, 
TestParameter, AutoAnalysis.Line1.Enabled, false
TestParameter, AutoAnalysis.Line1.Type, 1
TestParameter, AutoAnalysis.Line1.Fix, True
TestParameter, AutoAnalysis.Line1.YAxis, 0
TestParameter, AutoAnalysis.Line1.Point1.Type, 0
TestParameter, AutoAnalysis.Line1.Point1.XY.X, 
TestParameter, AutoAnalysis.Line1.Point1.XY.Y, 
TestParameter, AutoAnalysis.Line1.Point1.Data.Var, 
TestParameter, AutoAnalysis.Line1.Point1.Data.Condition, 
TestParameter, AutoAnalysis.Line1.Point1.Data.Start, false
TestParameter, AutoAnalysis.Line1.Point1.Data.StartVar, 
TestParameter, AutoAnalysis.Line1.Point1.Data.StartCondition, 
TestParameter, AutoAnalysis.Line1.Point2.Type, 0
TestParameter, AutoAnalysis.Line1.Point2.XY.X, 
TestParameter, AutoAnalysis.Line1.Point2.XY.Y, 
TestParameter, AutoAnalysis.Line1.Point2.Data.Var, 
TestParameter, AutoAnalysis.Line1.Point2.Data.Condition, 
TestParameter, AutoAnalysis.Line1.Point2.Data.Start, false
TestParameter, AutoAnalysis.Line1.Point2.Data.StartVar, 
TestParameter, AutoAnalysis.Line1.Point2.Data.StartCondition, 
TestParameter, AutoAnalysis.Line1.GradientExpr, 0
TestParameter, AutoAnalysis.Line2.Enabled, false
TestParameter, AutoAnalysis.Line2.Type, 1
TestParameter, AutoAnalysis.Line2.Fix, True
TestParameter, AutoAnalysis.Line2.YAxis, 0
TestParameter, AutoAnalysis.Line2.Point1.Type, 0
TestParameter, AutoAnalysis.Line2.Point1.XY.X, 
TestParameter, AutoAnalysis.Line2.Point1.XY.Y, 
TestParameter, AutoAnalysis.Line2.Point1.Data.Var, 
TestParameter, AutoAnalysis.Line2.Point1.Data.Condition, 
TestParameter, AutoAnalysis.Line2.Point1.Data.Start, false
TestParameter, AutoAnalysis.Line2.Point1.Data.StartVar, 
TestParameter, AutoAnalysis.Line2.Point1.Data.StartCondition, 
TestParameter, AutoAnalysis.Line2.Point2.Type, 0
TestParameter, AutoAnalysis.Line2.Point2.XY.X, 
TestParameter, AutoAnalysis.Line2.Point2.XY.Y, 
TestParameter, AutoAnalysis.Line2.Point2.Data.Var, 
TestParameter, AutoAnalysis.Line2.Point2.Data.Condition, 
TestParameter, AutoAnalysis.Line2.Point2.Data.Start, false
TestParameter, AutoAnalysis.Line2.Point2.Data.StartVar, 
TestParameter, AutoAnalysis.Line2.Point2.Data.StartCondition, 
TestParameter, AutoAnalysis.Line2.GradientExpr, 0
TestParameter, AutoAnalysis.Marker.Enabled, false
TestParameter, AutoAnalysis.Marker.Data.Var, 
TestParameter, AutoAnalysis.Marker.Data.Condition, 
TestParameter, AutoAnalysis.Marker.Data.Start, false
TestParameter, AutoAnalysis.Marker.Data.StartVar, 
TestParameter, AutoAnalysis.Marker.Data.StartCondition, 
MetaData, TestRecord.EntryPoint, true
MetaData, TestRecord.RecordTime, 06/03/2025 16:02:03
MetaData, TestRecord.TestTarget, R[4]_D[6]_L[200]
MetaData, TestRecord.IterationIndex, 2
MetaData, TestRecord.Preservation, true
MetaData, TestRecord.Flag, !
MetaData, TestRecord.Remarks, 
MetaData, TestRecord.LinkKey, 5d380cd2-d572-4e5b-905b-ea7a4d5bf9b3
MetaData, TestRecord.Parameters, 
Dimension1, 242, 242, 242, 242, 242, 242, 242, 242, 242
Dimension2, 2, 2, 2, 2, 2, 2, 2, 2, 2
DataName, Vg, Vd, Id, Ig, Is, absId, absIg, absIs, gm
DataValue, -1, 0.05, 1.5957000000000002E-11, 1.065E-12, -2.176E-12, 1.5957000000000002E-11, 1.065E-12, 2.176E-12, 
DataValue, -0.97500000000000009, 0.05, 1.2157000000000002E-11, 8.7500000000000011E-13, -2.5260000000000003E-12, 1.2157000000000002E-11, 8.7500000000000011E-13, 2.5260000000000003E-12, -1.5200000000000056E-10
DataValue, -0.95000000000000007, 0.05, -3.7333E-11, 7.6500000000000007E-13, -2.106E-12, 3.7333E-11, 7.6500000000000007E-13, 2.106E-12, 1.0070399999999992E-09
DataValue, -0.925, 0.05, -5.2873000000000007E-11, 1.7250000000000002E-12, -1.7760000000000001E-12, 5.2873000000000007E-11, 1.7250000000000002E-12, 1.7760000000000001E-12, 6.2159999999999969E-10
DataValue, -0.9, 0.05, -1.2933E-11, 1.435E-12, -2.2160000000000003E-12, 1.2933E-11, 1.435E-12, 2.2160000000000003E-12, -1.5975999999999989E-09
DataValue, -0.875, 0.05, 3.8107000000000005E-11, 1.7950000000000001E-12, -1.736E-12, 3.8107000000000005E-11, 1.7950000000000001E-12, 1.736E-12, 1.0069599999999992E-09
DataValue, -0.85000000000000009, 0.05, 5.2537000000000007E-11, 1.5550000000000001E-12, -2.4760000000000004E-12, 5.2537000000000007E-11, 1.5550000000000001E-12, 2.4760000000000004E-12, 5.772000000000021E-10
DataValue, -0.82500000000000007, 0.05, 1.2367000000000002E-11, 9.65E-13, -2.4760000000000004E-12, 1.2367000000000002E-11, 9.65E-13, 2.4760000000000004E-12, -1.6067999999999986E-09
DataValue, -0.8, 0.05, -3.7533000000000005E-11, 7.55E-13, -2.406E-12, 3.7533000000000005E-11, 7.55E-13, 2.406E-12, 1.0066399999999993E-09
DataValue, -0.775, 0.05, -5.5223000000000004E-11, 1.115E-12, -1.276E-12, 5.5223000000000004E-11, 1.115E-12, 1.276E-12, 7.0759999999999929E-10
DataValue, -0.75, 0.05, -9.0030000000000011E-12, 1.805E-12, -1.496E-12, 9.0030000000000011E-12, 1.805E-12, 1.496E-12, -1.8487999999999984E-09
DataValue, -0.72500000000000009, 0.05, 3.5097E-11, 2.165E-12, -1.7060000000000002E-12, 3.5097E-11, 2.165E-12, 1.7060000000000002E-12, 1.0437600000000036E-09
DataValue, -0.70000000000000007, 0.05, 5.4217E-11, 1.485E-12, -2.896E-12, 5.4217E-11, 1.485E-12, 2.896E-12, 7.6479999999999936E-10
DataValue, -0.675, 0.05, 1.6167E-11, 1.0350000000000001E-12, -2.786E-12, 1.6167E-11, 1.0350000000000001E-12, 2.786E-12, -1.5219999999999987E-09
DataValue, -0.65, 0.05, -8.3663000000000011E-11, 4.0500000000000004E-13, -2.2960000000000003E-12, 8.3663000000000011E-11, 4.0500000000000004E-13, 2.2960000000000003E-12, 2.6998399999999984E-09
DataValue, -0.625, 0.05, -5.4733E-11, 9.4500000000000011E-13, -1.7960000000000002E-12, 5.4733E-11, 9.4500000000000011E-13, 1.7960000000000002E-12, -1.1571999999999995E-09
DataValue, -0.6, 0.05, -1.5763000000000002E-11, 2.0450000000000003E-12, -6.4600000000000007E-13, 1.5763000000000002E-11, 2.0450000000000003E-12, 6.4600000000000007E-13, -1.5587999999999984E-09
DataValue, -0.57500000000000007, 0.05, 3.6437000000000006E-11, 2.135E-12, -2.186E-12, 3.6437000000000006E-11, 2.135E-12, 2.186E-12, 8.2696000000000311E-10
DataValue, -0.55, 0.05, -8.063E-12, 1.5150000000000001E-12, -2.506E-12, 8.063E-12, 1.5150000000000001E-12, 2.506E-12, -1.1349599999999992E-09
DataValue, -0.525, 0.05, -1.6923E-11, 1.0250000000000002E-12, -2.6760000000000003E-12, 1.6923E-11, 1.0250000000000002E-12, 2.6760000000000003E-12, 3.5439999999999973E-10
DataValue, -0.5, 0.05, -3.0973000000000004E-11, 5.2500000000000009E-13, -2.896E-12, 3.0973000000000004E-11, 5.2500000000000009E-13, 2.896E-12, 5.6199999999999961E-10
DataValue, -0.47500000000000003, 0.05, -5.6703E-11, 5.5500000000000006E-13, -1.136E-12, 5.6703E-11, 5.5500000000000006E-13, 1.136E-12, 1.0292000000000014E-09
DataValue, -0.45, 0.05, -2.2773000000000002E-11, 1.665E-12, -1.126E-12, 2.2773000000000002E-11, 1.665E-12, 1.126E-12, -1.3571999999999988E-09
DataValue, -0.42500000000000004, 0.05, 3.0127000000000004E-11, 1.9650000000000002E-12, -1.636E-12, 3.0127000000000004E-11, 1.9650000000000002E-12, 1.636E-12, 2.9416000000000046E-10
DataValue, -0.4, 0.05, 5.6317000000000006E-11, 1.565E-12, -2.126E-12, 5.6317000000000006E-11, 1.565E-12, 2.126E-12, 1.0475999999999992E-09
DataValue, -0.375, 0.05, 2.5197E-11, 1.285E-12, -2.9360000000000004E-12, 2.5197E-11, 1.285E-12, 2.9360000000000004E-12, -1.2447999999999991E-09
DataValue, -0.35000000000000003, 0.05, -2.7853000000000003E-11, 2.45E-13, -2.4260000000000004E-12, 2.7853000000000003E-11, 2.45E-13, 2.4260000000000004E-12, 1.0624000000000021E-10
DataValue, -0.325, 0.05, -5.5723E-11, 7.75E-13, -1.326E-12, 5.5723E-11, 7.75E-13, 1.326E-12, 1.1147999999999991E-09
DataValue, -0.3, 0.05, -2.8253000000000002E-11, 1.525E-12, -1.406E-12, 2.8253000000000002E-11, 1.525E-12, 1.406E-12, -1.0987999999999989E-09
DataValue, -0.275, 0.05, 2.3477000000000003E-11, 1.7950000000000001E-12, -1.506E-12, 2.3477000000000003E-11, 1.7950000000000001E-12, 1.506E-12, -1.9104000000000025E-10
DataValue, -0.25, 0.05, 5.4767E-11, 1.855E-12, -2.406E-12, 5.4767E-11, 1.855E-12, 2.406E-12, 1.2515999999999991E-09
DataValue, -0.225, 0.05, 3.0997E-11, 1.3650000000000001E-12, -2.866E-12, 3.0997E-11, 1.3650000000000001E-12, 2.866E-12, -9.5080000000000027E-10
DataValue, -0.2, 0.05, -2.0923E-11, 5.45E-13, -2.2460000000000003E-12, 2.0923E-11, 5.45E-13, 2.2460000000000003E-12, -4.0296000000000018E-10
DataValue, -0.17500000000000002, 0.05, -5.5603000000000007E-11, 1.235E-12, -1.5260000000000002E-12, 5.5603000000000007E-11, 1.235E-12, 1.5260000000000002E-12, 1.3872000000000003E-09
DataValue, -0.15, 0.05, -3.5503E-11, 1.4550000000000002E-12, -1.036E-12, 3.5503E-11, 1.4550000000000002E-12, 1.036E-12, -8.039999999999996E-10
DataValue, -0.125, 0.05, 1.7677E-11, 1.7750000000000002E-12, -2.186E-12, 1.7677E-11, 1.7750000000000002E-12, 2.186E-12, -7.1304000000000016E-10
DataValue, -0.1, 0.05, 5.1627000000000007E-11, 1.7350000000000002E-12, -2.4160000000000002E-12, 5.1627000000000007E-11, 1.7350000000000002E-12, 2.4160000000000002E-12, 1.3580000000000007E-09
DataValue, -0.075, 0.05, 3.9847000000000003E-11, 1.095E-12, -3.526E-12, 3.9847000000000003E-11, 1.095E-12, 3.526E-12, -4.712E-10
DataValue, -0.05, 0.05, -9.133E-12, 7.95E-13, -4.1060000000000005E-12, 9.133E-12, 7.95E-13, 4.1060000000000005E-12, -1.2285600000000006E-09
DataValue, -0.025, 0.05, -4.5773E-11, 9.25E-13, -5.666E-12, 4.5773E-11, 9.25E-13, 5.666E-12, 1.4656E-09
DataValue, 0, 0.05, -1.5023E-11, 1.5150000000000001E-12, -1.0326000000000001E-11, 1.5023E-11, 1.5150000000000001E-12, 1.0326000000000001E-11, -1.2299999999999999E-09
DataValue, 0.025, 0.05, 3.6207000000000004E-11, 1.885E-12, -2.4766000000000003E-11, 3.6207000000000004E-11, 1.885E-12, 2.4766000000000003E-11, 8.4736000000000006E-10
DataValue, 0.05, 0.05, 1.07137E-10, 1.5950000000000002E-12, -5.9636E-11, 1.07137E-10, 1.5950000000000002E-12, 5.9636E-11, 2.8372E-09
DataValue, 0.075, 0.05, 1.74387E-10, 1.205E-12, -1.3408600000000002E-10, 1.74387E-10, 1.205E-12, 1.3408600000000002E-10, 2.6900000000000004E-09
DataValue, 0.1, 0.05, 2.76607E-10, 7.75E-13, -3.11116E-10, 2.76607E-10, 7.75E-13, 3.11116E-10, 4.0887999999999994E-09
DataValue, 0.125, 0.05, 6.67937E-10, 7.1500000000000008E-13, -7.0981600000000011E-10, 6.67937E-10, 7.1500000000000008E-13, 7.0981600000000011E-10, 1.5653200000000005E-08
DataValue, 0.15, 0.05, 1.43947E-09, 1.385E-12, -1.47554E-09, 1.43947E-09, 1.385E-12, 1.47554E-09, 3.0861320000000004E-08
DataValue, 0.17500000000000002, 0.05, 2.98677E-09, 1.1250000000000002E-12, -3.01614E-09, 2.98677E-09, 1.1250000000000002E-12, 3.01614E-09, 6.1891999999999943E-08
DataValue, 0.2, 0.05, 5.63407E-09, 1.6350000000000002E-12, -5.63464E-09, 5.63407E-09, 1.6350000000000002E-12, 5.63464E-09, 1.0589200000000003E-07
DataValue, 0.225, 0.05, 9.81907E-09, 9.4500000000000011E-13, -9.81784E-09, 9.81907E-09, 9.4500000000000011E-13, 9.81784E-09, 1.674E-07
DataValue, 0.25, 0.05, 1.6366399999999998E-08, 1.3150000000000002E-12, -1.63796E-08, 1.6366399999999998E-08, 1.3150000000000002E-12, 1.63796E-08, 2.618932E-07
DataValue, 0.275, 0.05, 2.5034599999999997E-08, 1.195E-12, -2.52778E-08, 2.5034599999999997E-08, 1.195E-12, 2.52778E-08, 3.4672799999999966E-07
DataValue, 0.3, 0.05, 3.7339599999999994E-08, 1.3050000000000002E-12, -3.69964E-08, 3.7339599999999994E-08, 1.3050000000000002E-12, 3.69964E-08, 4.9220000000000056E-07
DataValue, 0.325, 0.05, 5.24466E-08, 1.385E-12, -5.2153999999999992E-08, 5.24466E-08, 1.385E-12, 5.2153999999999992E-08, 6.0427999999999964E-07
DataValue, 0.35000000000000003, 0.05, 7.1976399999999991E-08, 8.25E-13, -7.15284E-08, 7.1976399999999991E-08, 8.25E-13, 7.15284E-08, 7.81191999999999E-07
DataValue, 0.375, 0.05, 9.553919999999999E-08, 1.825E-12, -9.57784E-08, 9.553919999999999E-08, 1.825E-12, 9.57784E-08, 9.4251200000000126E-07
DataValue, 0.4, 0.05, 1.2338E-07, 8.65E-13, -1.2304E-07, 1.2338E-07, 8.65E-13, 1.2304E-07, 1.1136319999999998E-06
DataValue, 0.42500000000000004, 0.05, 1.5636E-07, 6.55E-13, -1.571E-07, 1.5636E-07, 6.55E-13, 1.571E-07, 1.3191999999999985E-06
DataValue, 0.45, 0.05, 1.937E-07, 1.015E-12, -1.926E-07, 1.937E-07, 1.015E-12, 1.926E-07, 1.4936000000000015E-06
DataValue, 0.47500000000000003, 0.05, 2.3426E-07, 1.045E-12, -2.33E-07, 2.3426E-07, 1.045E-12, 2.33E-07, 1.6223999999999991E-06
DataValue, 0.5, 0.05, 2.8022E-07, 9.25E-13, -2.8022E-07, 2.8022E-07, 9.25E-13, 2.8022E-07, 1.8384000000000024E-06
DataValue, 0.525, 0.05, 3.3107999999999997E-07, 1.015E-12, -3.3135999999999997E-07, 3.3107999999999997E-07, 1.015E-12, 3.3135999999999997E-07, 2.034399999999997E-06
DataValue, 0.55, 0.05, 3.8555999999999997E-07, 7.6500000000000007E-13, -3.8456E-07, 3.8555999999999997E-07, 7.6500000000000007E-13, 3.8456E-07, 2.1791999999999977E-06
DataValue, 0.57500000000000007, 0.05, 4.483E-07, 8.7500000000000011E-13, -4.4612E-07, 4.483E-07, 8.7500000000000011E-13, 4.4612E-07, 2.5095999999999997E-06
DataValue, 0.6, 0.05, 5.1568E-07, 1.115E-12, -5.1302E-07, 5.1568E-07, 1.115E-12, 5.1302E-07, 2.6952000000000081E-06
DataValue, 0.625, 0.05, 5.835E-07, 1.5550000000000001E-12, -5.8437999999999994E-07, 5.835E-07, 1.5550000000000001E-12, 5.8437999999999994E-07, 2.7127999999999988E-06
DataValue, 0.65, 0.05, 6.6488E-07, 1.195E-12, -6.6177999999999993E-07, 6.6488E-07, 1.195E-12, 6.6177999999999993E-07, 3.2551999999999951E-06
DataValue, 0.675, 0.05, 7.4628E-07, 1.5550000000000001E-12, -7.4594E-07, 7.4628E-07, 1.5550000000000001E-12, 7.4594E-07, 3.2560000000000003E-06
DataValue, 0.70000000000000007, 0.05, 8.3591999999999993E-07, 1.575E-12, -8.3344E-07, 8.3591999999999993E-07, 1.575E-12, 8.3344E-07, 3.5855999999999924E-06
DataValue, 0.72500000000000009, 0.05, 9.3212E-07, 1.4950000000000002E-12, -9.3026E-07, 9.3212E-07, 1.4950000000000002E-12, 9.3026E-07, 3.8479999999999977E-06
DataValue, 0.75, 0.05, 1.02922E-06, 1.955E-12, -1.03126E-06, 1.02922E-06, 1.955E-12, 1.03126E-06, 3.8840000000000131E-06
DataValue, 0.775, 0.05, 1.13454E-06, 1.5050000000000002E-12, -1.13362E-06, 1.13454E-06, 1.5050000000000002E-12, 1.13362E-06, 4.2127999999999963E-06
DataValue, 0.8, 0.05, 1.2474000000000001E-06, 1.005E-12, -1.244E-06, 1.2474000000000001E-06, 1.005E-12, 1.244E-06, 4.5144000000000029E-06
DataValue, 0.82500000000000007, 0.05, 1.3654E-06, 1.7250000000000002E-12, -1.3647E-06, 1.3654E-06, 1.7250000000000002E-12, 1.3647E-06, 4.7199999999999946E-06
DataValue, 0.85000000000000009, 0.05, 1.4865E-06, 1.755E-12, -1.4912000000000002E-06, 1.4865E-06, 1.755E-12, 1.4912000000000002E-06, 4.8439999999999955E-06
DataValue, 0.875, 0.05, 1.6122000000000002E-06, 1.7750000000000002E-12, -1.6089000000000002E-06, 1.6122000000000002E-06, 1.7750000000000002E-12, 1.6089000000000002E-06, 5.0280000000000228E-06
DataValue, 0.9, 0.05, 1.7378000000000001E-06, 1.565E-12, -1.7376E-06, 1.7378000000000001E-06, 1.565E-12, 1.7376E-06, 5.023999999999992E-06
DataValue, 0.925, 0.05, 1.8693000000000003E-06, 1.155E-12, -1.8698000000000003E-06, 1.8693000000000003E-06, 1.155E-12, 1.8698000000000003E-06, 5.2600000000000005E-06
DataValue, 0.95000000000000007, 0.05, 2.0173E-06, 7.95E-13, -2.0191000000000003E-06, 2.0173E-06, 7.95E-13, 2.0191000000000003E-06, 5.9199999999999908E-06
DataValue, 0.97500000000000009, 0.05, 2.1695E-06, 8.3500000000000008E-13, -2.1647000000000002E-06, 2.1695E-06, 8.3500000000000008E-13, 2.1647000000000002E-06, 6.0879999999999949E-06
DataValue, 1, 0.05, 2.3132E-06, 6.6500000000000009E-13, -2.3088000000000002E-06, 2.3132E-06, 6.6500000000000009E-13, 2.3088000000000002E-06, 5.74800000000002E-06
DataValue, 1.0250000000000001, 0.05, 2.4717000000000004E-06, 1.3150000000000002E-12, -2.4686000000000004E-06, 2.4717000000000004E-06, 1.3150000000000002E-12, 2.4686000000000004E-06, 6.3399999999999766E-06
DataValue, 1.05, 0.05, 2.6385000000000002E-06, 1.2750000000000001E-12, -2.6342E-06, 2.6385000000000002E-06, 1.2750000000000001E-12, 2.6342E-06, 6.6720000000000168E-06
DataValue, 1.075, 0.05, 2.8025000000000003E-06, 1.245E-12, -2.8015E-06, 2.8025000000000003E-06, 1.245E-12, 2.8015E-06, 6.5600000000000253E-06
DataValue, 1.1, 0.05, 2.9685000000000005E-06, 1.825E-12, -2.9646000000000004E-06, 2.9685000000000005E-06, 1.825E-12, 2.9646000000000004E-06, 6.639999999999972E-06
