
SetupTitle, IdVg_Vd_par
PrimitiveTest, I/V Sweep
TestParameter, Context.MainFrame, B1500A
TestParameter, Channel.UnitType, SMU, SMU, SMU
TestParameter, Channel.Unit, SMU3:HR, SMU2:HR, SMU1:HR
TestParameter, Channel.IName, Id, Ig, Is
TestParameter, Channel.VName, Vd, Vg, Vs
TestParameter, Channel.Mode, V, V, V
TestParameter, Channel.Func, VAR2, VAR1, CONST
TestParameter, Channel.Index, 
TestParameter, Channel.Time, 
TestParameter, Measurement.Port.Unit, SMU3:HR, SMU2:HR, SMU1:HR
TestParameter, Measurement.Port.SeriesResistor, NONE, NONE, NONE
TestParameter, Measurement.Port.Filter, ON, ON, ON
TestParameter, Measurement.Port.OutputVoltageComparison, 0, 0, 0
TestParameter, Measurement.Primary.Locus, Double
TestParameter, Measurement.Primary.Scale, LINEAR
TestParameter, Measurement.Primary.Start, -1
TestParameter, Measurement.Primary.Stop, 2
TestParameter, Measurement.Primary.Step, 0.025
TestParameter, Measurement.Primary.Compliance, 0.1
TestParameter, Measurement.Primary.PowerCompliance, 0
TestParameter, Measurement.Aborting.Condition, STOP AT ANY ABNORMAL
TestParameter, Measurement.PostOutput.Value, START
TestParameter, Measurement.PostOutput.Retention, OFF
TestParameter, Measurement.Secondary.Start, 0.05
TestParameter, Measurement.Secondary.Count, 2
TestParameter, Measurement.Secondary.Step, 0.95000000000000007
TestParameter, Measurement.Secondary.Compliance, 0.1
TestParameter, Measurement.Secondary.PowerCompliance, 0
TestParameter, Measurement.Bias.Source, 0.05, -1, 0
TestParameter, Measurement.Bias.Compliance, 0.1, 0.1, 0.1
TestParameter, Measurement.Monitor.Unit, SMU3:HR, SMU2:HR, SMU1:HR
TestParameter, Measurement.Monitor.Adc, HR ADC, HR ADC, HR ADC
TestParameter, Measurement.Monitor.Measurement, Compliance Side, Compliance Side, Compliance Side
TestParameter, Measurement.Monitor.RangingMode, LIMITED, LIMITED, LIMITED
TestParameter, Measurement.Monitor.RangeBoundary, 1nA, 1nA, 1nA
TestParameter, Measurement.Monitor.RangeRating, BY FULL RANGE, BY FULL RANGE, BY FULL RANGE
TestParameter, Measurement.Monitor.RangeRatingCoeff, 50, 50, 50
TestParameter, Measurement.Timing.Hold, 0
TestParameter, Measurement.Timing.Delay, 0
TestParameter, Measurement.Adc.HighSpeed.Mode, AUTO
TestParameter, Measurement.Adc.HighSpeed.Coeff, 1
TestParameter, Measurement.Adc.HighResolution.AutoZero, OFF
TestParameter, Measurement.Adc.HighResolution.Mode, AUTO
TestParameter, Measurement.Adc.HighResolution.Coeff, 6
TestParameter, Measurement.WaitTime.Source.Coeff, 1
TestParameter, Measurement.WaitTime.Source.Offset, 0
TestParameter, Measurement.WaitTime.Monitor.Coeff, 1
TestParameter, Measurement.WaitTime.Monitor.Offset, 0
TestParameter, Function.User.Name, absId, absIg, absIs, gm
TestParameter, Function.User.Unit, A, A, A, S
TestParameter, Function.User.Definition, abs(Id), abs(Ig), abs(Is), diff(abs(Id))/diff(Vg)
TestParameter, Output.Graph.Enabled, true
TestParameter, Output.Graph.AutoScaling, false
TestParameter, Output.Graph.XAxis.Data, Vg
TestParameter, Output.Graph.XAxis.Scale, Linear
TestParameter, Output.Graph.XAxis.Left, -1
TestParameter, Output.Graph.XAxis.Right, 2
TestParameter, Output.Graph.XAxis.RunTimeAutoScale, false
TestParameter, Output.Graph.YAxis.Data, absId, gm, absIg, absIs
TestParameter, Output.Graph.YAxis.Scale, Log, Linear, Log, Log
TestParameter, Output.Graph.YAxis.Bottom, 1E-15, 0, 1E-15, 1E-15
TestParameter, Output.Graph.YAxis.Top, 0.001, 1, 0.001, 0.001
TestParameter, Output.Graph.YAxis.Group, , , , 
TestParameter, Output.Graph.YAxis.RunTimeAutoScale, false, true, false, false
TestParameter, Output.List.Data, Vg, Vd, Id, Is, Ig, absId, absIs, absIg, gm
TestParameter, AutoAnalysis.Interpolation, false
TestParameter, AutoAnalysis.Var2StepCount, 1
TestParameter, AutoAnalysis.Var2StepScript, 
TestParameter, AutoAnalysis.Line1.Enabled, false
TestParameter, AutoAnalysis.Line1.Type, 1
TestParameter, AutoAnalysis.Line1.Fix, True
TestParameter, AutoAnalysis.Line1.YAxis, 0
TestParameter, AutoAnalysis.Line1.Point1.Type, 0
TestParameter, AutoAnalysis.Line1.Point1.XY.X, 
TestParameter, AutoAnalysis.Line1.Point1.XY.Y, 
TestParameter, AutoAnalysis.Line1.Point1.Data.Var, 
TestParameter, AutoAnalysis.Line1.Point1.Data.Condition, 
TestParameter, AutoAnalysis.Line1.Point1.Data.Start, false
TestParameter, AutoAnalysis.Line1.Point1.Data.StartVar, 
TestParameter, AutoAnalysis.Line1.Point1.Data.StartCondition, 
TestParameter, AutoAnalysis.Line1.Point2.Type, 0
TestParameter, AutoAnalysis.Line1.Point2.XY.X, 
TestParameter, AutoAnalysis.Line1.Point2.XY.Y, 
TestParameter, AutoAnalysis.Line1.Point2.Data.Var, 
TestParameter, AutoAnalysis.Line1.Point2.Data.Condition, 
TestParameter, AutoAnalysis.Line1.Point2.Data.Start, false
TestParameter, AutoAnalysis.Line1.Point2.Data.StartVar, 
TestParameter, AutoAnalysis.Line1.Point2.Data.StartCondition, 
TestParameter, AutoAnalysis.Line1.GradientExpr, 0
TestParameter, AutoAnalysis.Line2.Enabled, false
TestParameter, AutoAnalysis.Line2.Type, 1
TestParameter, AutoAnalysis.Line2.Fix, True
TestParameter, AutoAnalysis.Line2.YAxis, 0
TestParameter, AutoAnalysis.Line2.Point1.Type, 0
TestParameter, AutoAnalysis.Line2.Point1.XY.X, 
TestParameter, AutoAnalysis.Line2.Point1.XY.Y, 
TestParameter, AutoAnalysis.Line2.Point1.Data.Var, 
TestParameter, AutoAnalysis.Line2.Point1.Data.Condition, 
TestParameter, AutoAnalysis.Line2.Point1.Data.Start, false
TestParameter, AutoAnalysis.Line2.Point1.Data.StartVar, 
TestParameter, AutoAnalysis.Line2.Point1.Data.StartCondition, 
TestParameter, AutoAnalysis.Line2.Point2.Type, 0
TestParameter, AutoAnalysis.Line2.Point2.XY.X, 
TestParameter, AutoAnalysis.Line2.Point2.XY.Y, 
TestParameter, AutoAnalysis.Line2.Point2.Data.Var, 
TestParameter, AutoAnalysis.Line2.Point2.Data.Condition, 
TestParameter, AutoAnalysis.Line2.Point2.Data.Start, false
TestParameter, AutoAnalysis.Line2.Point2.Data.StartVar, 
TestParameter, AutoAnalysis.Line2.Point2.Data.StartCondition, 
TestParameter, AutoAnalysis.Line2.GradientExpr, 0
TestParameter, AutoAnalysis.Marker.Enabled, false
TestParameter, AutoAnalysis.Marker.Data.Var, 
TestParameter, AutoAnalysis.Marker.Data.Condition, 
TestParameter, AutoAnalysis.Marker.Data.Start, false
TestParameter, AutoAnalysis.Marker.Data.StartVar, 
TestParameter, AutoAnalysis.Marker.Data.StartCondition, 
MetaData, TestRecord.EntryPoint, true
MetaData, TestRecord.RecordTime, 06/03/2025 15:36:41
MetaData, TestRecord.TestTarget, R[4]_D[6]_L[90]
MetaData, TestRecord.IterationIndex, 1
MetaData, TestRecord.Preservation, true
MetaData, TestRecord.Flag, !
MetaData, TestRecord.Remarks, 
MetaData, TestRecord.LinkKey, 649227fe-05c3-401b-9f4f-fdf02dad3cef
MetaData, TestRecord.Parameters, 
Dimension1, 242, 242, 242, 242, 242, 242, 242, 242, 242
Dimension2, 2, 2, 2, 2, 2, 2, 2, 2, 2
DataName, Vg, Vd, Id, Ig, Is, absId, absIg, absIs, gm
DataValue, -1, 0.05, 2.2700000000000002E-13, 1.245E-12, -2.436E-12, 2.2700000000000002E-13, 1.245E-12, 2.436E-12, 
DataValue, -0.97500000000000009, 0.05, -3.3300000000000005E-13, 9.8500000000000014E-13, -2.386E-12, 3.3300000000000005E-13, 9.8500000000000014E-13, 2.386E-12, 4.2400000000000159E-12
DataValue, -0.95000000000000007, 0.05, 1.9700000000000002E-13, 1.255E-12, -2.236E-12, 1.9700000000000002E-13, 1.255E-12, 2.236E-12, -5.4399999999999962E-12
DataValue, -0.925, 0.05, 7E-15, 1.625E-12, -2.3160000000000002E-12, 7E-15, 1.625E-12, 2.3160000000000002E-12, -7.5999999999999935E-12
DataValue, -0.9, 0.05, 1.9700000000000002E-13, 1.5150000000000001E-12, -2.126E-12, 1.9700000000000002E-13, 1.5150000000000001E-12, 2.126E-12, 7.5999999999999935E-12
DataValue, -0.875, 0.05, -2.93E-13, 8.5500000000000009E-13, -2.1660000000000003E-12, 2.93E-13, 8.5500000000000009E-13, 2.1660000000000003E-12, 3.8399999999999966E-12
DataValue, -0.85000000000000009, 0.05, -6.3000000000000009E-14, 1.255E-12, -2.5460000000000003E-12, 6.3000000000000009E-14, 1.255E-12, 2.5460000000000003E-12, -9.2000000000000335E-12
DataValue, -0.82500000000000007, 0.05, -1.53E-13, 1.395E-12, -2.3660000000000002E-12, 1.53E-13, 1.395E-12, 2.3660000000000002E-12, 3.5999999999999968E-12
DataValue, -0.8, 0.05, -1.63E-13, 1.285E-12, -1.996E-12, 1.63E-13, 1.285E-12, 1.996E-12, 3.9999999999999996E-13
DataValue, -0.775, 0.05, 2.47E-13, 9.55E-13, -2.1160000000000003E-12, 2.47E-13, 9.55E-13, 2.1160000000000003E-12, 3.359999999999997E-12
DataValue, -0.75, 0.05, 2.67E-13, 1.345E-12, -1.8660000000000003E-12, 2.67E-13, 1.345E-12, 1.8660000000000003E-12, 7.9999999999999992E-13
DataValue, -0.72500000000000009, 0.05, -3.8300000000000003E-13, 1.2250000000000001E-12, -1.996E-12, 3.8300000000000003E-13, 1.2250000000000001E-12, 1.996E-12, 4.6400000000000166E-12
DataValue, -0.70000000000000007, 0.05, 4.7E-14, 1.2250000000000001E-12, -2.3660000000000002E-12, 4.7E-14, 1.2250000000000001E-12, 2.3660000000000002E-12, -1.343999999999999E-11
DataValue, -0.675, 0.05, -5.3E-14, 1.185E-12, -2.326E-12, 5.3E-14, 1.185E-12, 2.326E-12, 2.3999999999999979E-13
DataValue, -0.65, 0.05, 3.6700000000000005E-13, 1.2150000000000002E-12, -2.186E-12, 3.6700000000000005E-13, 1.2150000000000002E-12, 2.186E-12, 1.2559999999999992E-11
DataValue, -0.625, 0.05, 3.07E-13, 1.005E-12, -2.1460000000000003E-12, 3.07E-13, 1.005E-12, 2.1460000000000003E-12, -2.4E-12
DataValue, -0.6, 0.05, 3.97E-13, 1.145E-12, -1.956E-12, 3.97E-13, 1.145E-12, 1.956E-12, 3.5999999999999976E-12
DataValue, -0.57500000000000007, 0.05, -1.83E-13, 1.2750000000000001E-12, -2.406E-12, 1.83E-13, 1.2750000000000001E-12, 2.406E-12, -8.5600000000000314E-12
DataValue, -0.55, 0.05, -1.23E-13, 1.4450000000000002E-12, -2.106E-12, 1.23E-13, 1.4450000000000002E-12, 2.106E-12, -2.3999999999999979E-12
DataValue, -0.525, 0.05, -7.3E-14, 1.2250000000000001E-12, -2.276E-12, 7.3E-14, 1.2250000000000001E-12, 2.276E-12, -1.9999999999999983E-12
DataValue, -0.5, 0.05, 2.7000000000000002E-14, 1.185E-12, -2.2160000000000003E-12, 2.7000000000000002E-14, 1.185E-12, 2.2160000000000003E-12, -1.8399999999999986E-12
DataValue, -0.47500000000000003, 0.05, -1.03E-13, 8.25E-13, -2.156E-12, 1.03E-13, 8.25E-13, 2.156E-12, 3.0400000000000044E-12
DataValue, -0.45, 0.05, 1.0700000000000001E-13, 9.3500000000000016E-13, -2.2660000000000002E-12, 1.0700000000000001E-13, 9.3500000000000016E-13, 2.2660000000000002E-12, 1.6000000000000018E-13
DataValue, -0.42500000000000004, 0.05, 5.700000000000001E-14, 8.1500000000000006E-13, -2.236E-12, 5.700000000000001E-14, 8.1500000000000006E-13, 2.236E-12, -2.0000000000000028E-12
DataValue, -0.4, 0.05, 2.7000000000000002E-14, 1.245E-12, -2.1660000000000003E-12, 2.7000000000000002E-14, 1.245E-12, 2.1660000000000003E-12, -1.1999999999999993E-12
DataValue, -0.375, 0.05, -2.23E-13, 1.185E-12, -2.086E-12, 2.23E-13, 1.185E-12, 2.086E-12, 7.8399999999999924E-12
DataValue, -0.35000000000000003, 0.05, -3.3000000000000005E-14, 9.3500000000000016E-13, -2.2160000000000003E-12, 3.3000000000000005E-14, 9.3500000000000016E-13, 2.2160000000000003E-12, -7.60000000000001E-12
DataValue, -0.325, 0.05, 2.7700000000000003E-13, 7.95E-13, -2.286E-12, 2.7700000000000003E-13, 7.95E-13, 2.286E-12, 9.7599999999999923E-12
DataValue, -0.3, 0.05, 3.7E-14, 1.285E-12, -2.226E-12, 3.7E-14, 1.285E-12, 2.226E-12, -9.599999999999993E-12
DataValue, -0.275, 0.05, 3.3700000000000003E-13, 1.295E-12, -2.336E-12, 3.3700000000000003E-13, 1.295E-12, 2.336E-12, 1.2000000000000017E-11
DataValue, -0.25, 0.05, 1.007E-12, 8.8500000000000007E-13, -3.0360000000000004E-12, 1.007E-12, 8.8500000000000007E-13, 3.0360000000000004E-12, 2.6799999999999975E-11
DataValue, -0.225, 0.05, 2.407E-12, 1.245E-12, -4.856E-12, 2.407E-12, 1.245E-12, 4.856E-12, 5.6000000000000013E-11
DataValue, -0.2, 0.05, 5.8070000000000006E-12, 8.65E-13, -8.236E-12, 5.8070000000000006E-12, 8.65E-13, 8.236E-12, 1.3600000000000005E-10
DataValue, -0.17500000000000002, 0.05, 1.4927E-11, 8.8500000000000007E-13, -1.7186000000000002E-11, 1.4927E-11, 8.8500000000000007E-13, 1.7186000000000002E-11, 3.6480000000000007E-10
DataValue, -0.15, 0.05, 3.4777E-11, 9.3500000000000016E-13, -3.6246E-11, 3.4777E-11, 9.3500000000000016E-13, 3.6246E-11, 7.9399999999999933E-10
DataValue, -0.125, 0.05, 8.2967000000000012E-11, 1.235E-12, -8.5056E-11, 8.2967000000000012E-11, 1.235E-12, 8.5056E-11, 1.9276000000000007E-09
DataValue, -0.1, 0.05, 1.90957E-10, 1.2750000000000001E-12, -1.97556E-10, 1.90957E-10, 1.2750000000000001E-12, 1.97556E-10, 4.3196000000000007E-09
DataValue, -0.075, 0.05, 4.3832700000000005E-10, 1.3050000000000002E-12, -4.47826E-10, 4.3832700000000005E-10, 1.3050000000000002E-12, 4.47826E-10, 9.8948E-09
DataValue, -0.05, 0.05, 9.61057E-10, 1.065E-12, -9.73716E-10, 9.61057E-10, 1.065E-12, 9.73716E-10, 2.0909200000000006E-08
DataValue, -0.025, 0.05, 2.04757E-09, 9.0500000000000008E-13, -1.97924E-09, 2.04757E-09, 9.0500000000000008E-13, 1.97924E-09, 4.346052E-08
DataValue, 0, 0.05, 4.11917E-09, 1.015E-12, -4.17444E-09, 4.11917E-09, 1.015E-12, 4.17444E-09, 8.286399999999998E-08
DataValue, 0.025, 0.05, 8.09947E-09, 1.145E-12, -7.96064E-09, 8.09947E-09, 1.145E-12, 7.96064E-09, 1.5921199999999998E-07
DataValue, 0.05, 0.05, 1.4341199999999998E-08, 7.1500000000000008E-13, -1.4185E-08, 1.4341199999999998E-08, 7.1500000000000008E-13, 1.4185E-08, 2.4966919999999994E-07
DataValue, 0.075, 0.05, 2.4925999999999998E-08, 1.145E-12, -2.4795599999999997E-08, 2.4925999999999998E-08, 1.145E-12, 2.4795599999999997E-08, 4.2339200000000009E-07
DataValue, 0.1, 0.05, 4.0474199999999993E-08, 1.0850000000000001E-12, -4.0634E-08, 4.0474199999999993E-08, 1.0850000000000001E-12, 4.0634E-08, 6.2192799999999964E-07
DataValue, 0.125, 0.05, 6.29438E-08, 1.0850000000000001E-12, -6.265E-08, 6.29438E-08, 1.0850000000000001E-12, 6.265E-08, 8.9878400000000049E-07
DataValue, 0.15, 0.05, 9.1670599999999992E-08, 1.195E-12, -9.1238599999999992E-08, 9.1670599999999992E-08, 1.195E-12, 9.1238599999999992E-08, 1.149072E-06
DataValue, 0.17500000000000002, 0.05, 1.2656E-07, 9.8500000000000014E-13, -1.2726E-07, 1.2656E-07, 9.8500000000000014E-13, 1.2726E-07, 1.3955759999999987E-06
DataValue, 0.2, 0.05, 1.7374E-07, 8.7500000000000011E-13, -1.7314E-07, 1.7374E-07, 8.7500000000000011E-13, 1.7314E-07, 1.8872000000000005E-06
DataValue, 0.225, 0.05, 2.2868E-07, 1.0750000000000002E-12, -2.2774E-07, 2.2868E-07, 1.0750000000000002E-12, 2.2774E-07, 2.1976000000000012E-06
DataValue, 0.25, 0.05, 2.8924E-07, 9.15E-13, -2.8982E-07, 2.8924E-07, 9.15E-13, 2.8982E-07, 2.4224000000000007E-06
DataValue, 0.275, 0.05, 3.6375999999999997E-07, 1.155E-12, -3.6326E-07, 3.6375999999999997E-07, 1.155E-12, 3.6326E-07, 2.9807999999999957E-06
DataValue, 0.3, 0.05, 4.4508E-07, 1.0850000000000001E-12, -4.4324E-07, 4.4508E-07, 1.0850000000000001E-12, 4.4324E-07, 3.2528000000000059E-06
DataValue, 0.325, 0.05, 5.4138E-07, 1.2750000000000001E-12, -5.392E-07, 5.4138E-07, 1.2750000000000001E-12, 5.392E-07, 3.8519999999999955E-06
DataValue, 0.35000000000000003, 0.05, 6.4604E-07, 1.2650000000000002E-12, -6.4792E-07, 6.4604E-07, 1.2650000000000002E-12, 6.4792E-07, 4.186399999999996E-06
DataValue, 0.375, 0.05, 7.5302E-07, 1.295E-12, -7.5774E-07, 7.5302E-07, 1.295E-12, 7.5774E-07, 4.2792000000000047E-06
DataValue, 0.4, 0.05, 8.7716E-07, 8.8500000000000007E-13, -8.7248E-07, 8.7716E-07, 8.8500000000000007E-13, 8.7248E-07, 4.9655999999999978E-06
DataValue, 0.42500000000000004, 0.05, 1.01304E-06, 1.155E-12, -1.0035E-06, 1.01304E-06, 1.155E-12, 1.0035E-06, 5.4351999999999916E-06
DataValue, 0.45, 0.05, 1.1533E-06, 1.2650000000000002E-12, -1.1505E-06, 1.1533E-06, 1.2650000000000002E-12, 1.1505E-06, 5.6104000000000124E-06
DataValue, 0.47500000000000003, 0.05, 1.3014000000000002E-06, 1.055E-12, -1.3002E-06, 1.3014000000000002E-06, 1.055E-12, 1.3002E-06, 5.9239999999999995E-06
DataValue, 0.5, 0.05, 1.4583E-06, 8.3500000000000008E-13, -1.4572000000000002E-06, 1.4583E-06, 8.3500000000000008E-13, 1.4572000000000002E-06, 6.2760000000000056E-06
DataValue, 0.525, 0.05, 1.6320000000000002E-06, 1.095E-12, -1.633E-06, 1.6320000000000002E-06, 1.095E-12, 1.633E-06, 6.9479999999999994E-06
DataValue, 0.55, 0.05, 1.8131000000000003E-06, 1.485E-12, -1.8252000000000001E-06, 1.8131000000000003E-06, 1.485E-12, 1.8252000000000001E-06, 7.2439999999999954E-06
DataValue, 0.57500000000000007, 0.05, 2.0204E-06, 1.375E-12, -2.0175E-06, 2.0204E-06, 1.375E-12, 2.0175E-06, 8.29199999999999E-06
DataValue, 0.6, 0.05, 2.2049000000000003E-06, 9.15E-13, -2.2051000000000003E-06, 2.2049000000000003E-06, 9.15E-13, 2.2051000000000003E-06, 7.38000000000003E-06
DataValue, 0.625, 0.05, 2.4314E-06, 8.8500000000000007E-13, -2.4396000000000003E-06, 2.4314E-06, 8.8500000000000007E-13, 2.4396000000000003E-06, 9.0599999999999861E-06
DataValue, 0.65, 0.05, 2.6651E-06, 8.25E-13, -2.6599E-06, 2.6651E-06, 8.25E-13, 2.6599E-06, 9.34799999999999E-06
DataValue, 0.675, 0.05, 2.8928000000000005E-06, 8.5500000000000009E-13, -2.8913E-06, 2.8928000000000005E-06, 8.5500000000000009E-13, 2.8913E-06, 9.1080000000000066E-06
DataValue, 0.70000000000000007, 0.05, 3.1339E-06, 9.65E-13, -3.1321000000000005E-06, 3.1339E-06, 9.65E-13, 3.1321000000000005E-06, 9.64399999999998E-06
DataValue, 0.72500000000000009, 0.05, 3.4044000000000004E-06, 1.145E-12, -3.3882000000000004E-06, 3.4044000000000004E-06, 1.145E-12, 3.3882000000000004E-06, 1.0819999999999998E-05
DataValue, 0.75, 0.05, 3.6425000000000003E-06, 1.2750000000000001E-12, -3.6369000000000003E-06, 3.6425000000000003E-06, 1.2750000000000001E-12, 3.6369000000000003E-06, 9.52400000000003E-06
DataValue, 0.775, 0.05, 3.9289000000000006E-06, 9.950000000000001E-13, -3.9387E-06, 3.9289000000000006E-06, 9.950000000000001E-13, 3.9387E-06, 1.1456000000000004E-05
DataValue, 0.8, 0.05, 4.2115E-06, 1.105E-12, -4.2190000000000006E-06, 4.2115E-06, 1.105E-12, 4.2190000000000006E-06, 1.1303999999999975E-05
DataValue, 0.82500000000000007, 0.05, 4.5174E-06, 1.3250000000000001E-12, -4.5168000000000005E-06, 4.5174E-06, 1.3250000000000001E-12, 4.5168000000000005E-06, 1.2235999999999986E-05
DataValue, 0.85000000000000009, 0.05, 4.7964E-06, 1.0250000000000002E-12, -4.8069000000000005E-06, 4.7964E-06, 1.0250000000000002E-12, 4.8069000000000005E-06, 1.1159999999999998E-05
DataValue, 0.875, 0.05, 5.1380000000000006E-06, 1.2250000000000001E-12, -5.1303000000000007E-06, 5.1380000000000006E-06, 1.2250000000000001E-12, 5.1303000000000007E-06, 1.3664000000000059E-05
DataValue, 0.9, 0.05, 5.4817E-06, 1.105E-12, -5.4646E-06, 5.4817E-06, 1.105E-12, 5.4646E-06, 1.3747999999999979E-05
DataValue, 0.925, 0.05, 5.7934E-06, 9.8500000000000014E-13, -5.7879000000000009E-06, 5.7934E-06, 9.8500000000000014E-13, 5.7879000000000009E-06, 1.2467999999999985E-05
DataValue, 0.95000000000000007, 0.05, 6.1776000000000008E-06, 1.185E-12, -6.1726000000000008E-06, 6.1776000000000008E-06, 1.185E-12, 6.1726000000000008E-06, 1.5368000000000006E-05
DataValue, 0.97500000000000009, 0.05, 6.5533000000000004E-06, 1.385E-12, -6.526500000000001E-06, 6.5533000000000004E-06, 1.385E-12, 6.526500000000001E-06, 1.5027999999999972E-05
DataValue, 1, 0.05, 6.922100000000001E-06, 1.1750000000000001E-12, -6.8865000000000009E-06, 6.922100000000001E-06, 1.1750000000000001E-12, 6.8865000000000009E-06, 1.4752000000000077E-05
DataValue, 1.0250000000000001, 0.05, 7.2662000000000008E-06, 1.485E-12, -7.2559000000000011E-06, 7.2662000000000008E-06, 1.485E-12, 7.2559000000000011E-06, 1.3763999999999919E-05
DataValue, 1.05, 0.05, 7.673800000000001E-06, 1.3550000000000002E-12, -7.6608000000000013E-06, 7.673800000000001E-06, 1.3550000000000002E-12, 7.6608000000000013E-06, 1.6304000000000063E-05
DataValue, 1.075, 0.05, 8.0858000000000014E-06, 8.65E-13, -8.0546E-06, 8.0858000000000014E-06, 8.65E-13, 8.0546E-06, 1.6480000000000076E-05
DataValue, 1.1, 0.05, 8.4622E-06, 1.435E-12, -8.461E-06, 8.4622E-06, 1.435E-12, 8.461E-06, 1.5055999999999866E-05
