
SetupTitle, IdVg_Vd_par
PrimitiveTest, I/V Sweep
TestParameter, Context.MainFrame, B1500A
TestParameter, Channel.UnitType, SMU, SMU, SMU
TestParameter, Channel.Unit, SMU3:HR, SMU2:HR, SMU1:HR
TestParameter, Channel.IName, Id, Ig, Is
TestParameter, Channel.VName, Vd, Vg, Vs
TestParameter, Channel.Mode, V, V, V
TestParameter, Channel.Func, VAR2, VAR1, CONST
TestParameter, Channel.Index, 
TestParameter, Channel.Time, 
TestParameter, Measurement.Port.Unit, SMU3:HR, SMU2:HR, SMU1:HR
TestParameter, Measurement.Port.SeriesResistor, NONE, NONE, NONE
TestParameter, Measurement.Port.Filter, ON, ON, ON
TestParameter, Measurement.Port.OutputVoltageComparison, 0, 0, 0
TestParameter, Measurement.Primary.Locus, Double
TestParameter, Measurement.Primary.Scale, LINEAR
TestParameter, Measurement.Primary.Start, -1
TestParameter, Measurement.Primary.Stop, 2
TestParameter, Measurement.Primary.Step, 0.025
TestParameter, Measurement.Primary.Compliance, 0.1
TestParameter, Measurement.Primary.PowerCompliance, 0
TestParameter, Measurement.Aborting.Condition, STOP AT ANY ABNORMAL
TestParameter, Measurement.PostOutput.Value, START
TestParameter, Measurement.PostOutput.Retention, OFF
TestParameter, Measurement.Secondary.Start, 0.05
TestParameter, Measurement.Secondary.Count, 2
TestParameter, Measurement.Secondary.Step, 0.95000000000000007
TestParameter, Measurement.Secondary.Compliance, 0.1
TestParameter, Measurement.Secondary.PowerCompliance, 0
TestParameter, Measurement.Bias.Source, 0.05, -1, 0
TestParameter, Measurement.Bias.Compliance, 0.1, 0.1, 0.1
TestParameter, Measurement.Monitor.Unit, SMU3:HR, SMU2:HR, SMU1:HR
TestParameter, Measurement.Monitor.Adc, HR ADC, HR ADC, HR ADC
TestParameter, Measurement.Monitor.Measurement, Compliance Side, Compliance Side, Compliance Side
TestParameter, Measurement.Monitor.RangingMode, LIMITED, LIMITED, LIMITED
TestParameter, Measurement.Monitor.RangeBoundary, 1nA, 1nA, 1nA
TestParameter, Measurement.Monitor.RangeRating, BY FULL RANGE, BY FULL RANGE, BY FULL RANGE
TestParameter, Measurement.Monitor.RangeRatingCoeff, 50, 50, 50
TestParameter, Measurement.Timing.Hold, 0
TestParameter, Measurement.Timing.Delay, 0
TestParameter, Measurement.Adc.HighSpeed.Mode, AUTO
TestParameter, Measurement.Adc.HighSpeed.Coeff, 1
TestParameter, Measurement.Adc.HighResolution.AutoZero, OFF
TestParameter, Measurement.Adc.HighResolution.Mode, AUTO
TestParameter, Measurement.Adc.HighResolution.Coeff, 6
TestParameter, Measurement.WaitTime.Source.Coeff, 1
TestParameter, Measurement.WaitTime.Source.Offset, 0
TestParameter, Measurement.WaitTime.Monitor.Coeff, 1
TestParameter, Measurement.WaitTime.Monitor.Offset, 0
TestParameter, Function.User.Name, absId, absIg, absIs, gm
TestParameter, Function.User.Unit, A, A, A, S
TestParameter, Function.User.Definition, abs(Id), abs(Ig), abs(Is), diff(abs(Id))/diff(Vg)
TestParameter, Output.Graph.Enabled, true
TestParameter, Output.Graph.AutoScaling, false
TestParameter, Output.Graph.XAxis.Data, Vg
TestParameter, Output.Graph.XAxis.Scale, Linear
TestParameter, Output.Graph.XAxis.Left, -1
TestParameter, Output.Graph.XAxis.Right, 2
TestParameter, Output.Graph.XAxis.RunTimeAutoScale, false
TestParameter, Output.Graph.YAxis.Data, absId, gm, absIg, absIs
TestParameter, Output.Graph.YAxis.Scale, Log, Linear, Log, Log
TestParameter, Output.Graph.YAxis.Bottom, 1E-15, 0, 1E-15, 1E-15
TestParameter, Output.Graph.YAxis.Top, 0.001, 1, 0.001, 0.001
TestParameter, Output.Graph.YAxis.Group, , , , 
TestParameter, Output.Graph.YAxis.RunTimeAutoScale, false, true, false, false
TestParameter, Output.List.Data, Vg, Vd, Id, Is, Ig, absId, absIs, absIg, gm
TestParameter, AutoAnalysis.Interpolation, false
TestParameter, AutoAnalysis.Var2StepCount, 1
TestParameter, AutoAnalysis.Var2StepScript, 
TestParameter, AutoAnalysis.Line1.Enabled, false
TestParameter, AutoAnalysis.Line1.Type, 1
TestParameter, AutoAnalysis.Line1.Fix, True
TestParameter, AutoAnalysis.Line1.YAxis, 0
TestParameter, AutoAnalysis.Line1.Point1.Type, 0
TestParameter, AutoAnalysis.Line1.Point1.XY.X, 
TestParameter, AutoAnalysis.Line1.Point1.XY.Y, 
TestParameter, AutoAnalysis.Line1.Point1.Data.Var, 
TestParameter, AutoAnalysis.Line1.Point1.Data.Condition, 
TestParameter, AutoAnalysis.Line1.Point1.Data.Start, false
TestParameter, AutoAnalysis.Line1.Point1.Data.StartVar, 
TestParameter, AutoAnalysis.Line1.Point1.Data.StartCondition, 
TestParameter, AutoAnalysis.Line1.Point2.Type, 0
TestParameter, AutoAnalysis.Line1.Point2.XY.X, 
TestParameter, AutoAnalysis.Line1.Point2.XY.Y, 
TestParameter, AutoAnalysis.Line1.Point2.Data.Var, 
TestParameter, AutoAnalysis.Line1.Point2.Data.Condition, 
TestParameter, AutoAnalysis.Line1.Point2.Data.Start, false
TestParameter, AutoAnalysis.Line1.Point2.Data.StartVar, 
TestParameter, AutoAnalysis.Line1.Point2.Data.StartCondition, 
TestParameter, AutoAnalysis.Line1.GradientExpr, 0
TestParameter, AutoAnalysis.Line2.Enabled, false
TestParameter, AutoAnalysis.Line2.Type, 1
TestParameter, AutoAnalysis.Line2.Fix, True
TestParameter, AutoAnalysis.Line2.YAxis, 0
TestParameter, AutoAnalysis.Line2.Point1.Type, 0
TestParameter, AutoAnalysis.Line2.Point1.XY.X, 
TestParameter, AutoAnalysis.Line2.Point1.XY.Y, 
TestParameter, AutoAnalysis.Line2.Point1.Data.Var, 
TestParameter, AutoAnalysis.Line2.Point1.Data.Condition, 
TestParameter, AutoAnalysis.Line2.Point1.Data.Start, false
TestParameter, AutoAnalysis.Line2.Point1.Data.StartVar, 
TestParameter, AutoAnalysis.Line2.Point1.Data.StartCondition, 
TestParameter, AutoAnalysis.Line2.Point2.Type, 0
TestParameter, AutoAnalysis.Line2.Point2.XY.X, 
TestParameter, AutoAnalysis.Line2.Point2.XY.Y, 
TestParameter, AutoAnalysis.Line2.Point2.Data.Var, 
TestParameter, AutoAnalysis.Line2.Point2.Data.Condition, 
TestParameter, AutoAnalysis.Line2.Point2.Data.Start, false
TestParameter, AutoAnalysis.Line2.Point2.Data.StartVar, 
TestParameter, AutoAnalysis.Line2.Point2.Data.StartCondition, 
TestParameter, AutoAnalysis.Line2.GradientExpr, 0
TestParameter, AutoAnalysis.Marker.Enabled, false
TestParameter, AutoAnalysis.Marker.Data.Var, 
TestParameter, AutoAnalysis.Marker.Data.Condition, 
TestParameter, AutoAnalysis.Marker.Data.Start, false
TestParameter, AutoAnalysis.Marker.Data.StartVar, 
TestParameter, AutoAnalysis.Marker.Data.StartCondition, 
MetaData, TestRecord.EntryPoint, true
MetaData, TestRecord.RecordTime, 06/03/2025 15:33:14
MetaData, TestRecord.TestTarget, R[4]_D[6]_L[70]
MetaData, TestRecord.IterationIndex, 1
MetaData, TestRecord.Preservation, true
MetaData, TestRecord.Flag, !
MetaData, TestRecord.Remarks, 
MetaData, TestRecord.LinkKey, 15962a77-e703-4dad-b449-ca46da53c0af
MetaData, TestRecord.Parameters, 
Dimension1, 242, 242, 242, 242, 242, 242, 242, 242, 242
Dimension2, 2, 2, 2, 2, 2, 2, 2, 2, 2
DataName, Vg, Vd, Id, Ig, Is, absId, absIg, absIs, gm
DataValue, -1, 0.05, 1.77E-13, 9.950000000000001E-13, -2.1660000000000003E-12, 1.77E-13, 9.950000000000001E-13, 2.1660000000000003E-12, 
DataValue, -0.97500000000000009, 0.05, -3.0000000000000002E-15, 1.235E-12, -2.226E-12, 3.0000000000000002E-15, 1.235E-12, 2.226E-12, -6.9600000000000245E-12
DataValue, -0.95000000000000007, 0.05, -2.5300000000000003E-13, 9.15E-13, -2.5460000000000003E-12, 2.5300000000000003E-13, 9.15E-13, 2.5460000000000003E-12, 9.9999999999999929E-12
DataValue, -0.925, 0.05, -9.3000000000000008E-14, 7.95E-13, -2.4160000000000002E-12, 9.3000000000000008E-14, 7.95E-13, 2.4160000000000002E-12, -6.3999999999999953E-12
DataValue, -0.9, 0.05, -1.83E-13, 1.185E-12, -2.566E-12, 1.83E-13, 1.185E-12, 2.566E-12, 3.5999999999999968E-12
DataValue, -0.875, 0.05, -1.3000000000000001E-14, 9.15E-13, -2.4160000000000002E-12, 1.3000000000000001E-14, 9.15E-13, 2.4160000000000002E-12, -6.7999999999999945E-12
DataValue, -0.85000000000000009, 0.05, 4.77E-13, 1.0750000000000002E-12, -2.3160000000000002E-12, 4.77E-13, 1.0750000000000002E-12, 2.3160000000000002E-12, 1.8560000000000063E-11
DataValue, -0.82500000000000007, 0.05, 1.87E-13, 8.8500000000000007E-13, -2.4960000000000003E-12, 1.87E-13, 8.8500000000000007E-13, 2.4960000000000003E-12, -1.1599999999999989E-11
DataValue, -0.8, 0.05, -1.63E-13, 9.3500000000000016E-13, -2.156E-12, 1.63E-13, 9.3500000000000016E-13, 2.156E-12, -9.5999999999999914E-13
DataValue, -0.775, 0.05, 1.7E-14, 1.1250000000000002E-12, -2.186E-12, 1.7E-14, 1.1250000000000002E-12, 2.186E-12, -5.8399999999999953E-12
DataValue, -0.75, 0.05, -1.4300000000000002E-13, 1.015E-12, -2.306E-12, 1.4300000000000002E-13, 1.015E-12, 2.306E-12, 5.0399999999999963E-12
DataValue, -0.72500000000000009, 0.05, 5.2700000000000008E-13, 1.1350000000000001E-12, -2.336E-12, 5.2700000000000008E-13, 1.1350000000000001E-12, 2.336E-12, 1.5360000000000057E-11
DataValue, -0.70000000000000007, 0.05, 2.17E-13, 1.1250000000000002E-12, -2.5460000000000003E-12, 2.17E-13, 1.1250000000000002E-12, 2.5460000000000003E-12, -1.2399999999999992E-11
DataValue, -0.675, 0.05, 5.700000000000001E-14, 8.8500000000000007E-13, -2.126E-12, 5.700000000000001E-14, 8.8500000000000007E-13, 2.126E-12, -6.3999999999999945E-12
DataValue, -0.65, 0.05, 2.7000000000000002E-14, 1.145E-12, -2.486E-12, 2.7000000000000002E-14, 1.145E-12, 2.486E-12, -1.1999999999999993E-12
DataValue, -0.625, 0.05, 1.47E-13, 1.005E-12, -2.286E-12, 1.47E-13, 1.005E-12, 2.286E-12, 4.7999999999999957E-12
DataValue, -0.6, 0.05, 1.7E-14, 1.095E-12, -2.536E-12, 1.7E-14, 1.095E-12, 2.536E-12, -5.1999999999999956E-12
DataValue, -0.57500000000000007, 0.05, -5.3E-14, 9.65E-13, -2.236E-12, 5.3E-14, 9.65E-13, 2.236E-12, 1.440000000000005E-12
DataValue, -0.55, 0.05, 1.57E-13, 9.75E-13, -2.226E-12, 1.57E-13, 9.75E-13, 2.226E-12, 4.1599999999999968E-12
DataValue, -0.525, 0.05, 3.87E-13, 1.005E-12, -2.506E-12, 3.87E-13, 1.005E-12, 2.506E-12, 9.1999999999999931E-12
DataValue, -0.5, 0.05, 3.6700000000000005E-13, 1.3050000000000002E-12, -2.716E-12, 3.6700000000000005E-13, 1.3050000000000002E-12, 2.716E-12, -7.999999999999979E-13
DataValue, -0.47500000000000003, 0.05, 1.6700000000000002E-13, 1.3150000000000002E-12, -2.5760000000000003E-12, 1.6700000000000002E-13, 1.3150000000000002E-12, 2.5760000000000003E-12, -8.0000000000000111E-12
DataValue, -0.45, 0.05, -1.4300000000000002E-13, 1.065E-12, -2.4760000000000004E-12, 1.4300000000000002E-13, 1.065E-12, 2.4760000000000004E-12, -9.5999999999999914E-13
DataValue, -0.42500000000000004, 0.05, -3.43E-13, 9.3500000000000016E-13, -2.536E-12, 3.43E-13, 9.3500000000000016E-13, 2.536E-12, 8.00000000000001E-12
DataValue, -0.4, 0.05, 3.6700000000000005E-13, 1.235E-12, -2.466E-12, 3.6700000000000005E-13, 1.235E-12, 2.466E-12, 9.6000000000000116E-13
DataValue, -0.375, 0.05, 7.27E-13, 1.1650000000000002E-12, -2.846E-12, 7.27E-13, 1.1650000000000002E-12, 2.846E-12, 1.4399999999999987E-11
DataValue, -0.35000000000000003, 0.05, 1.0270000000000002E-12, 8.8500000000000007E-13, -3.2560000000000003E-12, 1.0270000000000002E-12, 8.8500000000000007E-13, 3.2560000000000003E-12, 1.2000000000000022E-11
DataValue, -0.325, 0.05, 1.6370000000000002E-12, 1.295E-12, -4.186E-12, 1.6370000000000002E-12, 1.295E-12, 4.186E-12, 2.4399999999999978E-11
DataValue, -0.3, 0.05, 3.9870000000000007E-12, 1.0250000000000002E-12, -6.7660000000000009E-12, 3.9870000000000007E-12, 1.0250000000000002E-12, 6.7660000000000009E-12, 9.3999999999999934E-11
DataValue, -0.275, 0.05, 9.657E-12, 1.055E-12, -1.1946000000000001E-11, 9.657E-12, 1.055E-12, 1.1946000000000001E-11, 2.2680000000000029E-10
DataValue, -0.25, 0.05, 2.1887E-11, 1.0750000000000002E-12, -2.3816000000000003E-11, 2.1887E-11, 1.0750000000000002E-12, 2.3816000000000003E-11, 4.8919999999999961E-10
DataValue, -0.225, 0.05, 4.8367000000000003E-11, 1.0250000000000002E-12, -4.9776000000000006E-11, 4.8367000000000003E-11, 1.0250000000000002E-12, 4.9776000000000006E-11, 1.0592000000000002E-09
DataValue, -0.2, 0.05, 1.03277E-10, 1.1350000000000001E-12, -1.0421600000000001E-10, 1.03277E-10, 1.1350000000000001E-12, 1.0421600000000001E-10, 2.1964000000000004E-09
DataValue, -0.17500000000000002, 0.05, 2.3127700000000003E-10, 1.345E-12, -2.2783600000000003E-10, 2.3127700000000003E-10, 1.345E-12, 2.2783600000000003E-10, 5.1200000000000022E-09
DataValue, -0.15, 0.05, 4.7471700000000007E-10, 1.3250000000000001E-12, -4.71046E-10, 4.7471700000000007E-10, 1.3250000000000001E-12, 4.71046E-10, 9.7375999999999925E-09
DataValue, -0.125, 0.05, 1.023157E-09, 9.25E-13, -1.023786E-09, 1.023157E-09, 9.25E-13, 1.023786E-09, 2.1937600000000006E-08
DataValue, -0.1, 0.05, 2.04767E-09, 1.005E-12, -2.01324E-09, 2.04767E-09, 1.005E-12, 2.01324E-09, 4.098052E-08
DataValue, -0.075, 0.05, 4.11117E-09, 9.4500000000000011E-13, -4.17394E-09, 4.11117E-09, 9.4500000000000011E-13, 4.17394E-09, 8.2539999999999983E-08
DataValue, -0.05, 0.05, 7.8636699999999992E-09, 7.55E-13, -7.71524E-09, 7.8636699999999992E-09, 7.55E-13, 7.71524E-09, 1.501E-07
DataValue, -0.025, 0.05, 1.3827999999999998E-08, 1.145E-12, -1.3961399999999999E-08, 1.3827999999999998E-08, 1.145E-12, 1.3961399999999999E-08, 2.3857319999999996E-07
DataValue, 0, 0.05, 2.3429799999999998E-08, 7.8500000000000009E-13, -2.3845999999999997E-08, 2.3429799999999998E-08, 7.8500000000000009E-13, 2.3845999999999997E-08, 3.8407199999999997E-07
DataValue, 0.025, 0.05, 3.9005799999999994E-08, 1.1750000000000001E-12, -3.91996E-08, 3.9005799999999994E-08, 1.1750000000000001E-12, 3.91996E-08, 6.2303999999999984E-07
DataValue, 0.05, 0.05, 5.99538E-08, 1.245E-12, -6.03238E-08, 5.99538E-08, 1.245E-12, 6.03238E-08, 8.3792000000000008E-07
DataValue, 0.075, 0.05, 8.9970399999999986E-08, 1.4550000000000002E-12, -9.06402E-08, 8.9970399999999986E-08, 1.4550000000000002E-12, 9.06402E-08, 1.2006639999999999E-06
DataValue, 0.1, 0.05, 1.3132E-07, 1.105E-12, -1.3018E-07, 1.3132E-07, 1.105E-12, 1.3018E-07, 1.6539839999999995E-06
DataValue, 0.125, 0.05, 1.8024E-07, 1.1750000000000001E-12, -1.7809999999999999E-07, 1.8024E-07, 1.1750000000000001E-12, 1.7809999999999999E-07, 1.9568000000000013E-06
DataValue, 0.15, 0.05, 2.4325999999999997E-07, 1.1350000000000001E-12, -2.422E-07, 2.4325999999999997E-07, 1.1350000000000001E-12, 2.422E-07, 2.5207999999999992E-06
DataValue, 0.17500000000000002, 0.05, 3.0962E-07, 9.15E-13, -3.1081999999999997E-07, 3.0962E-07, 9.15E-13, 3.1081999999999997E-07, 2.6543999999999983E-06
DataValue, 0.2, 0.05, 3.9828E-07, 9.8500000000000014E-13, -3.9688E-07, 3.9828E-07, 9.8500000000000014E-13, 3.9688E-07, 3.5464000000000009E-06
DataValue, 0.225, 0.05, 4.9854E-07, 8.8500000000000007E-13, -4.9802E-07, 4.9854E-07, 8.8500000000000007E-13, 4.9802E-07, 4.0104000000000023E-06
DataValue, 0.25, 0.05, 6.0574E-07, 1.185E-12, -6.0659999999999994E-07, 6.0574E-07, 1.185E-12, 6.0659999999999994E-07, 4.2880000000000011E-06
DataValue, 0.275, 0.05, 7.3338E-07, 9.55E-13, -7.369E-07, 7.3338E-07, 9.55E-13, 7.369E-07, 5.1055999999999956E-06
DataValue, 0.3, 0.05, 8.6626E-07, 1.1350000000000001E-12, -8.6627999999999995E-07, 8.6626E-07, 1.1350000000000001E-12, 8.6627999999999995E-07, 5.3152000000000071E-06
DataValue, 0.325, 0.05, 1.01154E-06, 1.475E-12, -1.01358E-06, 1.01154E-06, 1.475E-12, 1.01358E-06, 5.8111999999999944E-06
DataValue, 0.35000000000000003, 0.05, 1.1621E-06, 9.8500000000000014E-13, -1.1666000000000002E-06, 1.1621E-06, 9.8500000000000014E-13, 1.1666000000000002E-06, 6.0223999999999968E-06
DataValue, 0.375, 0.05, 1.3541E-06, 1.245E-12, -1.3555000000000002E-06, 1.3541E-06, 1.245E-12, 1.3555000000000002E-06, 7.6800000000000112E-06
DataValue, 0.4, 0.05, 1.5361000000000002E-06, 1.095E-12, -1.5393000000000002E-06, 1.5361000000000002E-06, 1.095E-12, 1.5393000000000002E-06, 7.2799999999999981E-06
DataValue, 0.42500000000000004, 0.05, 1.7433E-06, 1.345E-12, -1.7495000000000002E-06, 1.7433E-06, 1.345E-12, 1.7495000000000002E-06, 8.2879999999999891E-06
DataValue, 0.45, 0.05, 1.9542000000000003E-06, 1.145E-12, -1.953E-06, 1.9542000000000003E-06, 1.145E-12, 1.953E-06, 8.4360000000000188E-06
DataValue, 0.47500000000000003, 0.05, 2.1966000000000003E-06, 1.205E-12, -2.1910000000000003E-06, 2.1966000000000003E-06, 1.205E-12, 2.1910000000000003E-06, 9.6959999999999915E-06
DataValue, 0.5, 0.05, 2.4503E-06, 1.0850000000000001E-12, -2.4562000000000003E-06, 2.4503E-06, 1.0850000000000001E-12, 2.4562000000000003E-06, 1.0148000000000005E-05
DataValue, 0.525, 0.05, 2.6854E-06, 8.8500000000000007E-13, -2.6837000000000002E-06, 2.6854E-06, 8.8500000000000007E-13, 2.6837000000000002E-06, 9.403999999999995E-06
DataValue, 0.55, 0.05, 2.9675000000000004E-06, 8.3500000000000008E-13, -2.9656000000000005E-06, 2.9675000000000004E-06, 8.3500000000000008E-13, 2.9656000000000005E-06, 1.1283999999999999E-05
DataValue, 0.57500000000000007, 0.05, 3.2360000000000004E-06, 7.25E-13, -3.2338000000000003E-06, 3.2360000000000004E-06, 7.25E-13, 3.2338000000000003E-06, 1.0739999999999992E-05
DataValue, 0.6, 0.05, 3.5197000000000004E-06, 1.335E-12, -3.5199000000000004E-06, 3.5197000000000004E-06, 1.335E-12, 3.5199000000000004E-06, 1.1348000000000038E-05
DataValue, 0.625, 0.05, 3.8278E-06, 1.235E-12, -3.8286E-06, 3.8278E-06, 1.235E-12, 3.8286E-06, 1.2323999999999976E-05
DataValue, 0.65, 0.05, 4.1469E-06, 1.1650000000000002E-12, -4.147E-06, 4.1469E-06, 1.1650000000000002E-12, 4.147E-06, 1.276399999999999E-05
DataValue, 0.675, 0.05, 4.4824000000000005E-06, 1.105E-12, -4.4946E-06, 4.4824000000000005E-06, 1.105E-12, 4.4946E-06, 1.3420000000000005E-05
DataValue, 0.70000000000000007, 0.05, 4.8119000000000005E-06, 9.25E-13, -4.84E-06, 4.8119000000000005E-06, 9.25E-13, 4.84E-06, 1.3179999999999987E-05
DataValue, 0.72500000000000009, 0.05, 5.1496000000000006E-06, 1.615E-12, -5.1514E-06, 5.1496000000000006E-06, 1.615E-12, 5.1514E-06, 1.3507999999999995E-05
DataValue, 0.75, 0.05, 5.5111000000000005E-06, 1.2150000000000002E-12, -5.5299E-06, 5.5111000000000005E-06, 1.2150000000000002E-12, 5.5299E-06, 1.4460000000000045E-05
DataValue, 0.775, 0.05, 5.9079000000000006E-06, 7.8500000000000009E-13, -5.9130000000000008E-06, 5.9079000000000006E-06, 7.8500000000000009E-13, 5.9130000000000008E-06, 1.5871999999999993E-05
DataValue, 0.8, 0.05, 6.2961000000000006E-06, 9.950000000000001E-13, -6.2919000000000007E-06, 6.2961000000000006E-06, 9.950000000000001E-13, 6.2919000000000007E-06, 1.5527999999999984E-05
DataValue, 0.82500000000000007, 0.05, 6.6929000000000008E-06, 1.0850000000000001E-12, -6.6935E-06, 6.6929000000000008E-06, 1.0850000000000001E-12, 6.6935E-06, 1.5871999999999993E-05
DataValue, 0.85000000000000009, 0.05, 7.141500000000001E-06, 1.0350000000000001E-12, -7.1059000000000009E-06, 7.141500000000001E-06, 1.0350000000000001E-12, 7.1059000000000009E-06, 1.7943999999999993E-05
DataValue, 0.875, 0.05, 7.5002000000000006E-06, 1.0350000000000001E-12, -7.5168000000000006E-06, 7.5002000000000006E-06, 1.0350000000000001E-12, 7.5168000000000006E-06, 1.4348000000000036E-05
DataValue, 0.9, 0.05, 7.9891000000000011E-06, 1.1350000000000001E-12, -7.9632E-06, 7.9891000000000011E-06, 1.1350000000000001E-12, 7.9632E-06, 1.9556000000000004E-05
DataValue, 0.925, 0.05, 8.4481000000000013E-06, 1.285E-12, -8.4585E-06, 8.4481000000000013E-06, 1.285E-12, 8.4585E-06, 1.835999999999999E-05
DataValue, 0.95000000000000007, 0.05, 8.9002000000000016E-06, 1.0350000000000001E-12, -8.9101000000000013E-06, 8.9002000000000016E-06, 1.0350000000000001E-12, 8.9101000000000013E-06, 1.8083999999999995E-05
DataValue, 0.97500000000000009, 0.05, 9.3265000000000013E-06, 1.255E-12, -9.3029E-06, 9.3265000000000013E-06, 1.255E-12, 9.3029E-06, 1.7051999999999972E-05
DataValue, 1, 0.05, 9.768300000000001E-06, 1.2150000000000002E-12, -9.7863000000000015E-06, 9.768300000000001E-06, 1.2150000000000002E-12, 9.7863000000000015E-06, 1.7672000000000054E-05
DataValue, 1.0250000000000001, 0.05, 1.02377E-05, 8.65E-13, -1.0255000000000001E-05, 1.02377E-05, 8.65E-13, 1.0255000000000001E-05, 1.8775999999999869E-05
