
SetupTitle, IdVg_Vd_par
PrimitiveTest, I/V Sweep
TestParameter, Context.MainFrame, B1500A
TestParameter, Channel.UnitType, SMU, SMU, SMU
TestParameter, Channel.Unit, SMU3:HR, SMU2:HR, SMU1:HR
TestParameter, Channel.IName, Id, Ig, Is
TestParameter, Channel.VName, Vd, Vg, Vs
TestParameter, Channel.Mode, V, V, V
TestParameter, Channel.Func, VAR2, VAR1, CONST
TestParameter, Channel.Index, 
TestParameter, Channel.Time, 
TestParameter, Measurement.Port.Unit, SMU3:HR, SMU2:HR, SMU1:HR
TestParameter, Measurement.Port.SeriesResistor, NONE, NONE, NONE
TestParameter, Measurement.Port.Filter, ON, ON, ON
TestParameter, Measurement.Port.OutputVoltageComparison, 0, 0, 0
TestParameter, Measurement.Primary.Locus, Double
TestParameter, Measurement.Primary.Scale, LINEAR
TestParameter, Measurement.Primary.Start, -1
TestParameter, Measurement.Primary.Stop, 2
TestParameter, Measurement.Primary.Step, 0.025
TestParameter, Measurement.Primary.Compliance, 0.1
TestParameter, Measurement.Primary.PowerCompliance, 0
TestParameter, Measurement.Aborting.Condition, STOP AT ANY ABNORMAL
TestParameter, Measurement.PostOutput.Value, START
TestParameter, Measurement.PostOutput.Retention, OFF
TestParameter, Measurement.Secondary.Start, 0.05
TestParameter, Measurement.Secondary.Count, 2
TestParameter, Measurement.Secondary.Step, 0.95000000000000007
TestParameter, Measurement.Secondary.Compliance, 0.1
TestParameter, Measurement.Secondary.PowerCompliance, 0
TestParameter, Measurement.Bias.Source, 0.05, -1, 0
TestParameter, Measurement.Bias.Compliance, 0.1, 0.1, 0.1
TestParameter, Measurement.Monitor.Unit, SMU3:HR, SMU2:HR, SMU1:HR
TestParameter, Measurement.Monitor.Adc, HR ADC, HR ADC, HR ADC
TestParameter, Measurement.Monitor.Measurement, Compliance Side, Compliance Side, Compliance Side
TestParameter, Measurement.Monitor.RangingMode, LIMITED, LIMITED, LIMITED
TestParameter, Measurement.Monitor.RangeBoundary, 1nA, 1nA, 1nA
TestParameter, Measurement.Monitor.RangeRating, BY FULL RANGE, BY FULL RANGE, BY FULL RANGE
TestParameter, Measurement.Monitor.RangeRatingCoeff, 50, 50, 50
TestParameter, Measurement.Timing.Hold, 0
TestParameter, Measurement.Timing.Delay, 0
TestParameter, Measurement.Adc.HighSpeed.Mode, AUTO
TestParameter, Measurement.Adc.HighSpeed.Coeff, 1
TestParameter, Measurement.Adc.HighResolution.AutoZero, OFF
TestParameter, Measurement.Adc.HighResolution.Mode, AUTO
TestParameter, Measurement.Adc.HighResolution.Coeff, 6
TestParameter, Measurement.WaitTime.Source.Coeff, 1
TestParameter, Measurement.WaitTime.Source.Offset, 0
TestParameter, Measurement.WaitTime.Monitor.Coeff, 1
TestParameter, Measurement.WaitTime.Monitor.Offset, 0
TestParameter, Function.User.Name, absId, absIg, absIs, gm
TestParameter, Function.User.Unit, A, A, A, S
TestParameter, Function.User.Definition, abs(Id), abs(Ig), abs(Is), diff(abs(Id))/diff(Vg)
TestParameter, Output.Graph.Enabled, true
TestParameter, Output.Graph.AutoScaling, false
TestParameter, Output.Graph.XAxis.Data, Vg
TestParameter, Output.Graph.XAxis.Scale, Linear
TestParameter, Output.Graph.XAxis.Left, -1
TestParameter, Output.Graph.XAxis.Right, 2
TestParameter, Output.Graph.XAxis.RunTimeAutoScale, false
TestParameter, Output.Graph.YAxis.Data, absId, gm, absIg, absIs
TestParameter, Output.Graph.YAxis.Scale, Log, Linear, Log, Log
TestParameter, Output.Graph.YAxis.Bottom, 1E-15, 0, 1E-15, 1E-15
TestParameter, Output.Graph.YAxis.Top, 0.001, 1, 0.001, 0.001
TestParameter, Output.Graph.YAxis.Group, , , , 
TestParameter, Output.Graph.YAxis.RunTimeAutoScale, false, true, false, false
TestParameter, Output.List.Data, Vg, Vd, Id, Is, Ig, absId, absIs, absIg, gm
TestParameter, AutoAnalysis.Interpolation, false
TestParameter, AutoAnalysis.Var2StepCount, 1
TestParameter, AutoAnalysis.Var2StepScript, 
TestParameter, AutoAnalysis.Line1.Enabled, false
TestParameter, AutoAnalysis.Line1.Type, 1
TestParameter, AutoAnalysis.Line1.Fix, True
TestParameter, AutoAnalysis.Line1.YAxis, 0
TestParameter, AutoAnalysis.Line1.Point1.Type, 0
TestParameter, AutoAnalysis.Line1.Point1.XY.X, 
TestParameter, AutoAnalysis.Line1.Point1.XY.Y, 
TestParameter, AutoAnalysis.Line1.Point1.Data.Var, 
TestParameter, AutoAnalysis.Line1.Point1.Data.Condition, 
TestParameter, AutoAnalysis.Line1.Point1.Data.Start, false
TestParameter, AutoAnalysis.Line1.Point1.Data.StartVar, 
TestParameter, AutoAnalysis.Line1.Point1.Data.StartCondition, 
TestParameter, AutoAnalysis.Line1.Point2.Type, 0
TestParameter, AutoAnalysis.Line1.Point2.XY.X, 
TestParameter, AutoAnalysis.Line1.Point2.XY.Y, 
TestParameter, AutoAnalysis.Line1.Point2.Data.Var, 
TestParameter, AutoAnalysis.Line1.Point2.Data.Condition, 
TestParameter, AutoAnalysis.Line1.Point2.Data.Start, false
TestParameter, AutoAnalysis.Line1.Point2.Data.StartVar, 
TestParameter, AutoAnalysis.Line1.Point2.Data.StartCondition, 
TestParameter, AutoAnalysis.Line1.GradientExpr, 0
TestParameter, AutoAnalysis.Line2.Enabled, false
TestParameter, AutoAnalysis.Line2.Type, 1
TestParameter, AutoAnalysis.Line2.Fix, True
TestParameter, AutoAnalysis.Line2.YAxis, 0
TestParameter, AutoAnalysis.Line2.Point1.Type, 0
TestParameter, AutoAnalysis.Line2.Point1.XY.X, 
TestParameter, AutoAnalysis.Line2.Point1.XY.Y, 
TestParameter, AutoAnalysis.Line2.Point1.Data.Var, 
TestParameter, AutoAnalysis.Line2.Point1.Data.Condition, 
TestParameter, AutoAnalysis.Line2.Point1.Data.Start, false
TestParameter, AutoAnalysis.Line2.Point1.Data.StartVar, 
TestParameter, AutoAnalysis.Line2.Point1.Data.StartCondition, 
TestParameter, AutoAnalysis.Line2.Point2.Type, 0
TestParameter, AutoAnalysis.Line2.Point2.XY.X, 
TestParameter, AutoAnalysis.Line2.Point2.XY.Y, 
TestParameter, AutoAnalysis.Line2.Point2.Data.Var, 
TestParameter, AutoAnalysis.Line2.Point2.Data.Condition, 
TestParameter, AutoAnalysis.Line2.Point2.Data.Start, false
TestParameter, AutoAnalysis.Line2.Point2.Data.StartVar, 
TestParameter, AutoAnalysis.Line2.Point2.Data.StartCondition, 
TestParameter, AutoAnalysis.Line2.GradientExpr, 0
TestParameter, AutoAnalysis.Marker.Enabled, false
TestParameter, AutoAnalysis.Marker.Data.Var, 
TestParameter, AutoAnalysis.Marker.Data.Condition, 
TestParameter, AutoAnalysis.Marker.Data.Start, false
TestParameter, AutoAnalysis.Marker.Data.StartVar, 
TestParameter, AutoAnalysis.Marker.Data.StartCondition, 
MetaData, TestRecord.EntryPoint, true
MetaData, TestRecord.RecordTime, 06/03/2025 15:09:07
MetaData, TestRecord.TestTarget, R[6]_D[5]_L[80]
MetaData, TestRecord.IterationIndex, 3
MetaData, TestRecord.Preservation, true
MetaData, TestRecord.Flag, !
MetaData, TestRecord.Remarks, 
MetaData, TestRecord.LinkKey, 632e0d00-777e-413d-82cb-284d627ec7e3
MetaData, TestRecord.Parameters, 
Dimension1, 242, 242, 242, 242, 242, 242, 242, 242, 242
Dimension2, 2, 2, 2, 2, 2, 2, 2, 2, 2
DataName, Vg, Vd, Id, Ig, Is, absId, absIg, absIs, gm
DataValue, -1, 0.05, -2.4973000000000002E-11, 2.015E-12, -8.46E-13, 2.4973000000000002E-11, 2.015E-12, 8.46E-13, 
DataValue, -0.97500000000000009, 0.05, -1.53E-13, 2.155E-12, -1.3360000000000002E-12, 1.53E-13, 2.155E-12, 1.3360000000000002E-12, -9.9280000000000364E-10
DataValue, -0.95000000000000007, 0.05, 4.5207000000000005E-11, 1.975E-12, -1.6560000000000002E-12, 4.5207000000000005E-11, 1.975E-12, 1.6560000000000002E-12, 1.8021599999999987E-09
DataValue, -0.925, 0.05, 5.0147E-11, 1.8450000000000003E-12, -2.4260000000000004E-12, 5.0147E-11, 1.8450000000000003E-12, 2.4260000000000004E-12, 1.9759999999999974E-10
DataValue, -0.9, 0.05, 2.277E-12, 1.3250000000000001E-12, -2.5260000000000003E-12, 2.277E-12, 1.3250000000000001E-12, 2.5260000000000003E-12, -1.9147999999999984E-09
DataValue, -0.875, 0.05, -4.3203E-11, 1.195E-12, -1.996E-12, 4.3203E-11, 1.195E-12, 1.996E-12, 1.6370399999999987E-09
DataValue, -0.85000000000000009, 0.05, -5.2393000000000006E-11, 1.6550000000000001E-12, -1.4260000000000002E-12, 5.2393000000000006E-11, 1.6550000000000001E-12, 1.4260000000000002E-12, 3.676000000000014E-10
DataValue, -0.82500000000000007, 0.05, -8.183000000000001E-12, 2.065E-12, -8.1600000000000006E-13, 8.183000000000001E-12, 2.065E-12, 8.1600000000000006E-13, -1.7683999999999988E-09
DataValue, -0.8, 0.05, 4.1137000000000006E-11, 2.6850000000000004E-12, -1.7160000000000002E-12, 4.1137000000000006E-11, 2.6850000000000004E-12, 1.7160000000000002E-12, 1.3181599999999991E-09
DataValue, -0.775, 0.05, 5.2877E-11, 1.6550000000000001E-12, -2.1660000000000003E-12, 5.2877E-11, 1.6550000000000001E-12, 2.1660000000000003E-12, 4.6959999999999939E-10
DataValue, -0.75, 0.05, 1.0057E-11, 9.8500000000000014E-13, -2.206E-12, 1.0057E-11, 9.8500000000000014E-13, 2.206E-12, -1.7127999999999985E-09
DataValue, -0.72500000000000009, 0.05, -3.9033000000000006E-11, 9.55E-13, -1.5860000000000001E-12, 3.9033000000000006E-11, 9.55E-13, 1.5860000000000001E-12, 1.1590400000000043E-09
DataValue, -0.70000000000000007, 0.05, -5.4083E-11, 1.245E-12, -1.3460000000000001E-12, 5.4083E-11, 1.245E-12, 1.3460000000000001E-12, 6.0199999999999927E-10
DataValue, -0.675, 0.05, -1.0653000000000002E-11, 2.0750000000000003E-12, -1.2360000000000002E-12, 1.0653000000000002E-11, 2.0750000000000003E-12, 1.2360000000000002E-12, -1.7371999999999985E-09
DataValue, -0.65, 0.05, 3.8457E-11, 2.6050000000000003E-12, -1.736E-12, 3.8457E-11, 2.6050000000000003E-12, 1.736E-12, 1.112159999999999E-09
DataValue, -0.625, 0.05, 5.4787000000000006E-11, 1.765E-12, -2.5260000000000003E-12, 5.4787000000000006E-11, 1.765E-12, 2.5260000000000003E-12, 6.5319999999999956E-10
DataValue, -0.6, 0.05, 1.2457000000000002E-11, 1.7050000000000001E-12, -2.4160000000000002E-12, 1.2457000000000002E-11, 1.7050000000000001E-12, 2.4160000000000002E-12, -1.6931999999999987E-09
DataValue, -0.57500000000000007, 0.05, -3.6853E-11, 9.0500000000000008E-13, -1.686E-12, 3.6853E-11, 9.0500000000000008E-13, 1.686E-12, 9.7584000000000353E-10
DataValue, -0.55, 0.05, -5.6303E-11, 1.4050000000000002E-12, -1.5660000000000002E-12, 5.6303E-11, 1.4050000000000002E-12, 1.5660000000000002E-12, 7.7799999999999938E-10
DataValue, -0.525, 0.05, -1.5203E-11, 2.1250000000000003E-12, -1.086E-12, 1.5203E-11, 2.1250000000000003E-12, 1.086E-12, -1.6439999999999987E-09
DataValue, -0.5, 0.05, 3.6877E-11, 2.3450000000000002E-12, -1.6160000000000002E-12, 3.6877E-11, 2.3450000000000002E-12, 1.6160000000000002E-12, 8.6695999999999925E-10
DataValue, -0.47500000000000003, 0.05, 5.5037000000000005E-11, 1.975E-12, -2.406E-12, 5.5037000000000005E-11, 1.975E-12, 2.406E-12, 7.2640000000000113E-10
DataValue, -0.45, 0.05, 1.3537000000000001E-11, 1.4950000000000002E-12, -2.2960000000000003E-12, 1.3537000000000001E-11, 1.4950000000000002E-12, 2.2960000000000003E-12, -1.6599999999999988E-09
DataValue, -0.42500000000000004, 0.05, -3.8043000000000005E-11, 9.55E-13, -2.0160000000000003E-12, 3.8043000000000005E-11, 9.55E-13, 2.0160000000000003E-12, 9.8024000000000157E-10
DataValue, -0.4, 0.05, -5.5223000000000004E-11, 1.235E-12, -1.2360000000000002E-12, 5.5223000000000004E-11, 1.235E-12, 1.2360000000000002E-12, 6.8719999999999934E-10
DataValue, -0.375, 0.05, -1.5343000000000002E-11, 2.135E-12, -1.0560000000000002E-12, 1.5343000000000002E-11, 2.135E-12, 1.0560000000000002E-12, -1.5951999999999986E-09
DataValue, -0.35000000000000003, 0.05, 3.6867000000000004E-11, 2.3750000000000003E-12, -1.786E-12, 3.6867000000000004E-11, 2.3750000000000003E-12, 1.786E-12, 8.6096000000000123E-10
DataValue, -0.325, 0.05, 5.6347000000000005E-11, 1.7050000000000001E-12, -2.5760000000000003E-12, 5.6347000000000005E-11, 1.7050000000000001E-12, 2.5760000000000003E-12, 7.7919999999999934E-10
DataValue, -0.3, 0.05, 1.8227E-11, 1.1350000000000001E-12, -2.5760000000000003E-12, 1.8227E-11, 1.1350000000000001E-12, 2.5760000000000003E-12, -1.5247999999999989E-09
DataValue, -0.275, 0.05, -3.5043E-11, 7.55E-13, -2.3660000000000002E-12, 3.5043E-11, 7.55E-13, 2.3660000000000002E-12, 6.7264000000000089E-10
DataValue, -0.25, 0.05, -5.6573000000000005E-11, 1.2650000000000002E-12, -2.136E-12, 5.6573000000000005E-11, 1.2650000000000002E-12, 2.136E-12, 8.6119999999999936E-10
DataValue, -0.225, 0.05, -1.6753E-11, 2.115E-12, -3.0260000000000002E-12, 1.6753E-11, 2.115E-12, 3.0260000000000002E-12, -1.5928000000000005E-09
DataValue, -0.2, 0.05, 3.9937E-11, 2.4750000000000003E-12, -6.2360000000000005E-12, 3.9937E-11, 2.4750000000000003E-12, 6.2360000000000005E-12, 9.273600000000002E-10
DataValue, -0.17500000000000002, 0.05, 6.7727000000000008E-11, 2.235E-12, -1.2456000000000001E-11, 6.7727000000000008E-11, 2.235E-12, 1.2456000000000001E-11, 1.1116000000000006E-09
DataValue, -0.15, 0.05, 4.3747000000000004E-11, 1.4050000000000002E-12, -2.7406000000000003E-11, 4.3747000000000004E-11, 1.4050000000000002E-12, 2.7406000000000003E-11, -9.5919999999999933E-10
DataValue, -0.125, 0.05, 2.2007E-11, 9.55E-13, -5.6756000000000004E-11, 2.2007E-11, 9.55E-13, 5.6756000000000004E-11, -8.6960000000000039E-10
DataValue, -0.1, 0.05, 6.4377E-11, 1.3250000000000001E-12, -1.1918600000000002E-10, 6.4377E-11, 1.3250000000000001E-12, 1.1918600000000002E-10, 1.6948000000000006E-09
DataValue, -0.075, 0.05, 2.3590700000000004E-10, 1.7050000000000001E-12, -2.62516E-10, 2.3590700000000004E-10, 1.7050000000000001E-12, 2.62516E-10, 6.8611999999999986E-09
DataValue, -0.05, 0.05, 5.8912700000000009E-10, 2.2250000000000003E-12, -5.5984600000000005E-10, 5.8912700000000009E-10, 2.2250000000000003E-12, 5.5984600000000005E-10, 1.4128800000000004E-08
DataValue, -0.025, 0.05, 1.13117E-09, 9.0500000000000008E-13, -1.12474E-09, 1.13117E-09, 9.0500000000000008E-13, 1.12474E-09, 2.1681719999999992E-08
DataValue, 0, 0.05, 2.21067E-09, 1.185E-12, -2.23154E-09, 2.21067E-09, 1.185E-12, 2.23154E-09, 4.3180000000000007E-08
DataValue, 0.025, 0.05, 4.18727E-09, 1.525E-12, -4.23634E-09, 4.18727E-09, 1.525E-12, 4.23634E-09, 7.9063999999999973E-08
DataValue, 0.05, 0.05, 7.67647E-09, 2.1950000000000002E-12, -7.69544E-09, 7.67647E-09, 2.1950000000000002E-12, 7.69544E-09, 1.39568E-07
DataValue, 0.075, 0.05, 1.3049199999999999E-08, 1.1250000000000002E-12, -1.2870999999999998E-08, 1.3049199999999999E-08, 1.1250000000000002E-12, 1.2870999999999998E-08, 2.1490920000000002E-07
DataValue, 0.1, 0.05, 2.0870799999999998E-08, 1.4050000000000002E-12, -2.08762E-08, 2.0870799999999998E-08, 1.4050000000000002E-12, 2.08762E-08, 3.1286399999999986E-07
DataValue, 0.125, 0.05, 3.3928199999999995E-08, 2.365E-12, -3.28036E-08, 3.3928199999999995E-08, 2.365E-12, 3.28036E-08, 5.2229600000000006E-07
DataValue, 0.15, 0.05, 5.03292E-08, 1.055E-12, -5.0182799999999996E-08, 5.03292E-08, 1.055E-12, 5.0182799999999996E-08, 6.560400000000002E-07
DataValue, 0.17500000000000002, 0.05, 7.33728E-08, 2.0250000000000004E-12, -7.309859999999999E-08, 7.33728E-08, 2.0250000000000004E-12, 7.309859999999999E-08, 9.21743999999999E-07
DataValue, 0.2, 0.05, 1.0253219999999999E-07, 1.6450000000000002E-12, -1.039364E-07, 1.0253219999999999E-07, 1.6450000000000002E-12, 1.039364E-07, 1.1663760000000002E-06
DataValue, 0.225, 0.05, 1.4378E-07, 2.155E-12, -1.4333999999999999E-07, 1.4378E-07, 2.155E-12, 1.4333999999999999E-07, 1.649912000000001E-06
DataValue, 0.25, 0.05, 1.8822E-07, 2.595E-12, -1.852E-07, 1.8822E-07, 2.595E-12, 1.852E-07, 1.7776000000000001E-06
DataValue, 0.275, 0.05, 2.451E-07, 2.465E-12, -2.4358E-07, 2.451E-07, 2.465E-12, 2.4358E-07, 2.2751999999999977E-06
DataValue, 0.3, 0.05, 3.105E-07, 2.205E-12, -3.1436E-07, 3.105E-07, 2.205E-12, 3.1436E-07, 2.616000000000003E-06
DataValue, 0.325, 0.05, 3.8708E-07, 2.1450000000000003E-12, -3.8887999999999997E-07, 3.8708E-07, 2.1450000000000003E-12, 3.8887999999999997E-07, 3.063199999999998E-06
DataValue, 0.35000000000000003, 0.05, 4.7486E-07, 2.085E-12, -4.7028E-07, 4.7486E-07, 2.085E-12, 4.7028E-07, 3.5111999999999974E-06
DataValue, 0.375, 0.05, 5.6327999999999995E-07, 2.105E-12, -5.6635999999999994E-07, 5.6327999999999995E-07, 2.105E-12, 5.6635999999999994E-07, 3.5368000000000023E-06
DataValue, 0.4, 0.05, 6.7182E-07, 1.525E-12, -6.6925999999999995E-07, 6.7182E-07, 1.525E-12, 6.6925999999999995E-07, 4.3415999999999975E-06
DataValue, 0.42500000000000004, 0.05, 7.9492E-07, 1.7050000000000001E-12, -7.9324E-07, 7.9492E-07, 1.7050000000000001E-12, 7.9324E-07, 4.9239999999999972E-06
DataValue, 0.45, 0.05, 9.2252E-07, 1.7850000000000002E-12, -9.2782E-07, 9.2252E-07, 1.7850000000000002E-12, 9.2782E-07, 5.1040000000000048E-06
DataValue, 0.47500000000000003, 0.05, 1.0655E-06, 1.535E-12, -1.06158E-06, 1.0655E-06, 1.535E-12, 1.06158E-06, 5.719199999999996E-06
DataValue, 0.5, 0.05, 1.1994000000000001E-06, 1.6550000000000001E-12, -1.1865000000000002E-06, 1.1994000000000001E-06, 1.6550000000000001E-12, 1.1865000000000002E-06, 5.3560000000000111E-06
DataValue, 0.525, 0.05, 1.3597E-06, 1.255E-12, -1.3661000000000001E-06, 1.3597E-06, 1.255E-12, 1.3661000000000001E-06, 6.411999999999993E-06
DataValue, 0.55, 0.05, 1.5311000000000003E-06, 1.015E-12, -1.5236000000000001E-06, 1.5311000000000003E-06, 1.015E-12, 1.5236000000000001E-06, 6.8560000000000009E-06
DataValue, 0.57500000000000007, 0.05, 1.7242000000000002E-06, 1.4450000000000002E-12, -1.7173000000000003E-06, 1.7242000000000002E-06, 1.4450000000000002E-12, 1.7173000000000003E-06, 7.7239999999999891E-06
DataValue, 0.6, 0.05, 1.9099E-06, 1.755E-12, -1.9047000000000002E-06, 1.9099E-06, 1.755E-12, 1.9047000000000002E-06, 7.4280000000000253E-06
DataValue, 0.625, 0.05, 2.1162E-06, 1.6950000000000002E-12, -2.0992E-06, 2.1162E-06, 1.6950000000000002E-12, 2.0992E-06, 8.2519999999999949E-06
DataValue, 0.65, 0.05, 2.3281E-06, 1.665E-12, -2.3298E-06, 2.3281E-06, 1.665E-12, 2.3298E-06, 8.4759999999999947E-06
DataValue, 0.675, 0.05, 2.5728E-06, 2.215E-12, -2.5825000000000003E-06, 2.5728E-06, 2.215E-12, 2.5825000000000003E-06, 9.78799999999999E-06
DataValue, 0.70000000000000007, 0.05, 2.8327000000000004E-06, 2.2450000000000002E-12, -2.8241E-06, 2.8327000000000004E-06, 2.2450000000000002E-12, 2.8241E-06, 1.0396000000000002E-05
DataValue, 0.72500000000000009, 0.05, 3.0793000000000003E-06, 2.565E-12, -3.0895000000000002E-06, 3.0793000000000003E-06, 2.565E-12, 3.0895000000000002E-06, 9.8639999999999872E-06
DataValue, 0.75, 0.05, 3.3491000000000003E-06, 1.7450000000000001E-12, -3.3372000000000004E-06, 3.3491000000000003E-06, 1.7450000000000001E-12, 3.3372000000000004E-06, 1.0792000000000037E-05
DataValue, 0.775, 0.05, 3.6212E-06, 1.7450000000000001E-12, -3.6145000000000003E-06, 3.6212E-06, 1.7450000000000001E-12, 3.6145000000000003E-06, 1.0883999999999986E-05
DataValue, 0.8, 0.05, 3.9130000000000005E-06, 1.385E-12, -3.9224000000000008E-06, 3.9130000000000005E-06, 1.385E-12, 3.9224000000000008E-06, 1.1672000000000003E-05
DataValue, 0.82500000000000007, 0.05, 4.2066000000000005E-06, 1.295E-12, -4.2114E-06, 4.2066000000000005E-06, 1.295E-12, 4.2114E-06, 1.1743999999999991E-05
DataValue, 0.85000000000000009, 0.05, 4.5341E-06, 9.3500000000000016E-13, -4.5312000000000008E-06, 4.5341E-06, 9.3500000000000016E-13, 4.5312000000000008E-06, 1.3099999999999981E-05
DataValue, 0.875, 0.05, 4.8552000000000005E-06, 1.1750000000000001E-12, -4.8228000000000006E-06, 4.8552000000000005E-06, 1.1750000000000001E-12, 4.8228000000000006E-06, 1.2844000000000054E-05
DataValue, 0.9, 0.05, 5.1705000000000007E-06, 1.5150000000000001E-12, -5.1550000000000006E-06, 5.1705000000000007E-06, 1.5150000000000001E-12, 5.1550000000000006E-06, 1.2611999999999996E-05
DataValue, 0.925, 0.05, 5.4764000000000006E-06, 1.905E-12, -5.4635E-06, 5.4764000000000006E-06, 1.905E-12, 5.4635E-06, 1.2235999999999986E-05
DataValue, 0.95000000000000007, 0.05, 5.8446000000000008E-06, 1.9150000000000002E-12, -5.8326000000000007E-06, 5.8446000000000008E-06, 1.9150000000000002E-12, 5.8326000000000007E-06, 1.4727999999999992E-05
DataValue, 0.97500000000000009, 0.05, 6.2067E-06, 2.265E-12, -6.197800000000001E-06, 6.2067E-06, 2.265E-12, 6.197800000000001E-06, 1.4483999999999965E-05
