
SetupTitle, IdVg_Vd_par
PrimitiveTest, I/V Sweep
TestParameter, Context.MainFrame, B1500A
TestParameter, Channel.UnitType, SMU, SMU, SMU
TestParameter, Channel.Unit, SMU3:HR, SMU2:HR, SMU1:HR
TestParameter, Channel.IName, Id, Ig, Is
TestParameter, Channel.VName, Vd, Vg, Vs
TestParameter, Channel.Mode, V, V, V
TestParameter, Channel.Func, VAR2, VAR1, CONST
TestParameter, Channel.Index, 
TestParameter, Channel.Time, 
TestParameter, Measurement.Port.Unit, SMU3:HR, SMU2:HR, SMU1:HR
TestParameter, Measurement.Port.SeriesResistor, NONE, NONE, NONE
TestParameter, Measurement.Port.Filter, ON, ON, ON
TestParameter, Measurement.Port.OutputVoltageComparison, 0, 0, 0
TestParameter, Measurement.Primary.Locus, Double
TestParameter, Measurement.Primary.Scale, LINEAR
TestParameter, Measurement.Primary.Start, -1
TestParameter, Measurement.Primary.Stop, 2
TestParameter, Measurement.Primary.Step, 0.025
TestParameter, Measurement.Primary.Compliance, 0.1
TestParameter, Measurement.Primary.PowerCompliance, 0
TestParameter, Measurement.Aborting.Condition, STOP AT ANY ABNORMAL
TestParameter, Measurement.PostOutput.Value, START
TestParameter, Measurement.PostOutput.Retention, OFF
TestParameter, Measurement.Secondary.Start, 0.05
TestParameter, Measurement.Secondary.Count, 2
TestParameter, Measurement.Secondary.Step, 0.95000000000000007
TestParameter, Measurement.Secondary.Compliance, 0.1
TestParameter, Measurement.Secondary.PowerCompliance, 0
TestParameter, Measurement.Bias.Source, 0.05, -1, 0
TestParameter, Measurement.Bias.Compliance, 0.1, 0.1, 0.1
TestParameter, Measurement.Monitor.Unit, SMU3:HR, SMU2:HR, SMU1:HR
TestParameter, Measurement.Monitor.Adc, HR ADC, HR ADC, HR ADC
TestParameter, Measurement.Monitor.Measurement, Compliance Side, Compliance Side, Compliance Side
TestParameter, Measurement.Monitor.RangingMode, LIMITED, LIMITED, LIMITED
TestParameter, Measurement.Monitor.RangeBoundary, 1nA, 1nA, 1nA
TestParameter, Measurement.Monitor.RangeRating, BY FULL RANGE, BY FULL RANGE, BY FULL RANGE
TestParameter, Measurement.Monitor.RangeRatingCoeff, 50, 50, 50
TestParameter, Measurement.Timing.Hold, 0
TestParameter, Measurement.Timing.Delay, 0
TestParameter, Measurement.Adc.HighSpeed.Mode, AUTO
TestParameter, Measurement.Adc.HighSpeed.Coeff, 1
TestParameter, Measurement.Adc.HighResolution.AutoZero, OFF
TestParameter, Measurement.Adc.HighResolution.Mode, AUTO
TestParameter, Measurement.Adc.HighResolution.Coeff, 6
TestParameter, Measurement.WaitTime.Source.Coeff, 1
TestParameter, Measurement.WaitTime.Source.Offset, 0
TestParameter, Measurement.WaitTime.Monitor.Coeff, 1
TestParameter, Measurement.WaitTime.Monitor.Offset, 0
TestParameter, Function.User.Name, absId, absIg, absIs, gm
TestParameter, Function.User.Unit, A, A, A, S
TestParameter, Function.User.Definition, abs(Id), abs(Ig), abs(Is), diff(abs(Id))/diff(Vg)
TestParameter, Output.Graph.Enabled, true
TestParameter, Output.Graph.AutoScaling, false
TestParameter, Output.Graph.XAxis.Data, Vg
TestParameter, Output.Graph.XAxis.Scale, Linear
TestParameter, Output.Graph.XAxis.Left, -1
TestParameter, Output.Graph.XAxis.Right, 2
TestParameter, Output.Graph.XAxis.RunTimeAutoScale, false
TestParameter, Output.Graph.YAxis.Data, absId, gm, absIg, absIs
TestParameter, Output.Graph.YAxis.Scale, Log, Linear, Log, Log
TestParameter, Output.Graph.YAxis.Bottom, 1E-15, 0, 1E-15, 1E-15
TestParameter, Output.Graph.YAxis.Top, 0.001, 1, 0.001, 0.001
TestParameter, Output.Graph.YAxis.Group, , , , 
TestParameter, Output.Graph.YAxis.RunTimeAutoScale, false, true, false, false
TestParameter, Output.List.Data, Vg, Vd, Id, Is, Ig, absId, absIs, absIg, gm
TestParameter, AutoAnalysis.Interpolation, false
TestParameter, AutoAnalysis.Var2StepCount, 1
TestParameter, AutoAnalysis.Var2StepScript, 
TestParameter, AutoAnalysis.Line1.Enabled, false
TestParameter, AutoAnalysis.Line1.Type, 1
TestParameter, AutoAnalysis.Line1.Fix, True
TestParameter, AutoAnalysis.Line1.YAxis, 0
TestParameter, AutoAnalysis.Line1.Point1.Type, 0
TestParameter, AutoAnalysis.Line1.Point1.XY.X, 
TestParameter, AutoAnalysis.Line1.Point1.XY.Y, 
TestParameter, AutoAnalysis.Line1.Point1.Data.Var, 
TestParameter, AutoAnalysis.Line1.Point1.Data.Condition, 
TestParameter, AutoAnalysis.Line1.Point1.Data.Start, false
TestParameter, AutoAnalysis.Line1.Point1.Data.StartVar, 
TestParameter, AutoAnalysis.Line1.Point1.Data.StartCondition, 
TestParameter, AutoAnalysis.Line1.Point2.Type, 0
TestParameter, AutoAnalysis.Line1.Point2.XY.X, 
TestParameter, AutoAnalysis.Line1.Point2.XY.Y, 
TestParameter, AutoAnalysis.Line1.Point2.Data.Var, 
TestParameter, AutoAnalysis.Line1.Point2.Data.Condition, 
TestParameter, AutoAnalysis.Line1.Point2.Data.Start, false
TestParameter, AutoAnalysis.Line1.Point2.Data.StartVar, 
TestParameter, AutoAnalysis.Line1.Point2.Data.StartCondition, 
TestParameter, AutoAnalysis.Line1.GradientExpr, 0
TestParameter, AutoAnalysis.Line2.Enabled, false
TestParameter, AutoAnalysis.Line2.Type, 1
TestParameter, AutoAnalysis.Line2.Fix, True
TestParameter, AutoAnalysis.Line2.YAxis, 0
TestParameter, AutoAnalysis.Line2.Point1.Type, 0
TestParameter, AutoAnalysis.Line2.Point1.XY.X, 
TestParameter, AutoAnalysis.Line2.Point1.XY.Y, 
TestParameter, AutoAnalysis.Line2.Point1.Data.Var, 
TestParameter, AutoAnalysis.Line2.Point1.Data.Condition, 
TestParameter, AutoAnalysis.Line2.Point1.Data.Start, false
TestParameter, AutoAnalysis.Line2.Point1.Data.StartVar, 
TestParameter, AutoAnalysis.Line2.Point1.Data.StartCondition, 
TestParameter, AutoAnalysis.Line2.Point2.Type, 0
TestParameter, AutoAnalysis.Line2.Point2.XY.X, 
TestParameter, AutoAnalysis.Line2.Point2.XY.Y, 
TestParameter, AutoAnalysis.Line2.Point2.Data.Var, 
TestParameter, AutoAnalysis.Line2.Point2.Data.Condition, 
TestParameter, AutoAnalysis.Line2.Point2.Data.Start, false
TestParameter, AutoAnalysis.Line2.Point2.Data.StartVar, 
TestParameter, AutoAnalysis.Line2.Point2.Data.StartCondition, 
TestParameter, AutoAnalysis.Line2.GradientExpr, 0
TestParameter, AutoAnalysis.Marker.Enabled, false
TestParameter, AutoAnalysis.Marker.Data.Var, 
TestParameter, AutoAnalysis.Marker.Data.Condition, 
TestParameter, AutoAnalysis.Marker.Data.Start, false
TestParameter, AutoAnalysis.Marker.Data.StartVar, 
TestParameter, AutoAnalysis.Marker.Data.StartCondition, 
MetaData, TestRecord.EntryPoint, true
MetaData, TestRecord.RecordTime, 06/03/2025 16:14:25
MetaData, TestRecord.TestTarget, R[6]_D[6]_L[500]
MetaData, TestRecord.IterationIndex, 2
MetaData, TestRecord.Preservation, true
MetaData, TestRecord.Flag, !
MetaData, TestRecord.Remarks, 
MetaData, TestRecord.LinkKey, fabefe1a-8693-4652-8a1c-4d67a70dbe71
MetaData, TestRecord.Parameters, 
Dimension1, 242, 242, 242, 242, 242, 242, 242, 242, 242
Dimension2, 2, 2, 2, 2, 2, 2, 2, 2, 2
DataName, Vg, Vd, Id, Ig, Is, absId, absIg, absIs, gm
DataValue, -1, 0.05, 2.67E-13, 1.485E-12, -1.256E-12, 2.67E-13, 1.485E-12, 1.256E-12, 
DataValue, -0.97500000000000009, 0.05, -2.33E-13, 1.6450000000000002E-12, -1.2860000000000002E-12, 2.33E-13, 1.6450000000000002E-12, 1.2860000000000002E-12, -1.3600000000000051E-12
DataValue, -0.95000000000000007, 0.05, 1.77E-13, 1.5550000000000001E-12, -1.5760000000000002E-12, 1.77E-13, 1.5550000000000001E-12, 1.5760000000000002E-12, -2.2399999999999985E-12
DataValue, -0.925, 0.05, 2.37E-13, 1.5050000000000002E-12, -1.786E-12, 2.37E-13, 1.5050000000000002E-12, 1.786E-12, 2.3999999999999979E-12
DataValue, -0.9, 0.05, 1.17E-13, 1.6950000000000002E-12, -1.5760000000000002E-12, 1.17E-13, 1.6950000000000002E-12, 1.5760000000000002E-12, -4.7999999999999957E-12
DataValue, -0.875, 0.05, -1.53E-13, 1.525E-12, -2.0660000000000003E-12, 1.53E-13, 1.525E-12, 2.0660000000000003E-12, 1.4399999999999987E-12
DataValue, -0.85000000000000009, 0.05, 5.700000000000001E-14, 1.715E-12, -1.416E-12, 5.700000000000001E-14, 1.715E-12, 1.416E-12, -3.8400000000000135E-12
DataValue, -0.82500000000000007, 0.05, 1.17E-13, 1.345E-12, -1.6660000000000002E-12, 1.17E-13, 1.345E-12, 1.6660000000000002E-12, 2.3999999999999979E-12
DataValue, -0.8, 0.05, 3.7E-14, 1.4550000000000002E-12, -1.366E-12, 3.7E-14, 1.4550000000000002E-12, 1.366E-12, -3.1999999999999977E-12
DataValue, -0.775, 0.05, -2.83E-13, 1.485E-12, -1.7260000000000001E-12, 2.83E-13, 1.485E-12, 1.7260000000000001E-12, 9.839999999999992E-12
DataValue, -0.75, 0.05, 3.07E-13, 1.835E-12, -1.6760000000000001E-12, 3.07E-13, 1.835E-12, 1.6760000000000001E-12, 9.5999999999999914E-13
DataValue, -0.72500000000000009, 0.05, -2.1300000000000003E-13, 1.8450000000000003E-12, -1.5660000000000002E-12, 2.1300000000000003E-13, 1.8450000000000003E-12, 1.5660000000000002E-12, -3.7600000000000123E-12
DataValue, -0.70000000000000007, 0.05, 1.87E-13, 1.535E-12, -1.906E-12, 1.87E-13, 1.535E-12, 1.906E-12, -1.0399999999999996E-12
DataValue, -0.675, 0.05, -1.4300000000000002E-13, 1.855E-12, -1.7060000000000002E-12, 1.4300000000000002E-13, 1.855E-12, 1.7060000000000002E-12, -1.759999999999998E-12
DataValue, -0.65, 0.05, -1.83E-13, 1.425E-12, -1.6660000000000002E-12, 1.83E-13, 1.425E-12, 1.6660000000000002E-12, 1.5999999999999978E-12
DataValue, -0.625, 0.05, 8.7000000000000008E-14, 1.825E-12, -1.786E-12, 8.7000000000000008E-14, 1.825E-12, 1.786E-12, -3.8399999999999966E-12
DataValue, -0.6, 0.05, -6.3000000000000009E-14, 1.5450000000000002E-12, -1.7760000000000001E-12, 6.3000000000000009E-14, 1.5450000000000002E-12, 1.7760000000000001E-12, -9.5999999999999914E-13
DataValue, -0.57500000000000007, 0.05, -3.0000000000000002E-15, 1.8450000000000003E-12, -1.6560000000000002E-12, 3.0000000000000002E-15, 1.8450000000000003E-12, 1.6560000000000002E-12, -2.4000000000000088E-12
DataValue, -0.55, 0.05, -1.93E-13, 1.615E-12, -1.506E-12, 1.93E-13, 1.615E-12, 1.506E-12, 7.5999999999999935E-12
DataValue, -0.525, 0.05, -8.23E-13, 9.950000000000001E-13, -1.896E-12, 8.23E-13, 9.950000000000001E-13, 1.896E-12, 2.5199999999999978E-11
DataValue, -0.5, 0.05, 1.3700000000000002E-13, 1.5050000000000002E-12, -1.5760000000000002E-12, 1.3700000000000002E-13, 1.5050000000000002E-12, 1.5760000000000002E-12, -2.7439999999999975E-11
DataValue, -0.47500000000000003, 0.05, 3.7E-14, 1.3550000000000002E-12, -1.686E-12, 3.7E-14, 1.3550000000000002E-12, 1.686E-12, -4.0000000000000064E-12
DataValue, -0.45, 0.05, 1.7E-14, 1.675E-12, -1.9160000000000003E-12, 1.7E-14, 1.675E-12, 1.9160000000000003E-12, -7.9999999999999932E-13
DataValue, -0.42500000000000004, 0.05, -4.23E-13, 1.7250000000000002E-12, -1.5160000000000002E-12, 4.23E-13, 1.7250000000000002E-12, 1.5160000000000002E-12, 1.6240000000000023E-11
DataValue, -0.4, 0.05, -4.63E-13, 1.6950000000000002E-12, -1.956E-12, 4.63E-13, 1.6950000000000002E-12, 1.956E-12, 1.5999999999999999E-12
DataValue, -0.375, 0.05, -2.43E-13, 1.3550000000000002E-12, -1.5360000000000001E-12, 2.43E-13, 1.3550000000000002E-12, 1.5360000000000001E-12, -8.7999999999999932E-12
DataValue, -0.35000000000000003, 0.05, 3.4700000000000004E-13, 2.0450000000000003E-12, -1.946E-12, 3.4700000000000004E-13, 2.0450000000000003E-12, 1.946E-12, 4.1600000000000057E-12
DataValue, -0.325, 0.05, 1.57E-13, 1.5550000000000001E-12, -1.8360000000000003E-12, 1.57E-13, 1.5550000000000001E-12, 1.8360000000000003E-12, -7.5999999999999935E-12
DataValue, -0.3, 0.05, -3.63E-13, 1.625E-12, -1.556E-12, 3.63E-13, 1.625E-12, 1.556E-12, 8.2399999999999924E-12
DataValue, -0.275, 0.05, -1.63E-13, 1.4450000000000002E-12, -1.636E-12, 1.63E-13, 1.4450000000000002E-12, 1.636E-12, -8.0000000000000111E-12
DataValue, -0.25, 0.05, -2.83E-13, 1.6950000000000002E-12, -2.0960000000000004E-12, 2.83E-13, 1.6950000000000002E-12, 2.0960000000000004E-12, 4.7999999999999957E-12
DataValue, -0.225, 0.05, -3.3300000000000005E-13, 1.3050000000000002E-12, -1.7660000000000002E-12, 3.3300000000000005E-13, 1.3050000000000002E-12, 1.7660000000000002E-12, 2.000000000000002E-12
DataValue, -0.2, 0.05, 3.87E-13, 1.4650000000000001E-12, -1.9360000000000002E-12, 3.87E-13, 1.4650000000000001E-12, 1.9360000000000002E-12, 2.1599999999999993E-12
DataValue, -0.17500000000000002, 0.05, -9.3000000000000008E-14, 1.8450000000000003E-12, -1.7760000000000001E-12, 9.3000000000000008E-14, 1.8450000000000003E-12, 1.7760000000000001E-12, -1.1760000000000003E-11
DataValue, -0.15, 0.05, 4.87E-13, 1.475E-12, -1.5660000000000002E-12, 4.87E-13, 1.475E-12, 1.5660000000000002E-12, 1.5759999999999986E-11
DataValue, -0.125, 0.05, 9.7E-14, 1.3050000000000002E-12, -1.8660000000000003E-12, 9.7E-14, 1.3050000000000002E-12, 1.8660000000000003E-12, -1.5600000000000006E-11
DataValue, -0.1, 0.05, -2.0300000000000002E-13, 1.6050000000000001E-12, -1.976E-12, 2.0300000000000002E-13, 1.6050000000000001E-12, 1.976E-12, 4.2400000000000013E-12
DataValue, -0.075, 0.05, -2.5300000000000003E-13, 1.115E-12, -2.006E-12, 2.5300000000000003E-13, 1.115E-12, 2.006E-12, 2E-12
DataValue, -0.05, 0.05, -2.3000000000000003E-14, 1.395E-12, -1.4760000000000002E-12, 2.3000000000000003E-14, 1.395E-12, 1.4760000000000002E-12, -9.2000000000000028E-12
DataValue, -0.025, 0.05, 2.47E-13, 1.255E-12, -1.896E-12, 2.47E-13, 1.255E-12, 1.896E-12, 8.959999999999999E-12
DataValue, 0, 0.05, 6.7E-14, 1.7850000000000002E-12, -1.7060000000000002E-12, 6.7E-14, 1.7850000000000002E-12, 1.7060000000000002E-12, -7.1999999999999992E-12
DataValue, 0.025, 0.05, 3.77E-13, 1.485E-12, -2.1460000000000003E-12, 3.77E-13, 1.485E-12, 2.1460000000000003E-12, 1.2399999999999999E-11
DataValue, 0.05, 0.05, 6.77E-13, 1.6050000000000001E-12, -2.4760000000000004E-12, 6.77E-13, 1.6050000000000001E-12, 2.4760000000000004E-12, 1.2E-11
DataValue, 0.075, 0.05, 1.9570000000000002E-12, 1.765E-12, -3.4660000000000004E-12, 1.9570000000000002E-12, 1.765E-12, 3.4660000000000004E-12, 5.1200000000000021E-11
DataValue, 0.1, 0.05, 4.6870000000000005E-12, 1.385E-12, -6.6660000000000009E-12, 4.6870000000000005E-12, 1.385E-12, 6.6660000000000009E-12, 1.0919999999999997E-10
DataValue, 0.125, 0.05, 1.2017000000000001E-11, 2.115E-12, -1.3306000000000002E-11, 1.2017000000000001E-11, 2.115E-12, 1.3306000000000002E-11, 2.9320000000000008E-10
DataValue, 0.15, 0.05, 2.8797000000000003E-11, 1.6550000000000001E-12, -3.0896E-11, 2.8797000000000003E-11, 1.6550000000000001E-12, 3.0896E-11, 6.7120000000000023E-10
DataValue, 0.17500000000000002, 0.05, 7.0137E-11, 1.7750000000000002E-12, -7.200600000000001E-11, 7.0137E-11, 1.7750000000000002E-12, 7.200600000000001E-11, 1.6535999999999983E-09
DataValue, 0.2, 0.05, 1.6316700000000002E-10, 1.7750000000000002E-12, -1.6618600000000001E-10, 1.6316700000000002E-10, 1.7750000000000002E-12, 1.6618600000000001E-10, 3.7212000000000012E-09
DataValue, 0.225, 0.05, 3.7795700000000003E-10, 1.6950000000000002E-12, -3.76936E-10, 3.7795700000000003E-10, 1.6950000000000002E-12, 3.76936E-10, 8.5916000000000033E-09
DataValue, 0.25, 0.05, 8.04797E-10, 1.565E-12, -8.036360000000001E-10, 8.04797E-10, 1.565E-12, 8.036360000000001E-10, 1.7073600000000003E-08
DataValue, 0.275, 0.05, 1.57987E-09, 1.425E-12, -1.56364E-09, 1.57987E-09, 1.425E-12, 1.56364E-09, 3.1002919999999971E-08
DataValue, 0.3, 0.05, 2.95597E-09, 1.925E-12, -2.96314E-09, 2.95597E-09, 1.925E-12, 2.96314E-09, 5.5044000000000073E-08
DataValue, 0.325, 0.05, 5.24817E-09, 1.4550000000000002E-12, -5.23524E-09, 5.24817E-09, 1.4550000000000002E-12, 5.23524E-09, 9.16879999999999E-08
DataValue, 0.35000000000000003, 0.05, 8.65597E-09, 1.855E-12, -8.64034E-09, 8.65597E-09, 1.855E-12, 8.64034E-09, 1.363119999999999E-07
DataValue, 0.375, 0.05, 1.3409999999999999E-08, 1.755E-12, -1.3331399999999999E-08, 1.3409999999999999E-08, 1.755E-12, 1.3331399999999999E-08, 1.901612000000002E-07
DataValue, 0.4, 0.05, 1.9662799999999998E-08, 1.485E-12, -1.9514399999999997E-08, 1.9662799999999998E-08, 1.485E-12, 1.9514399999999997E-08, 2.5011199999999975E-07
DataValue, 0.42500000000000004, 0.05, 2.762E-08, 1.6950000000000002E-12, -2.7646399999999997E-08, 2.762E-08, 1.6950000000000002E-12, 2.7646399999999997E-08, 3.1828799999999976E-07
DataValue, 0.45, 0.05, 3.75442E-08, 1.535E-12, -3.7656599999999996E-08, 3.75442E-08, 1.535E-12, 3.7656599999999996E-08, 3.9696800000000057E-07
DataValue, 0.47500000000000003, 0.05, 4.9886399999999996E-08, 1.2750000000000001E-12, -4.9800599999999995E-08, 4.9886399999999996E-08, 1.2750000000000001E-12, 4.9800599999999995E-08, 4.9368799999999938E-07
DataValue, 0.5, 0.05, 6.40278E-08, 1.665E-12, -6.40124E-08, 6.40278E-08, 1.665E-12, 6.40124E-08, 5.6565600000000084E-07
DataValue, 0.525, 0.05, 8.0357799999999987E-08, 1.2750000000000001E-12, -8.03362E-08, 8.0357799999999987E-08, 1.2750000000000001E-12, 8.03362E-08, 6.53199999999999E-07
DataValue, 0.55, 0.05, 9.88056E-08, 1.7950000000000001E-12, -9.875E-08, 9.88056E-08, 1.7950000000000001E-12, 9.875E-08, 7.3791199999999976E-07
DataValue, 0.57500000000000007, 0.05, 1.1938E-07, 1.3050000000000002E-12, -1.1906E-07, 1.1938E-07, 1.3050000000000002E-12, 1.1906E-07, 8.2297599999999944E-07
DataValue, 0.6, 0.05, 1.4234E-07, 1.245E-12, -1.423E-07, 1.4234E-07, 1.245E-12, 1.423E-07, 9.1840000000000282E-07
DataValue, 0.625, 0.05, 1.6808E-07, 1.7250000000000002E-12, -1.6819999999999998E-07, 1.6808E-07, 1.7250000000000002E-12, 1.6819999999999998E-07, 1.0295999999999999E-06
DataValue, 0.65, 0.05, 1.967E-07, 1.5150000000000001E-12, -1.9676E-07, 1.967E-07, 1.5150000000000001E-12, 1.9676E-07, 1.144799999999999E-06
DataValue, 0.675, 0.05, 2.2728E-07, 1.3150000000000002E-12, -2.2706E-07, 2.2728E-07, 1.3150000000000002E-12, 2.2706E-07, 1.2231999999999989E-06
DataValue, 0.70000000000000007, 0.05, 2.599E-07, 1.4550000000000002E-12, -2.5944E-07, 2.599E-07, 1.4550000000000002E-12, 2.5944E-07, 1.3047999999999983E-06
DataValue, 0.72500000000000009, 0.05, 2.9604E-07, 1.435E-12, -2.9482E-07, 2.9604E-07, 1.435E-12, 2.9482E-07, 1.4455999999999989E-06
DataValue, 0.75, 0.05, 3.3418E-07, 1.7250000000000002E-12, -3.334E-07, 3.3418E-07, 1.7250000000000002E-12, 3.334E-07, 1.5256000000000054E-06
DataValue, 0.775, 0.05, 3.7442E-07, 1.4450000000000002E-12, -3.7362E-07, 3.7442E-07, 1.4450000000000002E-12, 3.7362E-07, 1.6095999999999983E-06
DataValue, 0.8, 0.05, 4.1692E-07, 1.625E-12, -4.158E-07, 4.1692E-07, 1.625E-12, 4.158E-07, 1.6999999999999992E-06
DataValue, 0.82500000000000007, 0.05, 4.6249999999999997E-07, 1.7750000000000002E-12, -4.6182E-07, 4.6249999999999997E-07, 1.7750000000000002E-12, 4.6182E-07, 1.8231999999999968E-06
DataValue, 0.85000000000000009, 0.05, 5.109E-07, 1.3550000000000002E-12, -5.1104E-07, 5.109E-07, 1.3550000000000002E-12, 5.1104E-07, 1.9359999999999976E-06
DataValue, 0.875, 0.05, 5.608E-07, 1.8450000000000003E-12, -5.6018E-07, 5.608E-07, 1.8450000000000003E-12, 5.6018E-07, 1.9960000000000089E-06
DataValue, 0.9, 0.05, 6.1468E-07, 1.8950000000000003E-12, -6.148E-07, 6.1468E-07, 1.8950000000000003E-12, 6.148E-07, 2.155199999999998E-06
DataValue, 0.925, 0.05, 6.704E-07, 1.575E-12, -6.7092E-07, 6.704E-07, 1.575E-12, 6.7092E-07, 2.2287999999999968E-06
DataValue, 0.95000000000000007, 0.05, 7.2882E-07, 1.835E-12, -7.2896E-07, 7.2882E-07, 1.835E-12, 7.2896E-07, 2.3368000000000006E-06
DataValue, 0.97500000000000009, 0.05, 7.9063999999999994E-07, 1.5550000000000001E-12, -7.9098E-07, 7.9063999999999994E-07, 1.5550000000000001E-12, 7.9098E-07, 2.4727999999999939E-06
DataValue, 1, 0.05, 8.5686E-07, 1.6850000000000002E-12, -8.5672E-07, 8.5686E-07, 1.6850000000000002E-12, 8.5672E-07, 2.64880000000001E-06
DataValue, 1.0250000000000001, 0.05, 9.2288E-07, 1.4550000000000002E-12, -9.23E-07, 9.2288E-07, 1.4550000000000002E-12, 9.23E-07, 2.6407999999999862E-06
DataValue, 1.05, 0.05, 9.9092E-07, 1.8950000000000003E-12, -9.9354E-07, 9.9092E-07, 1.8950000000000003E-12, 9.9354E-07, 2.7216000000000126E-06
DataValue, 1.075, 0.05, 1.06378E-06, 1.925E-12, -1.06416E-06, 1.06378E-06, 1.925E-12, 1.06416E-06, 2.9144000000000072E-06
DataValue, 1.1, 0.05, 1.13792E-06, 1.625E-12, -1.13924E-06, 1.13792E-06, 1.625E-12, 1.13924E-06, 2.9655999999999886E-06
