
SetupTitle, IdVg_Vd_par
PrimitiveTest, I/V Sweep
TestParameter, Context.MainFrame, B1500A
TestParameter, Channel.UnitType, SMU, SMU, SMU
TestParameter, Channel.Unit, SMU3:HR, SMU2:HR, SMU1:HR
TestParameter, Channel.IName, Id, Ig, Is
TestParameter, Channel.VName, Vd, Vg, Vs
TestParameter, Channel.Mode, V, V, V
TestParameter, Channel.Func, VAR2, VAR1, CONST
TestParameter, Channel.Index, 
TestParameter, Channel.Time, 
TestParameter, Measurement.Port.Unit, SMU3:HR, SMU2:HR, SMU1:HR
TestParameter, Measurement.Port.SeriesResistor, NONE, NONE, NONE
TestParameter, Measurement.Port.Filter, ON, ON, ON
TestParameter, Measurement.Port.OutputVoltageComparison, 0, 0, 0
TestParameter, Measurement.Primary.Locus, Double
TestParameter, Measurement.Primary.Scale, LINEAR
TestParameter, Measurement.Primary.Start, -1
TestParameter, Measurement.Primary.Stop, 2
TestParameter, Measurement.Primary.Step, 0.025
TestParameter, Measurement.Primary.Compliance, 0.1
TestParameter, Measurement.Primary.PowerCompliance, 0
TestParameter, Measurement.Aborting.Condition, STOP AT ANY ABNORMAL
TestParameter, Measurement.PostOutput.Value, START
TestParameter, Measurement.PostOutput.Retention, OFF
TestParameter, Measurement.Secondary.Start, 0.05
TestParameter, Measurement.Secondary.Count, 2
TestParameter, Measurement.Secondary.Step, 0.95000000000000007
TestParameter, Measurement.Secondary.Compliance, 0.1
TestParameter, Measurement.Secondary.PowerCompliance, 0
TestParameter, Measurement.Bias.Source, 0.05, -1, 0
TestParameter, Measurement.Bias.Compliance, 0.1, 0.1, 0.1
TestParameter, Measurement.Monitor.Unit, SMU3:HR, SMU2:HR, SMU1:HR
TestParameter, Measurement.Monitor.Adc, HR ADC, HR ADC, HR ADC
TestParameter, Measurement.Monitor.Measurement, Compliance Side, Compliance Side, Compliance Side
TestParameter, Measurement.Monitor.RangingMode, LIMITED, LIMITED, LIMITED
TestParameter, Measurement.Monitor.RangeBoundary, 1nA, 1nA, 1nA
TestParameter, Measurement.Monitor.RangeRating, BY FULL RANGE, BY FULL RANGE, BY FULL RANGE
TestParameter, Measurement.Monitor.RangeRatingCoeff, 50, 50, 50
TestParameter, Measurement.Timing.Hold, 0
TestParameter, Measurement.Timing.Delay, 0
TestParameter, Measurement.Adc.HighSpeed.Mode, AUTO
TestParameter, Measurement.Adc.HighSpeed.Coeff, 1
TestParameter, Measurement.Adc.HighResolution.AutoZero, OFF
TestParameter, Measurement.Adc.HighResolution.Mode, AUTO
TestParameter, Measurement.Adc.HighResolution.Coeff, 6
TestParameter, Measurement.WaitTime.Source.Coeff, 1
TestParameter, Measurement.WaitTime.Source.Offset, 0
TestParameter, Measurement.WaitTime.Monitor.Coeff, 1
TestParameter, Measurement.WaitTime.Monitor.Offset, 0
TestParameter, Function.User.Name, absId, absIg, absIs, gm
TestParameter, Function.User.Unit, A, A, A, S
TestParameter, Function.User.Definition, abs(Id), abs(Ig), abs(Is), diff(abs(Id))/diff(Vg)
TestParameter, Output.Graph.Enabled, true
TestParameter, Output.Graph.AutoScaling, false
TestParameter, Output.Graph.XAxis.Data, Vg
TestParameter, Output.Graph.XAxis.Scale, Linear
TestParameter, Output.Graph.XAxis.Left, -1
TestParameter, Output.Graph.XAxis.Right, 2
TestParameter, Output.Graph.XAxis.RunTimeAutoScale, false
TestParameter, Output.Graph.YAxis.Data, absId, gm, absIg, absIs
TestParameter, Output.Graph.YAxis.Scale, Log, Linear, Log, Log
TestParameter, Output.Graph.YAxis.Bottom, 1E-15, 0, 1E-15, 1E-15
TestParameter, Output.Graph.YAxis.Top, 0.001, 1, 0.001, 0.001
TestParameter, Output.Graph.YAxis.Group, , , , 
TestParameter, Output.Graph.YAxis.RunTimeAutoScale, false, true, false, false
TestParameter, Output.List.Data, Vg, Vd, Id, Is, Ig, absId, absIs, absIg, gm
TestParameter, AutoAnalysis.Interpolation, false
TestParameter, AutoAnalysis.Var2StepCount, 1
TestParameter, AutoAnalysis.Var2StepScript, 
TestParameter, AutoAnalysis.Line1.Enabled, false
TestParameter, AutoAnalysis.Line1.Type, 1
TestParameter, AutoAnalysis.Line1.Fix, True
TestParameter, AutoAnalysis.Line1.YAxis, 0
TestParameter, AutoAnalysis.Line1.Point1.Type, 0
TestParameter, AutoAnalysis.Line1.Point1.XY.X, 
TestParameter, AutoAnalysis.Line1.Point1.XY.Y, 
TestParameter, AutoAnalysis.Line1.Point1.Data.Var, 
TestParameter, AutoAnalysis.Line1.Point1.Data.Condition, 
TestParameter, AutoAnalysis.Line1.Point1.Data.Start, false
TestParameter, AutoAnalysis.Line1.Point1.Data.StartVar, 
TestParameter, AutoAnalysis.Line1.Point1.Data.StartCondition, 
TestParameter, AutoAnalysis.Line1.Point2.Type, 0
TestParameter, AutoAnalysis.Line1.Point2.XY.X, 
TestParameter, AutoAnalysis.Line1.Point2.XY.Y, 
TestParameter, AutoAnalysis.Line1.Point2.Data.Var, 
TestParameter, AutoAnalysis.Line1.Point2.Data.Condition, 
TestParameter, AutoAnalysis.Line1.Point2.Data.Start, false
TestParameter, AutoAnalysis.Line1.Point2.Data.StartVar, 
TestParameter, AutoAnalysis.Line1.Point2.Data.StartCondition, 
TestParameter, AutoAnalysis.Line1.GradientExpr, 0
TestParameter, AutoAnalysis.Line2.Enabled, false
TestParameter, AutoAnalysis.Line2.Type, 1
TestParameter, AutoAnalysis.Line2.Fix, True
TestParameter, AutoAnalysis.Line2.YAxis, 0
TestParameter, AutoAnalysis.Line2.Point1.Type, 0
TestParameter, AutoAnalysis.Line2.Point1.XY.X, 
TestParameter, AutoAnalysis.Line2.Point1.XY.Y, 
TestParameter, AutoAnalysis.Line2.Point1.Data.Var, 
TestParameter, AutoAnalysis.Line2.Point1.Data.Condition, 
TestParameter, AutoAnalysis.Line2.Point1.Data.Start, false
TestParameter, AutoAnalysis.Line2.Point1.Data.StartVar, 
TestParameter, AutoAnalysis.Line2.Point1.Data.StartCondition, 
TestParameter, AutoAnalysis.Line2.Point2.Type, 0
TestParameter, AutoAnalysis.Line2.Point2.XY.X, 
TestParameter, AutoAnalysis.Line2.Point2.XY.Y, 
TestParameter, AutoAnalysis.Line2.Point2.Data.Var, 
TestParameter, AutoAnalysis.Line2.Point2.Data.Condition, 
TestParameter, AutoAnalysis.Line2.Point2.Data.Start, false
TestParameter, AutoAnalysis.Line2.Point2.Data.StartVar, 
TestParameter, AutoAnalysis.Line2.Point2.Data.StartCondition, 
TestParameter, AutoAnalysis.Line2.GradientExpr, 0
TestParameter, AutoAnalysis.Marker.Enabled, false
TestParameter, AutoAnalysis.Marker.Data.Var, 
TestParameter, AutoAnalysis.Marker.Data.Condition, 
TestParameter, AutoAnalysis.Marker.Data.Start, false
TestParameter, AutoAnalysis.Marker.Data.StartVar, 
TestParameter, AutoAnalysis.Marker.Data.StartCondition, 
MetaData, TestRecord.EntryPoint, true
MetaData, TestRecord.RecordTime, 06/03/2025 14:49:26
MetaData, TestRecord.TestTarget, R[6]_D[6]_L[80]
MetaData, TestRecord.IterationIndex, 1
MetaData, TestRecord.Preservation, true
MetaData, TestRecord.Flag, !
MetaData, TestRecord.Remarks, 
MetaData, TestRecord.LinkKey, aa6af435-358d-480e-9607-5d3b3c7087b4
MetaData, TestRecord.Parameters, 
Dimension1, 242, 242, 242, 242, 242, 242, 242, 242, 242
Dimension2, 2, 2, 2, 2, 2, 2, 2, 2, 2
DataName, Vg, Vd, Id, Ig, Is, absId, absIg, absIs, gm
DataValue, -1, 0.05, 4.6117000000000005E-11, 2.265E-12, -1.956E-12, 4.6117000000000005E-11, 2.265E-12, 1.956E-12, 
DataValue, -0.97500000000000009, 0.05, -3.0263E-11, 2.0450000000000003E-12, -1.6660000000000002E-12, 3.0263E-11, 2.0450000000000003E-12, 1.6660000000000002E-12, -6.3416000000000239E-10
DataValue, -0.95000000000000007, 0.05, -5.9903000000000008E-11, 1.6550000000000001E-12, -9.46E-13, 5.9903000000000008E-11, 1.6550000000000001E-12, 9.46E-13, 1.1855999999999993E-09
DataValue, -0.925, 0.05, -2.5623E-11, 2.445E-12, -5.2600000000000008E-13, 2.5623E-11, 2.445E-12, 5.2600000000000008E-13, -1.3711999999999992E-09
DataValue, -0.9, 0.05, 3.2047E-11, 2.665E-12, -1.1060000000000001E-12, 3.2047E-11, 2.665E-12, 1.1060000000000001E-12, 2.569599999999998E-10
DataValue, -0.875, 0.05, 5.9917E-11, 2.4250000000000003E-12, -1.7460000000000002E-12, 5.9917E-11, 2.4250000000000003E-12, 1.7460000000000002E-12, 1.1147999999999989E-09
DataValue, -0.85000000000000009, 0.05, 2.5667E-11, 1.925E-12, -2.4260000000000004E-12, 2.5667E-11, 1.925E-12, 2.4260000000000004E-12, -1.3700000000000048E-09
DataValue, -0.82500000000000007, 0.05, -3.0493E-11, 1.4050000000000002E-12, -1.8160000000000001E-12, 3.0493E-11, 1.4050000000000002E-12, 1.8160000000000001E-12, 1.9303999999999991E-10
DataValue, -0.8, 0.05, -5.9783E-11, 1.9450000000000003E-12, -9.5600000000000017E-13, 5.9783E-11, 1.9450000000000003E-12, 9.5600000000000017E-13, 1.1715999999999987E-09
DataValue, -0.775, 0.05, -2.8413000000000002E-11, 2.385E-12, -8.060000000000001E-13, 2.8413000000000002E-11, 2.385E-12, 8.060000000000001E-13, -1.2547999999999988E-09
DataValue, -0.75, 0.05, 2.8677E-11, 2.7350000000000004E-12, -1.116E-12, 2.8677E-11, 2.7350000000000004E-12, 1.116E-12, 1.0559999999999978E-11
DataValue, -0.72500000000000009, 0.05, 5.9327E-11, 2.315E-12, -1.5360000000000001E-12, 5.9327E-11, 2.315E-12, 1.5360000000000001E-12, 1.2260000000000047E-09
DataValue, -0.70000000000000007, 0.05, 2.8447000000000003E-11, 2.135E-12, -2.1160000000000003E-12, 2.8447000000000003E-11, 2.135E-12, 2.1160000000000003E-12, -1.235199999999999E-09
DataValue, -0.675, 0.05, -2.8073000000000003E-11, 1.6350000000000002E-12, -1.846E-12, 2.8073000000000003E-11, 1.6350000000000002E-12, 1.846E-12, -1.495999999999998E-11
DataValue, -0.65, 0.05, -5.9343E-11, 1.675E-12, -9.6600000000000012E-13, 5.9343E-11, 1.675E-12, 9.6600000000000012E-13, 1.2507999999999988E-09
DataValue, -0.625, 0.05, -2.8343000000000002E-11, 2.135E-12, -3.86E-13, 2.8343000000000002E-11, 2.135E-12, 3.86E-13, -1.2399999999999988E-09
DataValue, -0.6, 0.05, 2.8087000000000003E-11, 2.9050000000000002E-12, -9.96E-13, 2.8087000000000003E-11, 2.9050000000000002E-12, 9.96E-13, -1.0239999999999947E-11
DataValue, -0.57500000000000007, 0.05, 5.9247E-11, 2.875E-12, -1.6660000000000002E-12, 5.9247E-11, 2.875E-12, 1.6660000000000002E-12, 1.2464000000000043E-09
DataValue, -0.55, 0.05, 2.8777000000000003E-11, 2.0750000000000003E-12, -2.386E-12, 2.8777000000000003E-11, 2.0750000000000003E-12, 2.386E-12, -1.2187999999999989E-09
DataValue, -0.525, 0.05, -2.6823E-11, 1.435E-12, -1.7060000000000002E-12, 2.6823E-11, 1.435E-12, 1.7060000000000002E-12, -7.816000000000003E-11
DataValue, -0.5, 0.05, -5.8833E-11, 1.6050000000000001E-12, -8.1600000000000006E-13, 5.8833E-11, 1.6050000000000001E-12, 8.1600000000000006E-13, 1.280399999999999E-09
DataValue, -0.47500000000000003, 0.05, -3.2523E-11, 2.165E-12, -9.86E-13, 3.2523E-11, 2.165E-12, 9.86E-13, -1.0524000000000017E-09
DataValue, -0.45, 0.05, 2.3557E-11, 3.095E-12, -1.086E-12, 2.3557E-11, 3.095E-12, 1.086E-12, -3.586399999999997E-10
DataValue, -0.42500000000000004, 0.05, 5.8617E-11, 2.545E-12, -1.6260000000000001E-12, 5.8617E-11, 2.545E-12, 1.6260000000000001E-12, 1.4024000000000019E-09
DataValue, -0.4, 0.05, 3.3157000000000005E-11, 1.925E-12, -2.0160000000000003E-12, 3.3157000000000005E-11, 1.925E-12, 2.0160000000000003E-12, -1.0183999999999989E-09
DataValue, -0.375, 0.05, -2.1713000000000002E-11, 1.435E-12, -2.056E-12, 2.1713000000000002E-11, 1.435E-12, 2.056E-12, -4.5775999999999972E-10
DataValue, -0.35000000000000003, 0.05, -5.7023000000000007E-11, 1.9950000000000003E-12, -1.326E-12, 5.7023000000000007E-11, 1.9950000000000003E-12, 1.326E-12, 1.4124000000000021E-09
DataValue, -0.325, 0.05, -3.3823000000000006E-11, 2.365E-12, -6.16E-13, 3.3823000000000006E-11, 2.365E-12, 6.16E-13, -9.2799999999999928E-10
DataValue, -0.3, 0.05, 2.3087E-11, 2.7050000000000003E-12, -9.5600000000000017E-13, 2.3087E-11, 2.7050000000000003E-12, 9.5600000000000017E-13, -4.2943999999999981E-10
DataValue, -0.275, 0.05, 5.6717000000000006E-11, 2.4550000000000003E-12, -1.7960000000000002E-12, 5.6717000000000006E-11, 2.4550000000000003E-12, 1.7960000000000002E-12, 1.3452000000000019E-09
DataValue, -0.25, 0.05, 3.5497E-11, 1.9450000000000003E-12, -2.516E-12, 3.5497E-11, 1.9450000000000003E-12, 2.516E-12, -8.4879999999999949E-10
DataValue, -0.225, 0.05, -1.9173E-11, 1.5150000000000001E-12, -2.9760000000000002E-12, 1.9173E-11, 1.5150000000000001E-12, 2.9760000000000002E-12, -6.5296000000000019E-10
DataValue, -0.2, 0.05, -5.4013E-11, 2.135E-12, -3.0860000000000004E-12, 5.4013E-11, 2.135E-12, 3.0860000000000004E-12, 1.3936000000000004E-09
DataValue, -0.17500000000000002, 0.05, -3.1053000000000005E-11, 2.1950000000000002E-12, -6.3860000000000005E-12, 3.1053000000000005E-11, 2.1950000000000002E-12, 6.3860000000000005E-12, -9.1840000000000005E-10
DataValue, -0.15, 0.05, 3.2617E-11, 2.715E-12, -1.5056000000000002E-11, 3.2617E-11, 2.715E-12, 1.5056000000000002E-11, 6.255999999999973E-11
DataValue, -0.125, 0.05, 8.8807E-11, 2.285E-12, -3.5106E-11, 8.8807E-11, 2.285E-12, 3.5106E-11, 2.2476000000000004E-09
DataValue, -0.1, 0.05, 1.19147E-10, 1.805E-12, -8.0646E-11, 1.19147E-10, 1.805E-12, 8.0646E-11, 1.2136E-09
DataValue, -0.075, 0.05, 1.7076700000000002E-10, 1.615E-12, -1.8053600000000002E-10, 1.7076700000000002E-10, 1.615E-12, 1.8053600000000002E-10, 2.0648E-09
DataValue, -0.05, 0.05, 3.5294700000000003E-10, 1.6850000000000002E-12, -3.9931600000000004E-10, 3.5294700000000003E-10, 1.6850000000000002E-12, 3.9931600000000004E-10, 7.2872000000000019E-09
DataValue, -0.025, 0.05, 8.5490700000000008E-10, 2.595E-12, -8.99136E-10, 8.5490700000000008E-10, 2.595E-12, 8.99136E-10, 2.0078399999999998E-08
DataValue, 0, 0.05, 1.82527E-09, 2.595E-12, -1.83534E-09, 1.82527E-09, 2.595E-12, 1.83534E-09, 3.881452E-08
DataValue, 0.025, 0.05, 3.67857E-09, 2.235E-12, -3.63384E-09, 3.67857E-09, 2.235E-12, 3.63384E-09, 7.4131999999999992E-08
DataValue, 0.05, 0.05, 7.41057E-09, 2.7250000000000002E-12, -7.25414E-09, 7.41057E-09, 2.7250000000000002E-12, 7.25414E-09, 1.4928E-07
DataValue, 0.075, 0.05, 1.3252399999999999E-08, 2.1250000000000003E-12, -1.3386199999999999E-08, 1.3252399999999999E-08, 2.1250000000000003E-12, 1.3386199999999999E-08, 2.336732E-07
DataValue, 0.1, 0.05, 2.33376E-08, 2.315E-12, -2.3517399999999997E-08, 2.33376E-08, 2.315E-12, 2.3517399999999997E-08, 4.0340799999999988E-07
DataValue, 0.125, 0.05, 3.8411199999999997E-08, 2.235E-12, -3.8522E-08, 3.8411199999999997E-08, 2.235E-12, 3.8522E-08, 6.02944E-07
DataValue, 0.15, 0.05, 5.8884799999999997E-08, 2.595E-12, -5.8811799999999993E-08, 5.8884799999999997E-08, 2.595E-12, 5.8811799999999993E-08, 8.1894400000000016E-07
DataValue, 0.17500000000000002, 0.05, 8.6534599999999992E-08, 1.5550000000000001E-12, -8.70146E-08, 8.6534599999999992E-08, 1.5550000000000001E-12, 8.70146E-08, 1.1059919999999988E-06
DataValue, 0.2, 0.05, 1.23E-07, 2.6850000000000004E-12, -1.2342E-07, 1.23E-07, 2.6850000000000004E-12, 1.2342E-07, 1.4586160000000008E-06
DataValue, 0.225, 0.05, 1.686E-07, 3.095E-12, -1.6721999999999999E-07, 1.686E-07, 3.095E-12, 1.6721999999999999E-07, 1.8239999999999998E-06
DataValue, 0.25, 0.05, 2.187E-07, 2.925E-12, -2.1768E-07, 2.187E-07, 2.925E-12, 2.1768E-07, 2.0040000000000006E-06
DataValue, 0.275, 0.05, 2.8065999999999997E-07, 2.7250000000000002E-12, -2.8144E-07, 2.8065999999999997E-07, 2.7250000000000002E-12, 2.8144E-07, 2.4783999999999969E-06
DataValue, 0.3, 0.05, 3.5666E-07, 2.945E-12, -3.5866E-07, 3.5666E-07, 2.945E-12, 3.5866E-07, 3.040000000000006E-06
DataValue, 0.325, 0.05, 4.3806E-07, 3.095E-12, -4.3428E-07, 4.3806E-07, 3.095E-12, 4.3428E-07, 3.255999999999996E-06
DataValue, 0.35000000000000003, 0.05, 5.31E-07, 2.7050000000000003E-12, -5.297E-07, 5.31E-07, 2.7050000000000003E-12, 5.297E-07, 3.717599999999996E-06
DataValue, 0.375, 0.05, 6.3794E-07, 2.7050000000000003E-12, -6.4002E-07, 6.3794E-07, 2.7050000000000003E-12, 6.4002E-07, 4.2776000000000071E-06
DataValue, 0.4, 0.05, 7.5344E-07, 2.8350000000000003E-12, -7.5598E-07, 7.5344E-07, 2.8350000000000003E-12, 7.5598E-07, 4.6199999999999956E-06
DataValue, 0.42500000000000004, 0.05, 8.8042E-07, 2.5550000000000003E-12, -8.82E-07, 8.8042E-07, 2.5550000000000003E-12, 8.82E-07, 5.0791999999999953E-06
DataValue, 0.45, 0.05, 1.01826E-06, 2.2250000000000003E-12, -1.02086E-06, 1.01826E-06, 2.2250000000000003E-12, 1.02086E-06, 5.5136000000000085E-06
DataValue, 0.47500000000000003, 0.05, 1.1697000000000002E-06, 1.625E-12, -1.1669000000000002E-06, 1.1697000000000002E-06, 1.625E-12, 1.1669000000000002E-06, 6.0576000000000028E-06
DataValue, 0.5, 0.05, 1.3365E-06, 2.5550000000000003E-12, -1.3388000000000002E-06, 1.3365E-06, 2.5550000000000003E-12, 1.3388000000000002E-06, 6.6720000000000015E-06
DataValue, 0.525, 0.05, 1.5023000000000002E-06, 2.545E-12, -1.5077000000000002E-06, 1.5023000000000002E-06, 2.545E-12, 1.5077000000000002E-06, 6.632000000000001E-06
DataValue, 0.55, 0.05, 1.6916000000000002E-06, 2.265E-12, -1.6796000000000002E-06, 1.6916000000000002E-06, 2.265E-12, 1.6796000000000002E-06, 7.5719999999999946E-06
DataValue, 0.57500000000000007, 0.05, 1.9046000000000002E-06, 1.8450000000000003E-12, -1.8990000000000002E-06, 1.9046000000000002E-06, 1.8450000000000003E-12, 1.8990000000000002E-06, 8.51999999999999E-06
DataValue, 0.6, 0.05, 2.1060000000000002E-06, 1.835E-12, -2.1191E-06, 2.1060000000000002E-06, 1.835E-12, 2.1191E-06, 8.0560000000000326E-06
DataValue, 0.625, 0.05, 2.3340000000000004E-06, 1.825E-12, -2.3359000000000004E-06, 2.3340000000000004E-06, 1.825E-12, 2.3359000000000004E-06, 9.1199999999999991E-06
DataValue, 0.65, 0.05, 2.5914000000000003E-06, 1.5050000000000002E-12, -2.5891000000000003E-06, 2.5914000000000003E-06, 1.5050000000000002E-12, 2.5891000000000003E-06, 1.0295999999999986E-05
DataValue, 0.675, 0.05, 2.8336000000000003E-06, 2.1750000000000003E-12, -2.8286000000000003E-06, 2.8336000000000003E-06, 2.1750000000000003E-12, 2.8286000000000003E-06, 9.6879999999999909E-06
DataValue, 0.70000000000000007, 0.05, 3.0965000000000003E-06, 2.4550000000000003E-12, -3.0794E-06, 3.0965000000000003E-06, 2.4550000000000003E-12, 3.0794E-06, 1.0515999999999992E-05
DataValue, 0.72500000000000009, 0.05, 3.3527000000000005E-06, 2.485E-12, -3.3692000000000003E-06, 3.3527000000000005E-06, 2.485E-12, 3.3692000000000003E-06, 1.0247999999999999E-05
DataValue, 0.75, 0.05, 3.6460000000000003E-06, 2.9150000000000004E-12, -3.6469E-06, 3.6460000000000003E-06, 2.9150000000000004E-12, 3.6469E-06, 1.1732000000000034E-05
DataValue, 0.775, 0.05, 3.9420000000000005E-06, 2.8550000000000003E-12, -3.9424000000000006E-06, 3.9420000000000005E-06, 2.8550000000000003E-12, 3.9424000000000006E-06, 1.1839999999999998E-05
DataValue, 0.8, 0.05, 4.2364000000000006E-06, 2.8650000000000004E-12, -4.2353000000000008E-06, 4.2364000000000006E-06, 2.8650000000000004E-12, 4.2353000000000008E-06, 1.1775999999999994E-05
DataValue, 0.82500000000000007, 0.05, 4.5354000000000007E-06, 2.2750000000000003E-12, -4.5346000000000006E-06, 4.5354000000000007E-06, 2.2750000000000003E-12, 4.5346000000000006E-06, 1.1959999999999991E-05
DataValue, 0.85000000000000009, 0.05, 4.8642000000000008E-06, 2.395E-12, -4.8509000000000004E-06, 4.8642000000000008E-06, 2.395E-12, 4.8509000000000004E-06, 1.3151999999999994E-05
DataValue, 0.875, 0.05, 5.2042000000000009E-06, 2.055E-12, -5.2029000000000006E-06, 5.2042000000000009E-06, 2.055E-12, 5.2029000000000006E-06, 1.3600000000000054E-05
DataValue, 0.9, 0.05, 5.5820000000000009E-06, 1.715E-12, -5.5532000000000005E-06, 5.5820000000000009E-06, 1.715E-12, 5.5532000000000005E-06, 1.5111999999999987E-05
DataValue, 0.925, 0.05, 5.9278E-06, 1.6950000000000002E-12, -5.9108E-06, 5.9278E-06, 1.6950000000000002E-12, 5.9108E-06, 1.383199999999996E-05
DataValue, 0.95000000000000007, 0.05, 6.2938000000000006E-06, 1.575E-12, -6.3049E-06, 6.2938000000000006E-06, 1.575E-12, 6.3049E-06, 1.4640000000000002E-05
DataValue, 0.97500000000000009, 0.05, 6.6847000000000006E-06, 1.905E-12, -6.6473000000000007E-06, 6.6847000000000006E-06, 1.905E-12, 6.6473000000000007E-06, 1.5635999999999984E-05
DataValue, 1, 0.05, 7.0477E-06, 2.3450000000000002E-12, -7.0369E-06, 7.0477E-06, 2.3450000000000002E-12, 7.0369E-06, 1.4520000000000041E-05
DataValue, 1.0250000000000001, 0.05, 7.4497000000000009E-06, 2.515E-12, -7.4474000000000009E-06, 7.4497000000000009E-06, 2.515E-12, 7.4474000000000009E-06, 1.6079999999999938E-05
