
SetupTitle, IdVg_Vd_par
PrimitiveTest, I/V Sweep
TestParameter, Context.MainFrame, B1500A
TestParameter, Channel.UnitType, SMU, SMU, SMU
TestParameter, Channel.Unit, SMU3:HR, SMU2:HR, SMU1:HR
TestParameter, Channel.IName, Id, Ig, Is
TestParameter, Channel.VName, Vd, Vg, Vs
TestParameter, Channel.Mode, V, V, V
TestParameter, Channel.Func, VAR2, VAR1, CONST
TestParameter, Channel.Index, 
TestParameter, Channel.Time, 
TestParameter, Measurement.Port.Unit, SMU3:HR, SMU2:HR, SMU1:HR
TestParameter, Measurement.Port.SeriesResistor, NONE, NONE, NONE
TestParameter, Measurement.Port.Filter, ON, ON, ON
TestParameter, Measurement.Port.OutputVoltageComparison, 0, 0, 0
TestParameter, Measurement.Primary.Locus, Double
TestParameter, Measurement.Primary.Scale, LINEAR
TestParameter, Measurement.Primary.Start, -1
TestParameter, Measurement.Primary.Stop, 2
TestParameter, Measurement.Primary.Step, 0.025
TestParameter, Measurement.Primary.Compliance, 0.1
TestParameter, Measurement.Primary.PowerCompliance, 0
TestParameter, Measurement.Aborting.Condition, STOP AT ANY ABNORMAL
TestParameter, Measurement.PostOutput.Value, START
TestParameter, Measurement.PostOutput.Retention, OFF
TestParameter, Measurement.Secondary.Start, 0.05
TestParameter, Measurement.Secondary.Count, 2
TestParameter, Measurement.Secondary.Step, 0.95000000000000007
TestParameter, Measurement.Secondary.Compliance, 0.1
TestParameter, Measurement.Secondary.PowerCompliance, 0
TestParameter, Measurement.Bias.Source, 0.05, -1, 0
TestParameter, Measurement.Bias.Compliance, 0.1, 0.1, 0.1
TestParameter, Measurement.Monitor.Unit, SMU3:HR, SMU2:HR, SMU1:HR
TestParameter, Measurement.Monitor.Adc, HR ADC, HR ADC, HR ADC
TestParameter, Measurement.Monitor.Measurement, Compliance Side, Compliance Side, Compliance Side
TestParameter, Measurement.Monitor.RangingMode, LIMITED, LIMITED, LIMITED
TestParameter, Measurement.Monitor.RangeBoundary, 1nA, 1nA, 1nA
TestParameter, Measurement.Monitor.RangeRating, BY FULL RANGE, BY FULL RANGE, BY FULL RANGE
TestParameter, Measurement.Monitor.RangeRatingCoeff, 50, 50, 50
TestParameter, Measurement.Timing.Hold, 0
TestParameter, Measurement.Timing.Delay, 0
TestParameter, Measurement.Adc.HighSpeed.Mode, AUTO
TestParameter, Measurement.Adc.HighSpeed.Coeff, 1
TestParameter, Measurement.Adc.HighResolution.AutoZero, OFF
TestParameter, Measurement.Adc.HighResolution.Mode, AUTO
TestParameter, Measurement.Adc.HighResolution.Coeff, 6
TestParameter, Measurement.WaitTime.Source.Coeff, 1
TestParameter, Measurement.WaitTime.Source.Offset, 0
TestParameter, Measurement.WaitTime.Monitor.Coeff, 1
TestParameter, Measurement.WaitTime.Monitor.Offset, 0
TestParameter, Function.User.Name, absId, absIg, absIs, gm
TestParameter, Function.User.Unit, A, A, A, S
TestParameter, Function.User.Definition, abs(Id), abs(Ig), abs(Is), diff(abs(Id))/diff(Vg)
TestParameter, Output.Graph.Enabled, true
TestParameter, Output.Graph.AutoScaling, false
TestParameter, Output.Graph.XAxis.Data, Vg
TestParameter, Output.Graph.XAxis.Scale, Linear
TestParameter, Output.Graph.XAxis.Left, -1
TestParameter, Output.Graph.XAxis.Right, 2
TestParameter, Output.Graph.XAxis.RunTimeAutoScale, false
TestParameter, Output.Graph.YAxis.Data, absId, gm, absIg, absIs
TestParameter, Output.Graph.YAxis.Scale, Log, Linear, Log, Log
TestParameter, Output.Graph.YAxis.Bottom, 1E-15, 0, 1E-15, 1E-15
TestParameter, Output.Graph.YAxis.Top, 0.001, 1, 0.001, 0.001
TestParameter, Output.Graph.YAxis.Group, , , , 
TestParameter, Output.Graph.YAxis.RunTimeAutoScale, false, true, false, false
TestParameter, Output.List.Data, Vg, Vd, Id, Is, Ig, absId, absIs, absIg, gm
TestParameter, AutoAnalysis.Interpolation, false
TestParameter, AutoAnalysis.Var2StepCount, 1
TestParameter, AutoAnalysis.Var2StepScript, 
TestParameter, AutoAnalysis.Line1.Enabled, false
TestParameter, AutoAnalysis.Line1.Type, 1
TestParameter, AutoAnalysis.Line1.Fix, True
TestParameter, AutoAnalysis.Line1.YAxis, 0
TestParameter, AutoAnalysis.Line1.Point1.Type, 0
TestParameter, AutoAnalysis.Line1.Point1.XY.X, 
TestParameter, AutoAnalysis.Line1.Point1.XY.Y, 
TestParameter, AutoAnalysis.Line1.Point1.Data.Var, 
TestParameter, AutoAnalysis.Line1.Point1.Data.Condition, 
TestParameter, AutoAnalysis.Line1.Point1.Data.Start, false
TestParameter, AutoAnalysis.Line1.Point1.Data.StartVar, 
TestParameter, AutoAnalysis.Line1.Point1.Data.StartCondition, 
TestParameter, AutoAnalysis.Line1.Point2.Type, 0
TestParameter, AutoAnalysis.Line1.Point2.XY.X, 
TestParameter, AutoAnalysis.Line1.Point2.XY.Y, 
TestParameter, AutoAnalysis.Line1.Point2.Data.Var, 
TestParameter, AutoAnalysis.Line1.Point2.Data.Condition, 
TestParameter, AutoAnalysis.Line1.Point2.Data.Start, false
TestParameter, AutoAnalysis.Line1.Point2.Data.StartVar, 
TestParameter, AutoAnalysis.Line1.Point2.Data.StartCondition, 
TestParameter, AutoAnalysis.Line1.GradientExpr, 0
TestParameter, AutoAnalysis.Line2.Enabled, false
TestParameter, AutoAnalysis.Line2.Type, 1
TestParameter, AutoAnalysis.Line2.Fix, True
TestParameter, AutoAnalysis.Line2.YAxis, 0
TestParameter, AutoAnalysis.Line2.Point1.Type, 0
TestParameter, AutoAnalysis.Line2.Point1.XY.X, 
TestParameter, AutoAnalysis.Line2.Point1.XY.Y, 
TestParameter, AutoAnalysis.Line2.Point1.Data.Var, 
TestParameter, AutoAnalysis.Line2.Point1.Data.Condition, 
TestParameter, AutoAnalysis.Line2.Point1.Data.Start, false
TestParameter, AutoAnalysis.Line2.Point1.Data.StartVar, 
TestParameter, AutoAnalysis.Line2.Point1.Data.StartCondition, 
TestParameter, AutoAnalysis.Line2.Point2.Type, 0
TestParameter, AutoAnalysis.Line2.Point2.XY.X, 
TestParameter, AutoAnalysis.Line2.Point2.XY.Y, 
TestParameter, AutoAnalysis.Line2.Point2.Data.Var, 
TestParameter, AutoAnalysis.Line2.Point2.Data.Condition, 
TestParameter, AutoAnalysis.Line2.Point2.Data.Start, false
TestParameter, AutoAnalysis.Line2.Point2.Data.StartVar, 
TestParameter, AutoAnalysis.Line2.Point2.Data.StartCondition, 
TestParameter, AutoAnalysis.Line2.GradientExpr, 0
TestParameter, AutoAnalysis.Marker.Enabled, false
TestParameter, AutoAnalysis.Marker.Data.Var, 
TestParameter, AutoAnalysis.Marker.Data.Condition, 
TestParameter, AutoAnalysis.Marker.Data.Start, false
TestParameter, AutoAnalysis.Marker.Data.StartVar, 
TestParameter, AutoAnalysis.Marker.Data.StartCondition, 
MetaData, TestRecord.EntryPoint, true
MetaData, TestRecord.RecordTime, 06/03/2025 15:20:43
MetaData, TestRecord.TestTarget, R[4]_D[6]_L[60]
MetaData, TestRecord.IterationIndex, 2
MetaData, TestRecord.Preservation, true
MetaData, TestRecord.Flag, !
MetaData, TestRecord.Remarks, 
MetaData, TestRecord.LinkKey, c81e4e1a-66b8-40b8-980f-f3738d27eafa
MetaData, TestRecord.Parameters, 
Dimension1, 242, 242, 242, 242, 242, 242, 242, 242, 242
Dimension2, 2, 2, 2, 2, 2, 2, 2, 2, 2
DataName, Vg, Vd, Id, Ig, Is, absId, absIg, absIs, gm
DataValue, -1, 0.05, 1.1647000000000002E-11, 1.5950000000000002E-12, -2.206E-12, 1.1647000000000002E-11, 1.5950000000000002E-12, 2.206E-12, 
DataValue, -0.97500000000000009, 0.05, -3.3663E-11, 1.105E-12, -1.596E-12, 3.3663E-11, 1.105E-12, 1.596E-12, 8.8064000000000328E-10
DataValue, -0.95000000000000007, 0.05, 2.2167000000000003E-11, 1.6450000000000002E-12, -1.9160000000000003E-12, 2.2167000000000003E-11, 1.6450000000000002E-12, 1.9160000000000003E-12, -4.5983999999999962E-10
DataValue, -0.925, 0.05, 5.5437000000000005E-11, 1.715E-12, -2.436E-12, 5.5437000000000005E-11, 1.715E-12, 2.436E-12, 1.330799999999999E-09
DataValue, -0.9, 0.05, 3.5817000000000005E-11, 9.0500000000000008E-13, -3.476E-12, 3.5817000000000005E-11, 9.0500000000000008E-13, 3.476E-12, -7.847999999999993E-10
DataValue, -0.875, 0.05, -2.0053E-11, 5.7500000000000007E-13, -2.8760000000000003E-12, 2.0053E-11, 5.7500000000000007E-13, 2.8760000000000003E-12, -6.3055999999999963E-10
DataValue, -0.85000000000000009, 0.05, -5.5113000000000004E-11, 6.35E-13, -1.686E-12, 5.5113000000000004E-11, 6.35E-13, 1.686E-12, 1.4024000000000052E-09
DataValue, -0.82500000000000007, 0.05, -3.5833E-11, 1.475E-12, -1.926E-12, 3.5833E-11, 1.475E-12, 1.926E-12, -7.7119999999999947E-10
DataValue, -0.8, 0.05, 1.8497E-11, 1.6350000000000002E-12, -1.9660000000000003E-12, 1.8497E-11, 1.6350000000000002E-12, 1.9660000000000003E-12, -6.9343999999999942E-10
DataValue, -0.775, 0.05, 5.3927E-11, 1.3650000000000001E-12, -2.786E-12, 5.3927E-11, 1.3650000000000001E-12, 2.786E-12, 1.4171999999999988E-09
DataValue, -0.75, 0.05, 3.8317000000000003E-11, 1.0350000000000001E-12, -3.0860000000000004E-12, 3.8317000000000003E-11, 1.0350000000000001E-12, 3.0860000000000004E-12, -6.2439999999999942E-10
DataValue, -0.72500000000000009, 0.05, -1.3843E-11, 6.2500000000000006E-13, -2.736E-12, 1.3843E-11, 6.2500000000000006E-13, 2.736E-12, -9.7896000000000362E-10
DataValue, -0.70000000000000007, 0.05, -5.2923E-11, 3.3500000000000004E-13, -2.126E-12, 5.2923E-11, 3.3500000000000004E-13, 2.126E-12, 1.5631999999999987E-09
DataValue, -0.675, 0.05, -4.0073000000000003E-11, 1.395E-12, -1.9860000000000002E-12, 4.0073000000000003E-11, 1.395E-12, 1.9860000000000002E-12, -5.1399999999999957E-10
DataValue, -0.65, 0.05, 1.3297E-11, 1.665E-12, -1.406E-12, 1.3297E-11, 1.665E-12, 1.406E-12, -1.071039999999999E-09
DataValue, -0.625, 0.05, 5.2397E-11, 1.7450000000000001E-12, -2.486E-12, 5.2397E-11, 1.7450000000000001E-12, 2.486E-12, 1.5639999999999985E-09
DataValue, -0.6, 0.05, 4.1337E-11, 1.005E-12, -3.096E-12, 4.1337E-11, 1.005E-12, 3.096E-12, -4.4239999999999953E-10
DataValue, -0.57500000000000007, 0.05, -8.433E-12, 3.5500000000000005E-13, -3.0360000000000004E-12, 8.433E-12, 3.5500000000000005E-13, 3.0360000000000004E-12, -1.3161600000000049E-09
DataValue, -0.55, 0.05, -4.9393000000000003E-11, 7.05E-13, -2.2460000000000003E-12, 4.9393000000000003E-11, 7.05E-13, 2.2460000000000003E-12, 1.6383999999999988E-09
DataValue, -0.525, 0.05, -4.6253E-11, 1.055E-12, -1.996E-12, 4.6253E-11, 1.055E-12, 1.996E-12, -1.2559999999999996E-10
DataValue, -0.5, 0.05, 3.4070000000000003E-12, 1.675E-12, -2.1460000000000003E-12, 3.4070000000000003E-12, 1.675E-12, 2.1460000000000003E-12, -1.7138399999999987E-09
DataValue, -0.47500000000000003, 0.05, 5.3547000000000005E-11, 1.5550000000000001E-12, -2.7260000000000003E-12, 5.3547000000000005E-11, 1.5550000000000001E-12, 2.7260000000000003E-12, 2.0056000000000031E-09
DataValue, -0.45, 0.05, 3.8467000000000004E-11, 1.015E-12, -3.1360000000000004E-12, 3.8467000000000004E-11, 1.015E-12, 3.1360000000000004E-12, -6.0319999999999953E-10
DataValue, -0.42500000000000004, 0.05, -1.3963000000000001E-11, 3.8500000000000003E-13, -3.1860000000000004E-12, 1.3963000000000001E-11, 3.8500000000000003E-13, 3.1860000000000004E-12, -9.801600000000013E-10
DataValue, -0.4, 0.05, -5.2413E-11, 5.5500000000000006E-13, -3.2660000000000004E-12, 5.2413E-11, 5.5500000000000006E-13, 3.2660000000000004E-12, 1.5379999999999986E-09
DataValue, -0.375, 0.05, -3.6653000000000004E-11, 1.255E-12, -3.576E-12, 3.6653000000000004E-11, 1.255E-12, 3.576E-12, -6.3039999999999939E-10
DataValue, -0.35000000000000003, 0.05, 1.7417E-11, 1.6950000000000002E-12, -5.966E-12, 1.7417E-11, 1.6950000000000002E-12, 5.966E-12, -7.6944000000000122E-10
DataValue, -0.325, 0.05, 6.1847E-11, 1.535E-12, -1.2706E-11, 6.1847E-11, 1.535E-12, 1.2706E-11, 1.7771999999999982E-09
DataValue, -0.3, 0.05, 5.9407E-11, 1.0750000000000002E-12, -2.1916E-11, 5.9407E-11, 1.0750000000000002E-12, 2.1916E-11, -9.7599999999999655E-11
DataValue, -0.275, 0.05, 2.6027000000000003E-11, 5.65E-13, -4.0256E-11, 2.6027000000000003E-11, 5.65E-13, 4.0256E-11, -1.335200000000002E-09
DataValue, -0.25, 0.05, 2.4347000000000002E-11, 8.8500000000000007E-13, -7.9876E-11, 2.4347000000000002E-11, 8.8500000000000007E-13, 7.9876E-11, -6.7199999999999972E-11
DataValue, -0.225, 0.05, 1.13007E-10, 1.145E-12, -1.53756E-10, 1.13007E-10, 1.145E-12, 1.53756E-10, 3.5464000000000009E-09
DataValue, -0.2, 0.05, 3.1246700000000003E-10, 1.535E-12, -3.03366E-10, 3.1246700000000003E-10, 1.535E-12, 3.03366E-10, 7.9784000000000021E-09
DataValue, -0.17500000000000002, 0.05, 5.9741700000000007E-10, 1.7350000000000002E-12, -5.3940600000000007E-10, 5.9741700000000007E-10, 1.7350000000000002E-12, 5.3940600000000007E-10, 1.1398000000000004E-08
DataValue, -0.15, 0.05, 1.0502570000000001E-09, 9.75E-13, -1.011116E-09, 1.0502570000000001E-09, 9.75E-13, 1.011116E-09, 1.8113599999999988E-08
DataValue, -0.125, 0.05, 1.83867E-09, 4.1500000000000005E-13, -1.73544E-09, 1.83867E-09, 4.1500000000000005E-13, 1.73544E-09, 3.1536520000000006E-08
DataValue, -0.1, 0.05, 3.27987E-09, 9.15E-13, -3.21234E-09, 3.27987E-09, 9.15E-13, 3.21234E-09, 5.7648000000000021E-08
DataValue, -0.075, 0.05, 5.74167E-09, 5.0500000000000007E-13, -5.72704E-09, 5.74167E-09, 5.0500000000000007E-13, 5.72704E-09, 9.847199999999997E-08
DataValue, -0.05, 0.05, 9.47567E-09, 9.75E-13, -9.45254E-09, 9.47567E-09, 9.75E-13, 9.45254E-09, 1.4936000000000006E-07
DataValue, -0.025, 0.05, 1.5741E-08, 1.045E-12, -1.5876199999999997E-08, 1.5741E-08, 1.045E-12, 1.5876199999999997E-08, 2.506131999999999E-07
DataValue, 0, 0.05, 2.5434399999999996E-08, 7.8500000000000009E-13, -2.4993799999999998E-08, 2.5434399999999996E-08, 7.8500000000000009E-13, 2.4993799999999998E-08, 3.8773599999999989E-07
DataValue, 0.025, 0.05, 3.9403999999999993E-08, 1.285E-12, -4.0070999999999995E-08, 3.9403999999999993E-08, 1.285E-12, 4.0070999999999995E-08, 5.5878399999999982E-07
DataValue, 0.05, 0.05, 5.9921799999999988E-08, 3.3500000000000004E-13, -5.993039999999999E-08, 5.9921799999999988E-08, 3.3500000000000004E-13, 5.993039999999999E-08, 8.2071199999999973E-07
DataValue, 0.075, 0.05, 8.7086199999999987E-08, 1.8950000000000003E-12, -8.8337399999999987E-08, 8.7086199999999987E-08, 1.8950000000000003E-12, 8.8337399999999987E-08, 1.0865760000000003E-06
DataValue, 0.1, 0.05, 1.2196E-07, 2.55E-13, -1.2316E-07, 1.2196E-07, 2.55E-13, 1.2316E-07, 1.3949519999999995E-06
DataValue, 0.125, 0.05, 1.659E-07, 3.5500000000000005E-13, -1.6626E-07, 1.659E-07, 3.5500000000000005E-13, 1.6626E-07, 1.7576000000000008E-06
DataValue, 0.15, 0.05, 2.2724E-07, 6.4500000000000008E-13, -2.2554E-07, 2.2724E-07, 6.4500000000000008E-13, 2.2554E-07, 2.4536E-06
DataValue, 0.17500000000000002, 0.05, 2.9122E-07, 1.65E-13, -2.953E-07, 2.9122E-07, 1.65E-13, 2.953E-07, 2.5591999999999975E-06
DataValue, 0.2, 0.05, 3.6826E-07, 5.45E-13, -3.6781999999999997E-07, 3.6826E-07, 5.45E-13, 3.6781999999999997E-07, 3.0816000000000011E-06
DataValue, 0.225, 0.05, 4.5848E-07, 6.6500000000000009E-13, -4.5864E-07, 4.5848E-07, 6.6500000000000009E-13, 4.5864E-07, 3.6088000000000018E-06
DataValue, 0.25, 0.05, 5.6166E-07, 5.85E-13, -5.6212E-07, 5.6166E-07, 5.85E-13, 5.6212E-07, 4.1272000000000009E-06
DataValue, 0.275, 0.05, 6.8088E-07, 9.25E-13, -6.8028E-07, 6.8088E-07, 9.25E-13, 6.8028E-07, 4.7687999999999949E-06
DataValue, 0.3, 0.05, 8.1448E-07, 9.0500000000000008E-13, -8.0931999999999994E-07, 8.1448E-07, 9.0500000000000008E-13, 8.0931999999999994E-07, 5.3440000000000059E-06
DataValue, 0.325, 0.05, 9.4422E-07, 8.3500000000000008E-13, -9.5058E-07, 9.4422E-07, 8.3500000000000008E-13, 9.5058E-07, 5.1895999999999977E-06
DataValue, 0.35000000000000003, 0.05, 1.11984E-06, 1.1750000000000001E-12, -1.12476E-06, 1.11984E-06, 1.1750000000000001E-12, 1.12476E-06, 7.0247999999999891E-06
DataValue, 0.375, 0.05, 1.2863E-06, 1.5050000000000002E-12, -1.2863E-06, 1.2863E-06, 1.5050000000000002E-12, 1.2863E-06, 6.6584000000000157E-06
DataValue, 0.4, 0.05, 1.4799000000000002E-06, 1.295E-12, -1.4766000000000002E-06, 1.4799000000000002E-06, 1.295E-12, 1.4766000000000002E-06, 7.743999999999999E-06
DataValue, 0.42500000000000004, 0.05, 1.6688000000000002E-06, 1.7350000000000002E-12, -1.6824000000000002E-06, 1.6688000000000002E-06, 1.7350000000000002E-12, 1.6824000000000002E-06, 7.5559999999999934E-06
DataValue, 0.45, 0.05, 1.8860000000000002E-06, 1.7950000000000001E-12, -1.8856000000000002E-06, 1.8860000000000002E-06, 1.7950000000000001E-12, 1.8856000000000002E-06, 8.6880000000000124E-06
DataValue, 0.47500000000000003, 0.05, 2.1099000000000003E-06, 1.835E-12, -2.1230000000000003E-06, 2.1099000000000003E-06, 1.835E-12, 2.1230000000000003E-06, 8.9559999999999952E-06
DataValue, 0.5, 0.05, 2.3663E-06, 1.6950000000000002E-12, -2.3671E-06, 2.3663E-06, 1.6950000000000002E-12, 2.3671E-06, 1.0256000000000005E-05
DataValue, 0.525, 0.05, 2.6470000000000002E-06, 1.4050000000000002E-12, -2.6503000000000003E-06, 2.6470000000000002E-06, 1.4050000000000002E-12, 2.6503000000000003E-06, 1.1227999999999995E-05
DataValue, 0.55, 0.05, 2.9572000000000002E-06, 9.15E-13, -2.9436000000000005E-06, 2.9572000000000002E-06, 9.15E-13, 2.9436000000000005E-06, 1.2407999999999989E-05
DataValue, 0.57500000000000007, 0.05, 3.2317000000000003E-06, 5.65E-13, -3.2149000000000003E-06, 3.2317000000000003E-06, 5.65E-13, 3.2149000000000003E-06, 1.0979999999999993E-05
DataValue, 0.6, 0.05, 3.5298000000000005E-06, 5.15E-13, -3.5315000000000004E-06, 3.5298000000000005E-06, 5.15E-13, 3.5315000000000004E-06, 1.1924000000000049E-05
DataValue, 0.625, 0.05, 3.872E-06, 4.2500000000000006E-13, -3.8596E-06, 3.872E-06, 4.2500000000000006E-13, 3.8596E-06, 1.3687999999999983E-05
DataValue, 0.65, 0.05, 4.1952E-06, 9.8500000000000014E-13, -4.2256000000000007E-06, 4.1952E-06, 9.8500000000000014E-13, 4.2256000000000007E-06, 1.2927999999999977E-05
DataValue, 0.675, 0.05, 4.5897E-06, 1.2650000000000002E-12, -4.5764000000000008E-06, 4.5897E-06, 1.2650000000000002E-12, 4.5764000000000008E-06, 1.5779999999999995E-05
DataValue, 0.70000000000000007, 0.05, 4.9813000000000009E-06, 1.385E-12, -4.9909000000000008E-06, 4.9813000000000009E-06, 1.385E-12, 4.9909000000000008E-06, 1.5664000000000011E-05
DataValue, 0.72500000000000009, 0.05, 5.3317E-06, 1.6050000000000001E-12, -5.3588E-06, 5.3317E-06, 1.6050000000000001E-12, 5.3588E-06, 1.4015999999999957E-05
DataValue, 0.75, 0.05, 5.7430000000000007E-06, 1.535E-12, -5.7429000000000005E-06, 5.7430000000000007E-06, 1.535E-12, 5.7429000000000005E-06, 1.6452000000000082E-05
DataValue, 0.775, 0.05, 6.1753000000000008E-06, 1.525E-12, -6.1424000000000007E-06, 6.1753000000000008E-06, 1.525E-12, 6.1424000000000007E-06, 1.7291999999999986E-05
DataValue, 0.8, 0.05, 6.5688000000000005E-06, 1.535E-12, -6.5824000000000007E-06, 6.5688000000000005E-06, 1.535E-12, 6.5824000000000007E-06, 1.5739999999999975E-05
DataValue, 0.82500000000000007, 0.05, 7.0711000000000008E-06, 1.255E-12, -7.0598000000000006E-06, 7.0711000000000008E-06, 1.255E-12, 7.0598000000000006E-06, 2.0091999999999993E-05
DataValue, 0.85000000000000009, 0.05, 7.5568000000000011E-06, 8.95E-13, -7.5789E-06, 7.5568000000000011E-06, 8.95E-13, 7.5789E-06, 1.9427999999999994E-05
DataValue, 0.875, 0.05, 8.0419E-06, 5.45E-13, -8.0159E-06, 8.0419E-06, 5.45E-13, 8.0159E-06, 1.9404000000000026E-05
DataValue, 0.9, 0.05, 8.5309000000000016E-06, 3.9500000000000003E-13, -8.5197E-06, 8.5309000000000016E-06, 3.9500000000000003E-13, 8.5197E-06, 1.9560000000000047E-05
DataValue, 0.925, 0.05, 9.0195E-06, 5.45E-13, -9.0835E-06, 9.0195E-06, 5.45E-13, 9.0835E-06, 1.9543999999999944E-05
DataValue, 0.95000000000000007, 0.05, 9.6212E-06, 9.950000000000001E-13, -9.5917000000000017E-06, 9.6212E-06, 9.950000000000001E-13, 9.5917000000000017E-06, 2.4067999999999967E-05
DataValue, 0.97500000000000009, 0.05, 1.0103700000000001E-05, 1.2650000000000002E-12, -1.0116700000000001E-05, 1.0103700000000001E-05, 1.2650000000000002E-12, 1.0116700000000001E-05, 1.9300000000000019E-05
DataValue, 1, 0.05, 1.06621E-05, 1.525E-12, -1.0676300000000001E-05, 1.06621E-05, 1.525E-12, 1.0676300000000001E-05, 2.2336000000000062E-05
DataValue, 1.0250000000000001, 0.05, 1.1197600000000001E-05, 1.6950000000000002E-12, -1.1190700000000001E-05, 1.1197600000000001E-05, 1.6950000000000002E-12, 1.1190700000000001E-05, 2.1419999999999893E-05
