
SetupTitle, IdVg_Vd_par
PrimitiveTest, I/V Sweep
TestParameter, Context.MainFrame, B1500A
TestParameter, Channel.UnitType, SMU, SMU, SMU
TestParameter, Channel.Unit, SMU3:HR, SMU2:HR, SMU1:HR
TestParameter, Channel.IName, Id, Ig, Is
TestParameter, Channel.VName, Vd, Vg, Vs
TestParameter, Channel.Mode, V, V, V
TestParameter, Channel.Func, VAR2, VAR1, CONST
TestParameter, Channel.Index, 
TestParameter, Channel.Time, 
TestParameter, Measurement.Port.Unit, SMU3:HR, SMU2:HR, SMU1:HR
TestParameter, Measurement.Port.SeriesResistor, NONE, NONE, NONE
TestParameter, Measurement.Port.Filter, ON, ON, ON
TestParameter, Measurement.Port.OutputVoltageComparison, 0, 0, 0
TestParameter, Measurement.Primary.Locus, Double
TestParameter, Measurement.Primary.Scale, LINEAR
TestParameter, Measurement.Primary.Start, -1
TestParameter, Measurement.Primary.Stop, 2
TestParameter, Measurement.Primary.Step, 0.025
TestParameter, Measurement.Primary.Compliance, 0.1
TestParameter, Measurement.Primary.PowerCompliance, 0
TestParameter, Measurement.Aborting.Condition, STOP AT ANY ABNORMAL
TestParameter, Measurement.PostOutput.Value, START
TestParameter, Measurement.PostOutput.Retention, OFF
TestParameter, Measurement.Secondary.Start, 0.05
TestParameter, Measurement.Secondary.Count, 2
TestParameter, Measurement.Secondary.Step, 0.95000000000000007
TestParameter, Measurement.Secondary.Compliance, 0.1
TestParameter, Measurement.Secondary.PowerCompliance, 0
TestParameter, Measurement.Bias.Source, 0.05, -1, 0
TestParameter, Measurement.Bias.Compliance, 0.1, 0.1, 0.1
TestParameter, Measurement.Monitor.Unit, SMU3:HR, SMU2:HR, SMU1:HR
TestParameter, Measurement.Monitor.Adc, HR ADC, HR ADC, HR ADC
TestParameter, Measurement.Monitor.Measurement, Compliance Side, Compliance Side, Compliance Side
TestParameter, Measurement.Monitor.RangingMode, LIMITED, LIMITED, LIMITED
TestParameter, Measurement.Monitor.RangeBoundary, 1nA, 1nA, 1nA
TestParameter, Measurement.Monitor.RangeRating, BY FULL RANGE, BY FULL RANGE, BY FULL RANGE
TestParameter, Measurement.Monitor.RangeRatingCoeff, 50, 50, 50
TestParameter, Measurement.Timing.Hold, 0
TestParameter, Measurement.Timing.Delay, 0
TestParameter, Measurement.Adc.HighSpeed.Mode, AUTO
TestParameter, Measurement.Adc.HighSpeed.Coeff, 1
TestParameter, Measurement.Adc.HighResolution.AutoZero, OFF
TestParameter, Measurement.Adc.HighResolution.Mode, AUTO
TestParameter, Measurement.Adc.HighResolution.Coeff, 6
TestParameter, Measurement.WaitTime.Source.Coeff, 1
TestParameter, Measurement.WaitTime.Source.Offset, 0
TestParameter, Measurement.WaitTime.Monitor.Coeff, 1
TestParameter, Measurement.WaitTime.Monitor.Offset, 0
TestParameter, Function.User.Name, absId, absIg, absIs, gm
TestParameter, Function.User.Unit, A, A, A, S
TestParameter, Function.User.Definition, abs(Id), abs(Ig), abs(Is), diff(abs(Id))/diff(Vg)
TestParameter, Output.Graph.Enabled, true
TestParameter, Output.Graph.AutoScaling, false
TestParameter, Output.Graph.XAxis.Data, Vg
TestParameter, Output.Graph.XAxis.Scale, Linear
TestParameter, Output.Graph.XAxis.Left, -1
TestParameter, Output.Graph.XAxis.Right, 2
TestParameter, Output.Graph.XAxis.RunTimeAutoScale, false
TestParameter, Output.Graph.YAxis.Data, absId, gm, absIg, absIs
TestParameter, Output.Graph.YAxis.Scale, Log, Linear, Log, Log
TestParameter, Output.Graph.YAxis.Bottom, 1E-15, 0, 1E-15, 1E-15
TestParameter, Output.Graph.YAxis.Top, 0.001, 1, 0.001, 0.001
TestParameter, Output.Graph.YAxis.Group, , , , 
TestParameter, Output.Graph.YAxis.RunTimeAutoScale, false, true, false, false
TestParameter, Output.List.Data, Vg, Vd, Id, Is, Ig, absId, absIs, absIg, gm
TestParameter, AutoAnalysis.Interpolation, false
TestParameter, AutoAnalysis.Var2StepCount, 1
TestParameter, AutoAnalysis.Var2StepScript, 
TestParameter, AutoAnalysis.Line1.Enabled, false
TestParameter, AutoAnalysis.Line1.Type, 1
TestParameter, AutoAnalysis.Line1.Fix, True
TestParameter, AutoAnalysis.Line1.YAxis, 0
TestParameter, AutoAnalysis.Line1.Point1.Type, 0
TestParameter, AutoAnalysis.Line1.Point1.XY.X, 
TestParameter, AutoAnalysis.Line1.Point1.XY.Y, 
TestParameter, AutoAnalysis.Line1.Point1.Data.Var, 
TestParameter, AutoAnalysis.Line1.Point1.Data.Condition, 
TestParameter, AutoAnalysis.Line1.Point1.Data.Start, false
TestParameter, AutoAnalysis.Line1.Point1.Data.StartVar, 
TestParameter, AutoAnalysis.Line1.Point1.Data.StartCondition, 
TestParameter, AutoAnalysis.Line1.Point2.Type, 0
TestParameter, AutoAnalysis.Line1.Point2.XY.X, 
TestParameter, AutoAnalysis.Line1.Point2.XY.Y, 
TestParameter, AutoAnalysis.Line1.Point2.Data.Var, 
TestParameter, AutoAnalysis.Line1.Point2.Data.Condition, 
TestParameter, AutoAnalysis.Line1.Point2.Data.Start, false
TestParameter, AutoAnalysis.Line1.Point2.Data.StartVar, 
TestParameter, AutoAnalysis.Line1.Point2.Data.StartCondition, 
TestParameter, AutoAnalysis.Line1.GradientExpr, 0
TestParameter, AutoAnalysis.Line2.Enabled, false
TestParameter, AutoAnalysis.Line2.Type, 1
TestParameter, AutoAnalysis.Line2.Fix, True
TestParameter, AutoAnalysis.Line2.YAxis, 0
TestParameter, AutoAnalysis.Line2.Point1.Type, 0
TestParameter, AutoAnalysis.Line2.Point1.XY.X, 
TestParameter, AutoAnalysis.Line2.Point1.XY.Y, 
TestParameter, AutoAnalysis.Line2.Point1.Data.Var, 
TestParameter, AutoAnalysis.Line2.Point1.Data.Condition, 
TestParameter, AutoAnalysis.Line2.Point1.Data.Start, false
TestParameter, AutoAnalysis.Line2.Point1.Data.StartVar, 
TestParameter, AutoAnalysis.Line2.Point1.Data.StartCondition, 
TestParameter, AutoAnalysis.Line2.Point2.Type, 0
TestParameter, AutoAnalysis.Line2.Point2.XY.X, 
TestParameter, AutoAnalysis.Line2.Point2.XY.Y, 
TestParameter, AutoAnalysis.Line2.Point2.Data.Var, 
TestParameter, AutoAnalysis.Line2.Point2.Data.Condition, 
TestParameter, AutoAnalysis.Line2.Point2.Data.Start, false
TestParameter, AutoAnalysis.Line2.Point2.Data.StartVar, 
TestParameter, AutoAnalysis.Line2.Point2.Data.StartCondition, 
TestParameter, AutoAnalysis.Line2.GradientExpr, 0
TestParameter, AutoAnalysis.Marker.Enabled, false
TestParameter, AutoAnalysis.Marker.Data.Var, 
TestParameter, AutoAnalysis.Marker.Data.Condition, 
TestParameter, AutoAnalysis.Marker.Data.Start, false
TestParameter, AutoAnalysis.Marker.Data.StartVar, 
TestParameter, AutoAnalysis.Marker.Data.StartCondition, 
MetaData, TestRecord.EntryPoint, true
MetaData, TestRecord.RecordTime, 06/03/2025 16:09:38
MetaData, TestRecord.TestTarget, R[5]_D[6]_L[500]
MetaData, TestRecord.IterationIndex, 2
MetaData, TestRecord.Preservation, true
MetaData, TestRecord.Flag, !
MetaData, TestRecord.Remarks, 
MetaData, TestRecord.LinkKey, 7ee233a3-f251-409f-8477-03eb4ea8de27
MetaData, TestRecord.Parameters, 
Dimension1, 242, 242, 242, 242, 242, 242, 242, 242, 242
Dimension2, 2, 2, 2, 2, 2, 2, 2, 2, 2
DataName, Vg, Vd, Id, Ig, Is, absId, absIg, absIs, gm
DataValue, -1, 0.05, -1.3300000000000001E-13, 1.7250000000000002E-12, -1.556E-12, 1.3300000000000001E-13, 1.7250000000000002E-12, 1.556E-12, 
DataValue, -0.97500000000000009, 0.05, 1.77E-13, 1.425E-12, -1.7060000000000002E-12, 1.77E-13, 1.425E-12, 1.7060000000000002E-12, 1.7600000000000058E-12
DataValue, -0.95000000000000007, 0.05, -7.3E-14, 1.4550000000000002E-12, -1.556E-12, 7.3E-14, 1.4550000000000002E-12, 1.556E-12, -4.159999999999996E-12
DataValue, -0.925, 0.05, -1.3000000000000001E-14, 1.385E-12, -1.7460000000000002E-12, 1.3000000000000001E-14, 1.385E-12, 1.7460000000000002E-12, -2.3999999999999979E-12
DataValue, -0.9, 0.05, -2.6300000000000004E-13, 1.2750000000000001E-12, -1.696E-12, 2.6300000000000004E-13, 1.2750000000000001E-12, 1.696E-12, 9.9999999999999929E-12
DataValue, -0.875, 0.05, -3.3300000000000005E-13, 1.255E-12, -1.826E-12, 3.3300000000000005E-13, 1.255E-12, 1.826E-12, 2.7999999999999978E-12
DataValue, -0.85000000000000009, 0.05, -9.3000000000000008E-14, 1.4550000000000002E-12, -1.6160000000000002E-12, 9.3000000000000008E-14, 1.4550000000000002E-12, 1.6160000000000002E-12, -9.600000000000035E-12
DataValue, -0.82500000000000007, 0.05, -2.6300000000000004E-13, 1.575E-12, -1.7260000000000001E-12, 2.6300000000000004E-13, 1.575E-12, 1.7260000000000001E-12, 6.7999999999999953E-12
DataValue, -0.8, 0.05, -1.53E-13, 1.6550000000000001E-12, -1.956E-12, 1.53E-13, 1.6550000000000001E-12, 1.956E-12, -4.3999999999999974E-12
DataValue, -0.775, 0.05, -3.63E-13, 1.235E-12, -1.926E-12, 3.63E-13, 1.235E-12, 1.926E-12, 8.3999999999999933E-12
DataValue, -0.75, 0.05, -3.43E-13, 1.435E-12, -1.826E-12, 3.43E-13, 1.435E-12, 1.826E-12, -7.9999999999999992E-13
DataValue, -0.72500000000000009, 0.05, -2.1300000000000003E-13, 1.5150000000000001E-12, -1.446E-12, 2.1300000000000003E-13, 1.5150000000000001E-12, 1.446E-12, -5.2000000000000174E-12
DataValue, -0.70000000000000007, 0.05, -5.3E-14, 1.385E-12, -2.076E-12, 5.3E-14, 1.385E-12, 2.076E-12, -6.3999999999999953E-12
DataValue, -0.675, 0.05, -7.3E-14, 1.6950000000000002E-12, -1.6260000000000001E-12, 7.3E-14, 1.6950000000000002E-12, 1.6260000000000001E-12, 7.9999999999999942E-13
DataValue, -0.65, 0.05, 3.07E-13, 1.675E-12, -1.4860000000000001E-12, 3.07E-13, 1.675E-12, 1.4860000000000001E-12, 9.3599999999999924E-12
DataValue, -0.625, 0.05, -2.43E-13, 1.5050000000000002E-12, -1.5660000000000002E-12, 2.43E-13, 1.5050000000000002E-12, 1.5660000000000002E-12, -2.5599999999999968E-12
DataValue, -0.6, 0.05, -1.03E-13, 1.5850000000000002E-12, -2.006E-12, 1.03E-13, 1.5850000000000002E-12, 2.006E-12, -5.5999999999999955E-12
DataValue, -0.57500000000000007, 0.05, -4.33E-13, 1.3050000000000002E-12, -1.8060000000000002E-12, 4.33E-13, 1.3050000000000002E-12, 1.8060000000000002E-12, 1.3200000000000047E-11
DataValue, -0.55, 0.05, 2.47E-13, 1.375E-12, -2.286E-12, 2.47E-13, 1.375E-12, 2.286E-12, -7.4399999999999941E-12
DataValue, -0.525, 0.05, -2.3000000000000003E-14, 1.825E-12, -1.596E-12, 2.3000000000000003E-14, 1.825E-12, 1.596E-12, -8.9599999999999925E-12
DataValue, -0.5, 0.05, 3.4700000000000004E-13, 1.6450000000000002E-12, -1.9860000000000002E-12, 3.4700000000000004E-13, 1.6450000000000002E-12, 1.9860000000000002E-12, 1.295999999999999E-11
DataValue, -0.47500000000000003, 0.05, -3.53E-13, 1.575E-12, -1.7160000000000002E-12, 3.53E-13, 1.575E-12, 1.7160000000000002E-12, 2.3999999999999928E-13
DataValue, -0.45, 0.05, 6.7E-14, 1.615E-12, -1.956E-12, 6.7E-14, 1.615E-12, 1.956E-12, -1.143999999999999E-11
DataValue, -0.42500000000000004, 0.05, -4.4300000000000003E-13, 1.5150000000000001E-12, -2.0160000000000003E-12, 4.4300000000000003E-13, 1.5150000000000001E-12, 2.0160000000000003E-12, 1.504000000000002E-11
DataValue, -0.4, 0.05, -3.0000000000000002E-15, 1.235E-12, -1.876E-12, 3.0000000000000002E-15, 1.235E-12, 1.876E-12, -1.7599999999999986E-11
DataValue, -0.375, 0.05, -2.1300000000000003E-13, 1.7050000000000001E-12, -1.5760000000000002E-12, 2.1300000000000003E-13, 1.7050000000000001E-12, 1.5760000000000002E-12, 8.3999999999999933E-12
DataValue, -0.35000000000000003, 0.05, 5.700000000000001E-14, 1.4050000000000002E-12, -1.5260000000000002E-12, 5.700000000000001E-14, 1.4050000000000002E-12, 1.5260000000000002E-12, -6.240000000000009E-12
DataValue, -0.325, 0.05, 1.17E-13, 1.715E-12, -1.596E-12, 1.17E-13, 1.715E-12, 1.596E-12, 2.3999999999999979E-12
DataValue, -0.3, 0.05, -2.93E-13, 1.5450000000000002E-12, -1.6260000000000001E-12, 2.93E-13, 1.5450000000000002E-12, 1.6260000000000001E-12, 7.0399999999999942E-12
DataValue, -0.275, 0.05, -2.3000000000000003E-14, 1.3150000000000002E-12, -1.596E-12, 2.3000000000000003E-14, 1.3150000000000002E-12, 1.596E-12, -1.0800000000000015E-11
DataValue, -0.25, 0.05, 1.57E-13, 1.4150000000000001E-12, -1.7460000000000002E-12, 1.57E-13, 1.4150000000000001E-12, 1.7460000000000002E-12, 5.3599999999999957E-12
DataValue, -0.225, 0.05, 8.7000000000000008E-14, 1.665E-12, -1.976E-12, 8.7000000000000008E-14, 1.665E-12, 1.976E-12, -2.800000000000001E-12
DataValue, -0.2, 0.05, 2.47E-13, 1.575E-12, -1.6160000000000002E-12, 2.47E-13, 1.575E-12, 1.6160000000000002E-12, 6.4000000000000018E-12
DataValue, -0.17500000000000002, 0.05, -6.3000000000000009E-14, 1.3550000000000002E-12, -1.7260000000000001E-12, 6.3000000000000009E-14, 1.3550000000000002E-12, 1.7260000000000001E-12, -7.360000000000001E-12
DataValue, -0.15, 0.05, -3.2300000000000004E-13, 1.615E-12, -1.976E-12, 3.2300000000000004E-13, 1.615E-12, 1.976E-12, 1.0399999999999991E-11
DataValue, -0.125, 0.05, -4.33E-13, 1.6050000000000001E-12, -1.686E-12, 4.33E-13, 1.6050000000000001E-12, 1.686E-12, 4.4000000000000006E-12
DataValue, -0.1, 0.05, -8.3000000000000012E-14, 1.905E-12, -1.7460000000000002E-12, 8.3000000000000012E-14, 1.905E-12, 1.7460000000000002E-12, -1.4000000000000003E-11
DataValue, -0.075, 0.05, 1.2700000000000001E-13, 1.475E-12, -1.6560000000000002E-12, 1.2700000000000001E-13, 1.475E-12, 1.6560000000000002E-12, 1.7599999999999996E-12
DataValue, -0.05, 0.05, -2.3000000000000003E-14, 1.815E-12, -1.906E-12, 2.3000000000000003E-14, 1.815E-12, 1.906E-12, -4.1600000000000017E-12
DataValue, -0.025, 0.05, 5.0700000000000006E-13, 1.675E-12, -2.2460000000000003E-12, 5.0700000000000006E-13, 1.675E-12, 2.2460000000000003E-12, 1.936E-11
DataValue, 0, 0.05, 9.77E-13, 1.5550000000000001E-12, -3.016E-12, 9.77E-13, 1.5550000000000001E-12, 3.016E-12, 1.8799999999999996E-11
DataValue, 0.025, 0.05, 2.737E-12, 1.5950000000000002E-12, -4.7160000000000005E-12, 2.737E-12, 1.5950000000000002E-12, 4.7160000000000005E-12, 7.04E-11
DataValue, 0.05, 0.05, 7.0170000000000005E-12, 1.375E-12, -8.566E-12, 7.0170000000000005E-12, 1.375E-12, 8.566E-12, 1.7120000000000001E-10
DataValue, 0.075, 0.05, 1.8567E-11, 1.3150000000000002E-12, -1.9566E-11, 1.8567E-11, 1.3150000000000002E-12, 1.9566E-11, 4.6200000000000011E-10
DataValue, 0.1, 0.05, 4.5207000000000005E-11, 1.2750000000000001E-12, -4.6836E-11, 4.5207000000000005E-11, 1.2750000000000001E-12, 4.6836E-11, 1.0656E-09
DataValue, 0.125, 0.05, 1.1081700000000001E-10, 1.575E-12, -1.1245600000000001E-10, 1.1081700000000001E-10, 1.575E-12, 1.1245600000000001E-10, 2.624400000000001E-09
DataValue, 0.15, 0.05, 2.59857E-10, 1.565E-12, -2.62726E-10, 2.59857E-10, 1.565E-12, 2.62726E-10, 5.9616000000000006E-09
DataValue, 0.17500000000000002, 0.05, 5.73127E-10, 1.4450000000000002E-12, -5.7651600000000006E-10, 5.73127E-10, 1.4450000000000002E-12, 5.7651600000000006E-10, 1.2530799999999991E-08
DataValue, 0.2, 0.05, 1.19717E-09, 1.4450000000000002E-12, -1.18364E-09, 1.19717E-09, 1.4450000000000002E-12, 1.18364E-09, 2.496172E-08
DataValue, 0.225, 0.05, 2.33007E-09, 1.985E-12, -2.33384E-09, 2.33007E-09, 1.985E-12, 2.33384E-09, 4.5316000000000013E-08
DataValue, 0.25, 0.05, 4.26257E-09, 1.435E-12, -4.25364E-09, 4.26257E-09, 1.435E-12, 4.25364E-09, 7.7300000000000024E-08
DataValue, 0.275, 0.05, 7.23357E-09, 1.235E-12, -7.24834E-09, 7.23357E-09, 1.235E-12, 7.24834E-09, 1.1883999999999989E-07
DataValue, 0.3, 0.05, 1.15024E-08, 1.9150000000000002E-12, -1.1472399999999999E-08, 1.15024E-08, 1.9150000000000002E-12, 1.1472399999999999E-08, 1.7075320000000022E-07
DataValue, 0.325, 0.05, 1.73566E-08, 1.885E-12, -1.7359199999999998E-08, 1.73566E-08, 1.885E-12, 1.7359199999999998E-08, 2.341679999999998E-07
DataValue, 0.35000000000000003, 0.05, 2.50014E-08, 1.5950000000000002E-12, -2.5012399999999998E-08, 2.50014E-08, 1.5950000000000002E-12, 2.5012399999999998E-08, 3.0579199999999967E-07
DataValue, 0.375, 0.05, 3.4770799999999997E-08, 1.625E-12, -3.4735399999999995E-08, 3.4770799999999997E-08, 1.625E-12, 3.4735399999999995E-08, 3.9077600000000043E-07
DataValue, 0.4, 0.05, 4.63946E-08, 1.1750000000000001E-12, -4.62934E-08, 4.63946E-08, 1.1750000000000001E-12, 4.62934E-08, 4.6495199999999962E-07
DataValue, 0.42500000000000004, 0.05, 6.0227999999999988E-08, 1.3150000000000002E-12, -6.02404E-08, 6.0227999999999988E-08, 1.3150000000000002E-12, 6.02404E-08, 5.5333599999999915E-07
DataValue, 0.45, 0.05, 7.6413399999999993E-08, 1.475E-12, -7.6443399999999987E-08, 7.6413399999999993E-08, 1.475E-12, 7.6443399999999987E-08, 6.47416000000001E-07
DataValue, 0.47500000000000003, 0.05, 9.5147599999999991E-08, 1.805E-12, -9.5109599999999988E-08, 9.5147599999999991E-08, 1.805E-12, 9.5109599999999988E-08, 7.493679999999993E-07
DataValue, 0.5, 0.05, 1.1596E-07, 1.7050000000000001E-12, -1.1585999999999999E-07, 1.1596E-07, 1.7050000000000001E-12, 1.1585999999999999E-07, 8.3249600000000145E-07
DataValue, 0.525, 0.05, 1.395E-07, 1.345E-12, -1.3948E-07, 1.395E-07, 1.345E-12, 1.3948E-07, 9.4159999999999906E-07
DataValue, 0.55, 0.05, 1.6576E-07, 1.195E-12, -1.656E-07, 1.6576E-07, 1.195E-12, 1.656E-07, 1.0503999999999991E-06
DataValue, 0.57500000000000007, 0.05, 1.9434E-07, 1.0850000000000001E-12, -1.9364E-07, 1.9434E-07, 1.0850000000000001E-12, 1.9364E-07, 1.1431999999999993E-06
DataValue, 0.6, 0.05, 2.2532E-07, 1.5850000000000002E-12, -2.25E-07, 2.2532E-07, 1.5850000000000002E-12, 2.25E-07, 1.2392000000000046E-06
DataValue, 0.625, 0.05, 2.587E-07, 1.285E-12, -2.5842E-07, 2.587E-07, 1.285E-12, 2.5842E-07, 1.3351999999999987E-06
DataValue, 0.65, 0.05, 2.9606E-07, 1.285E-12, -2.9504E-07, 2.9606E-07, 1.285E-12, 2.9504E-07, 1.4943999999999992E-06
DataValue, 0.675, 0.05, 3.34E-07, 1.385E-12, -3.3352E-07, 3.34E-07, 1.385E-12, 3.3352E-07, 1.517599999999998E-06
DataValue, 0.70000000000000007, 0.05, 3.7486E-07, 1.535E-12, -3.7454E-07, 3.7486E-07, 1.535E-12, 3.7454E-07, 1.6343999999999989E-06
DataValue, 0.72500000000000009, 0.05, 4.1896E-07, 1.385E-12, -4.1795999999999997E-07, 4.1896E-07, 1.385E-12, 4.1795999999999997E-07, 1.7639999999999976E-06
DataValue, 0.75, 0.05, 4.6534E-07, 1.5550000000000001E-12, -4.6412E-07, 4.6534E-07, 1.5550000000000001E-12, 4.6412E-07, 1.8552000000000075E-06
DataValue, 0.775, 0.05, 5.147E-07, 1.285E-12, -5.1402E-07, 5.147E-07, 1.285E-12, 5.1402E-07, 1.9743999999999988E-06
DataValue, 0.8, 0.05, 5.6706E-07, 1.4650000000000001E-12, -5.659E-07, 5.6706E-07, 1.4650000000000001E-12, 5.659E-07, 2.0943999999999973E-06
DataValue, 0.82500000000000007, 0.05, 6.2204E-07, 1.385E-12, -6.2104E-07, 6.2204E-07, 1.385E-12, 6.2104E-07, 2.1991999999999971E-06
DataValue, 0.85000000000000009, 0.05, 6.8044E-07, 1.5550000000000001E-12, -6.7824E-07, 6.8044E-07, 1.5550000000000001E-12, 6.7824E-07, 2.3359999999999997E-06
DataValue, 0.875, 0.05, 7.3818E-07, 1.615E-12, -7.3904E-07, 7.3818E-07, 1.615E-12, 7.3904E-07, 2.3096000000000054E-06
DataValue, 0.9, 0.05, 8.0127999999999993E-07, 1.5950000000000002E-12, -8.018E-07, 8.0127999999999993E-07, 1.5950000000000002E-12, 8.018E-07, 2.5239999999999969E-06
DataValue, 0.925, 0.05, 8.6599999999999995E-07, 1.535E-12, -8.6558E-07, 8.6599999999999995E-07, 1.535E-12, 8.6558E-07, 2.5887999999999984E-06
DataValue, 0.95000000000000007, 0.05, 9.348E-07, 1.345E-12, -9.348E-07, 9.348E-07, 1.345E-12, 9.348E-07, 2.7520000000000009E-06
DataValue, 0.97500000000000009, 0.05, 1.00548E-06, 1.675E-12, -1.00436E-06, 1.00548E-06, 1.675E-12, 1.00436E-06, 2.8271999999999973E-06
DataValue, 1, 0.05, 1.07886E-06, 1.855E-12, -1.07904E-06, 1.07886E-06, 1.855E-12, 1.07904E-06, 2.9352000000000058E-06
DataValue, 1.0250000000000001, 0.05, 1.1579000000000002E-06, 1.2150000000000002E-12, -1.1562E-06, 1.1579000000000002E-06, 1.2150000000000002E-12, 1.1562E-06, 3.1615999999999936E-06
DataValue, 1.05, 0.05, 1.2354E-06, 1.535E-12, -1.2342000000000002E-06, 1.2354E-06, 1.535E-12, 1.2342000000000002E-06, 3.1000000000000067E-06
DataValue, 1.075, 0.05, 1.3166000000000002E-06, 1.875E-12, -1.3173E-06, 1.3166000000000002E-06, 1.875E-12, 1.3173E-06, 3.2480000000000183E-06
DataValue, 1.1, 0.05, 1.3991E-06, 1.6350000000000002E-12, -1.4006000000000002E-06, 1.3991E-06, 1.6350000000000002E-12, 1.4006000000000002E-06, 3.299999999999976E-06
DataValue, 1.125, 0.05, 1.489E-06, 1.2250000000000001E-12, -1.4909000000000002E-06, 1.489E-06, 1.2250000000000001E-12, 1.4909000000000002E-06, 3.5960000000000118E-06
