
SetupTitle, I/V Sweep_transfer_gm
PrimitiveTest, I/V Sweep
TestParameter, Context.MainFrame, B1500A
TestParameter, Channel.UnitType, SMU, SMU, SMU
TestParameter, Channel.Unit, SMU3:HR, SMU4:HR, SMU2:HR
TestParameter, Channel.IName, IG, ID, Is
TestParameter, Channel.VName, VG, VD, Vs
TestParameter, Channel.Mode, V, V, COMMON
TestParameter, Channel.Func, VAR1, VAR2, CONST
TestParameter, Channel.Index, 
TestParameter, Channel.Time, 
TestParameter, Measurement.Port.Unit, SMU3:HR, SMU4:HR, SMU2:HR
TestParameter, Measurement.Port.SeriesResistor, NONE, NONE, NONE
TestParameter, Measurement.Port.Filter, ON, ON, ON
TestParameter, Measurement.Port.OutputVoltageComparison, 0, 0, 0
TestParameter, Measurement.Primary.Locus, Double
TestParameter, Measurement.Primary.Scale, LINEAR
TestParameter, Measurement.Primary.Start, -0.5
TestParameter, Measurement.Primary.Stop, 2
TestParameter, Measurement.Primary.Step, 0.025
TestParameter, Measurement.Primary.Compliance, 0.1
TestParameter, Measurement.Primary.PowerCompliance, 0
TestParameter, Measurement.Aborting.Condition, CONTINUE AT ANY
TestParameter, Measurement.PostOutput.Value, START
TestParameter, Measurement.PostOutput.Retention, OFF
TestParameter, Measurement.Secondary.Start, 1
TestParameter, Measurement.Secondary.Count, 2
TestParameter, Measurement.Secondary.Step, -0.9
TestParameter, Measurement.Secondary.Compliance, 0.01
TestParameter, Measurement.Secondary.PowerCompliance, 0
TestParameter, Measurement.Bias.Source, -0.5, 1, 0
TestParameter, Measurement.Bias.Compliance, 0.1, 0.01, 0.1
TestParameter, Measurement.Monitor.Unit, SMU3:HR, SMU4:HR, SMU2:HR
TestParameter, Measurement.Monitor.Adc, HR ADC, HR ADC, HR ADC
TestParameter, Measurement.Monitor.Measurement, Compliance Side, Compliance Side, Compliance Side
TestParameter, Measurement.Monitor.RangingMode, LIMITED, LIMITED, LIMITED
TestParameter, Measurement.Monitor.RangeBoundary, 1nA, 1nA, 1nA
TestParameter, Measurement.Monitor.RangeRating, BY FULL RANGE, BY FULL RANGE, BY FULL RANGE
TestParameter, Measurement.Monitor.RangeRatingCoeff, 50, 50, 50
TestParameter, Measurement.Timing.Hold, 3
TestParameter, Measurement.Timing.Delay, 0.00030000000000000003
TestParameter, Measurement.Adc.HighSpeed.Mode, AUTO
TestParameter, Measurement.Adc.HighSpeed.Coeff, 1
TestParameter, Measurement.Adc.HighResolution.AutoZero, OFF
TestParameter, Measurement.Adc.HighResolution.Mode, AUTO
TestParameter, Measurement.Adc.HighResolution.Coeff, 6
TestParameter, Measurement.WaitTime.Source.Coeff, 1
TestParameter, Measurement.WaitTime.Source.Offset, 0
TestParameter, Measurement.WaitTime.Monitor.Coeff, 1
TestParameter, Measurement.WaitTime.Monitor.Offset, 0
TestParameter, Function.User.Name, IDS, IGS, Gm
TestParameter, Function.User.Unit, A, A, S
TestParameter, Function.User.Definition, abs(ID), abs(IG), diff(IDS)/diff(VG)
TestParameter, Output.Graph.Enabled, true
TestParameter, Output.Graph.AutoScaling, false
TestParameter, Output.Graph.XAxis.Data, VG
TestParameter, Output.Graph.XAxis.Scale, Linear
TestParameter, Output.Graph.XAxis.Left, -2
TestParameter, Output.Graph.XAxis.Right, 2
TestParameter, Output.Graph.XAxis.RunTimeAutoScale, false
TestParameter, Output.Graph.YAxis.Data, IDS, IGS, Gm
TestParameter, Output.Graph.YAxis.Scale, Log, Log, Linear
TestParameter, Output.Graph.YAxis.Bottom, 1E-14, 1E-14, 0
TestParameter, Output.Graph.YAxis.Top, 0.001, 0.001, 1
TestParameter, Output.Graph.YAxis.Group, , , 
TestParameter, Output.Graph.YAxis.RunTimeAutoScale, false, false, true
TestParameter, Output.List.Data, VD, ID, IGS, VG, Gm
TestParameter, AutoAnalysis.Interpolation, false
TestParameter, AutoAnalysis.Var2StepCount, 1
TestParameter, AutoAnalysis.Var2StepScript, 
TestParameter, AutoAnalysis.Line1.Enabled, false
TestParameter, AutoAnalysis.Line1.Type, 1
TestParameter, AutoAnalysis.Line1.Fix, True
TestParameter, AutoAnalysis.Line1.YAxis, 0
TestParameter, AutoAnalysis.Line1.Point1.Type, 0
TestParameter, AutoAnalysis.Line1.Point1.XY.X, 
TestParameter, AutoAnalysis.Line1.Point1.XY.Y, 
TestParameter, AutoAnalysis.Line1.Point1.Data.Var, 
TestParameter, AutoAnalysis.Line1.Point1.Data.Condition, 
TestParameter, AutoAnalysis.Line1.Point1.Data.Start, false
TestParameter, AutoAnalysis.Line1.Point1.Data.StartVar, 
TestParameter, AutoAnalysis.Line1.Point1.Data.StartCondition, 
TestParameter, AutoAnalysis.Line1.Point2.Type, 0
TestParameter, AutoAnalysis.Line1.Point2.XY.X, 
TestParameter, AutoAnalysis.Line1.Point2.XY.Y, 
TestParameter, AutoAnalysis.Line1.Point2.Data.Var, 
TestParameter, AutoAnalysis.Line1.Point2.Data.Condition, 
TestParameter, AutoAnalysis.Line1.Point2.Data.Start, false
TestParameter, AutoAnalysis.Line1.Point2.Data.StartVar, 
TestParameter, AutoAnalysis.Line1.Point2.Data.StartCondition, 
TestParameter, AutoAnalysis.Line1.GradientExpr, 0
TestParameter, AutoAnalysis.Line2.Enabled, false
TestParameter, AutoAnalysis.Line2.Type, 1
TestParameter, AutoAnalysis.Line2.Fix, True
TestParameter, AutoAnalysis.Line2.YAxis, 0
TestParameter, AutoAnalysis.Line2.Point1.Type, 0
TestParameter, AutoAnalysis.Line2.Point1.XY.X, 
TestParameter, AutoAnalysis.Line2.Point1.XY.Y, 
TestParameter, AutoAnalysis.Line2.Point1.Data.Var, 
TestParameter, AutoAnalysis.Line2.Point1.Data.Condition, 
TestParameter, AutoAnalysis.Line2.Point1.Data.Start, false
TestParameter, AutoAnalysis.Line2.Point1.Data.StartVar, 
TestParameter, AutoAnalysis.Line2.Point1.Data.StartCondition, 
TestParameter, AutoAnalysis.Line2.Point2.Type, 0
TestParameter, AutoAnalysis.Line2.Point2.XY.X, 
TestParameter, AutoAnalysis.Line2.Point2.XY.Y, 
TestParameter, AutoAnalysis.Line2.Point2.Data.Var, 
TestParameter, AutoAnalysis.Line2.Point2.Data.Condition, 
TestParameter, AutoAnalysis.Line2.Point2.Data.Start, false
TestParameter, AutoAnalysis.Line2.Point2.Data.StartVar, 
TestParameter, AutoAnalysis.Line2.Point2.Data.StartCondition, 
TestParameter, AutoAnalysis.Line2.GradientExpr, 0
TestParameter, AutoAnalysis.Marker.Enabled, false
TestParameter, AutoAnalysis.Marker.Data.Var, 
TestParameter, AutoAnalysis.Marker.Data.Condition, 
TestParameter, AutoAnalysis.Marker.Data.Start, false
TestParameter, AutoAnalysis.Marker.Data.StartVar, 
TestParameter, AutoAnalysis.Marker.Data.StartCondition, 
MetaData, TestRecord.EntryPoint, true
MetaData, TestRecord.RecordTime, 06/10/2025 05:04:03
MetaData, TestRecord.TestTarget, 
MetaData, TestRecord.IterationIndex, 4
MetaData, TestRecord.Preservation, true
MetaData, TestRecord.Flag, 
MetaData, TestRecord.Remarks, 
MetaData, TestRecord.LinkKey, 3877cd8f-73c7-43f4-a15e-46567984bb33
MetaData, TestRecord.Parameters, 
Dimension1, 202, 202, 202, 202, 202, 202, 202
Dimension2, 2, 2, 2, 2, 2, 2, 2
DataName, VG, VD, IG, ID, IDS, IGS, Gm
DataValue, -0.5, 1, 1.602E-11, -1.3850000000000001E-11, 1.3850000000000001E-11, 1.602E-11, 
DataValue, -0.47500000000000003, 1, 2.906E-11, -1.2480000000000002E-11, 1.2480000000000002E-11, 2.906E-11, -5.480000000000004E-11
DataValue, -0.45, 1, 2.9030000000000002E-11, -1.209E-11, 1.209E-11, 2.9030000000000002E-11, -1.5600000000000042E-11
DataValue, -0.42500000000000004, 1, 3.3960000000000005E-11, -1.0710000000000001E-11, 1.0710000000000001E-11, 3.3960000000000005E-11, -5.5200000000000046E-11
DataValue, -0.4, 1, 3.6720000000000003E-11, -1.118E-11, 1.118E-11, 3.6720000000000003E-11, 1.879999999999996E-11
DataValue, -0.375, 1, 3.5E-11, -9.9100000000000012E-12, 9.9100000000000012E-12, 3.5E-11, -5.0799999999999924E-11
DataValue, -0.35000000000000003, 1, 3.077E-11, -1.0630000000000001E-11, 1.0630000000000001E-11, 3.077E-11, 2.8800000000000045E-11
DataValue, -0.325, 1, 3.9930000000000005E-11, -9.0900000000000011E-12, 9.0900000000000011E-12, 3.9930000000000005E-11, -6.159999999999996E-11
DataValue, -0.3, 1, 5.0060000000000006E-11, -6.7700000000000004E-12, 6.7700000000000004E-12, 5.0060000000000006E-11, -9.2799999999999941E-11
DataValue, -0.275, 1, 4.9430000000000004E-11, -9.3000000000000012E-12, 9.3000000000000012E-12, 4.9430000000000004E-11, 1.0120000000000017E-10
DataValue, -0.25, 1, 3.806E-11, -6.04E-12, 6.04E-12, 3.806E-11, -1.3039999999999993E-10
DataValue, -0.225, 1, 3.118E-11, -4.2400000000000005E-12, 4.2400000000000005E-12, 3.118E-11, -7.2E-11
DataValue, -0.2, 1, 4.009E-11, -3.02E-12, 3.02E-12, 4.009E-11, -4.8800000000000028E-11
DataValue, -0.17500000000000002, 1, 4.9220000000000006E-11, -1.55E-12, 1.55E-12, 4.9220000000000006E-11, -5.8800000000000019E-11
DataValue, -0.15, 1, 4.818E-11, 3.76E-12, 3.76E-12, 4.818E-11, 8.8399999999999922E-11
DataValue, -0.125, 1, 4.6590000000000004E-11, 1.332E-11, 1.332E-11, 4.6590000000000004E-11, 3.824000000000001E-10
DataValue, -0.1, 1, 5.0850000000000004E-11, 2.7740000000000003E-11, 2.7740000000000003E-11, 5.0850000000000004E-11, 5.7680000000000022E-10
DataValue, -0.075, 1, 5.3410000000000006E-11, 5.3410000000000006E-11, 5.3410000000000006E-11, 5.3410000000000006E-11, 1.0267999999999998E-09
DataValue, -0.05, 1, 5.335E-11, 1.0989000000000001E-10, 1.0989000000000001E-10, 5.335E-11, 2.2592000000000006E-09
DataValue, -0.025, 1, 5.2160000000000004E-11, 1.7388000000000002E-10, 1.7388000000000002E-10, 5.2160000000000004E-11, 2.5596000000000005E-09
DataValue, 0, 1, 5.204E-11, 2.8437E-10, 2.8437E-10, 5.204E-11, 4.4196E-09
DataValue, 0.025, 1, 5.6090000000000004E-11, 4.9956000000000008E-10, 4.9956000000000008E-10, 5.6090000000000004E-11, 8.6076000000000016E-09
DataValue, 0.05, 1, 5.699E-11, 9.3747E-10, 9.3747E-10, 5.699E-11, 1.7516399999999998E-08
DataValue, 0.075, 1, -1.726E-11, 1.4613E-09, 1.4613E-09, 1.726E-11, 2.0953199999999997E-08
DataValue, 0.1, 1, 4.902E-11, 2.1114E-09, 2.1114E-09, 4.902E-11, 2.6003999999999993E-08
DataValue, 0.125, 1, 4.3710000000000003E-11, 3.1043E-09, 3.1043E-09, 4.3710000000000003E-11, 3.9716000000000016E-08
DataValue, 0.15, 1, 4.0550000000000005E-11, 4.8413E-09, 4.8413E-09, 4.0550000000000005E-11, 6.948E-08
DataValue, 0.17500000000000002, 1, 3.507E-11, 6.434E-09, 6.434E-09, 3.507E-11, 6.3707999999999951E-08
DataValue, 0.2, 1, 3.5600000000000005E-11, 8.5178E-09, 8.5178E-09, 3.5600000000000005E-11, 8.3352E-08
DataValue, 0.225, 1, -4.224E-11, 1.2826399999999999E-08, 1.2826399999999999E-08, 4.224E-11, 1.72344E-07
DataValue, 0.25, 1, 5.241E-11, 1.5974799999999998E-08, 1.5974799999999998E-08, 5.241E-11, 1.2593600000000002E-07
DataValue, 0.275, 1, 7.62E-12, 1.94926E-08, 1.94926E-08, 7.62E-12, 1.4071199999999992E-07
DataValue, 0.3, 1, -4.2910000000000004E-11, 2.6080399999999998E-08, 2.6080399999999998E-08, 4.2910000000000004E-11, 2.6351200000000028E-07
DataValue, 0.325, 1, -4.8390000000000007E-11, 3.14426E-08, 3.14426E-08, 4.8390000000000007E-11, 2.144879999999998E-07
DataValue, 0.35000000000000003, 1, 1.2360000000000002E-11, 3.77898E-08, 3.77898E-08, 1.2360000000000002E-11, 2.5388799999999984E-07
DataValue, 0.375, 1, 5.3150000000000005E-11, 4.5301799999999993E-08, 4.5301799999999993E-08, 5.3150000000000005E-11, 3.0048000000000021E-07
DataValue, 0.4, 1, 3.259E-11, 5.6710599999999996E-08, 5.6710599999999996E-08, 3.259E-11, 4.5635199999999966E-07
DataValue, 0.42500000000000004, 1, -3.1190000000000004E-11, 7.2855E-08, 7.2855E-08, 3.1190000000000004E-11, 6.4577599999999957E-07
DataValue, 0.45, 1, -5.4760000000000007E-11, 8.33996E-08, 8.33996E-08, 5.4760000000000007E-11, 4.2178400000000049E-07
DataValue, 0.47500000000000003, 1, -1.979E-11, 1.0067519999999999E-07, 1.0067519999999999E-07, 1.979E-11, 6.9102399999999911E-07
DataValue, 0.5, 1, 4.078E-11, 1.2406E-07, 1.2406E-07, 4.078E-11, 9.3539200000000113E-07
DataValue, 0.525, 1, 1.839E-11, 1.4562E-07, 1.4562E-07, 1.839E-11, 8.6239999999999989E-07
DataValue, 0.55, 1, -1.0930000000000001E-11, 1.6552E-07, 1.6552E-07, 1.0930000000000001E-11, 7.9599999999999871E-07
DataValue, 0.57500000000000007, 1, -3.1590000000000004E-11, 1.8302E-07, 1.8302E-07, 3.1590000000000004E-11, 7.0000000000000007E-07
DataValue, 0.6, 1, -5.1850000000000007E-11, 2.0244E-07, 2.0244E-07, 5.1850000000000007E-11, 7.7680000000000267E-07
DataValue, 0.625, 1, -5.7410000000000005E-11, 2.227E-07, 2.227E-07, 5.7410000000000005E-11, 8.1039999999999916E-07
DataValue, 0.65, 1, -4.8850000000000004E-11, 2.567E-07, 2.567E-07, 4.8850000000000004E-11, 1.3599999999999993E-06
DataValue, 0.675, 1, -3.402E-11, 2.852E-07, 2.852E-07, 3.402E-11, 1.1399999999999978E-06
DataValue, 0.70000000000000007, 1, -1.208E-11, 3.0343999999999997E-07, 3.0343999999999997E-07, 1.208E-11, 7.295999999999987E-07
DataValue, 0.72500000000000009, 1, 1.524E-11, 3.5434E-07, 3.5434E-07, 1.524E-11, 2.0359999999999988E-06
DataValue, 0.75, 1, 3.408E-11, 3.9216E-07, 3.9216E-07, 3.408E-11, 1.5128000000000055E-06
DataValue, 0.775, 1, 4.581E-11, 4.5428E-07, 4.5428E-07, 4.581E-11, 2.4847999999999991E-06
DataValue, 0.8, 1, 5.066E-11, 5.3166E-07, 5.3166E-07, 5.066E-11, 3.0951999999999962E-06
DataValue, 0.82500000000000007, 1, 4.116E-11, 5.677E-07, 5.677E-07, 4.116E-11, 1.4415999999999986E-06
DataValue, 0.85000000000000009, 1, 2.6810000000000002E-11, 6.2555999999999994E-07, 6.2555999999999994E-07, 2.6810000000000002E-11, 2.3143999999999964E-06
DataValue, 0.875, 1, 8.9000000000000013E-12, 6.8798E-07, 6.8798E-07, 8.9000000000000013E-12, 2.496800000000011E-06
DataValue, 0.9, 1, -1.3580000000000002E-11, 7.248E-07, 7.248E-07, 1.3580000000000002E-11, 1.4728000000000001E-06
DataValue, 0.925, 1, -4.0800000000000004E-11, 8.156E-07, 8.156E-07, 4.0800000000000004E-11, 3.6319999999999942E-06
DataValue, 0.95000000000000007, 1, -5.153E-11, 8.9706E-07, 8.9706E-07, 5.153E-11, 3.2583999999999987E-06
DataValue, 0.97500000000000009, 1, -4.815E-11, 9.5222E-07, 9.5222E-07, 4.815E-11, 2.2063999999999968E-06
DataValue, 1, 1, -3.412E-11, 1.06824E-06, 1.06824E-06, 3.412E-11, 4.6408000000000183E-06
DataValue, 1.0250000000000001, 1, -5.0850000000000004E-11, 1.0737000000000002E-06, 1.0737000000000002E-06, 5.0850000000000004E-11, 2.1840000000000508E-07
DataValue, 1.05, 1, -4.6990000000000004E-11, 1.1509E-06, 1.1509E-06, 4.6990000000000004E-11, 3.0880000000000058E-06
DataValue, 1.075, 1, -5.688E-11, 1.2260000000000002E-06, 1.2260000000000002E-06, 5.688E-11, 3.004000000000016E-06
DataValue, 1.1, 1, -5.8490000000000009E-11, 1.2704000000000002E-06, 1.2704000000000002E-06, 5.8490000000000009E-11, 1.7759999999999884E-06
DataValue, 1.125, 1, -4.7900000000000004E-11, 1.3824E-06, 1.3824E-06, 4.7900000000000004E-11, 4.4800000000000139E-06
DataValue, 1.1500000000000001, 1, -3.9100000000000006E-11, 1.4732000000000001E-06, 1.4732000000000001E-06, 3.9100000000000006E-11, 3.6319999999999823E-06
DataValue, 1.175, 1, -3.267E-11, 1.5575000000000001E-06, 1.5575000000000001E-06, 3.267E-11, 3.3720000000000111E-06
DataValue, 1.2, 1, -2.8710000000000003E-11, 1.6515000000000002E-06, 1.6515000000000002E-06, 2.8710000000000003E-11, 3.7600000000000165E-06
DataValue, 1.225, 1, -1.6690000000000003E-11, 1.7712E-06, 1.7712E-06, 1.6690000000000003E-11, 4.78799999999997E-06
DataValue, 1.25, 1, 2.59E-12, 1.9121000000000003E-06, 1.9121000000000003E-06, 2.59E-12, 5.6360000000000287E-06
DataValue, 1.2750000000000001, 1, 1.9980000000000002E-11, 2.0131000000000003E-06, 2.0131000000000003E-06, 1.9980000000000002E-11, 4.0399999999999774E-06
DataValue, 1.3, 1, 3.5700000000000003E-11, 2.0865000000000003E-06, 2.0865000000000003E-06, 3.5700000000000003E-11, 2.9360000000000109E-06
DataValue, 1.325, 1, 4.971E-11, 2.1214E-06, 2.1214E-06, 4.971E-11, 1.3959999999999996E-06
DataValue, 1.35, 1, 5.826E-11, 2.1754000000000004E-06, 2.1754000000000004E-06, 5.826E-11, 2.1599999999999984E-06
DataValue, 1.375, 1, 6.164E-11, 2.2661E-06, 2.2661E-06, 6.164E-11, 3.6280000000000058E-06
DataValue, 1.4000000000000001, 1, 6.138E-11, 2.2891000000000002E-06, 2.2891000000000002E-06, 6.138E-11, 9.1999999999999649E-07
DataValue, 1.425, 1, 5.492E-11, 2.4304E-06, 2.4304E-06, 5.492E-11, 5.652000000000013E-06
DataValue, 1.4500000000000002, 1, 4.1310000000000004E-11, 2.5042E-06, 2.5042E-06, 4.1310000000000004E-11, 2.9519999999999859E-06
DataValue, 1.475, 1, 2.7270000000000003E-11, 2.6479E-06, 2.6479E-06, 2.7270000000000003E-11, 5.74800000000002E-06
DataValue, 1.5, 1, 1.4960000000000002E-11, 2.7231000000000002E-06, 2.7231000000000002E-06, 1.4960000000000002E-11, 3.0080000000000163E-06
DataValue, 1.5250000000000001, 1, 8.6000000000000007E-13, 2.8151000000000004E-06, 2.8151000000000004E-06, 8.6000000000000007E-13, 3.6799999999999859E-06
DataValue, 1.55, 1, -1.34E-11, 2.8822E-06, 2.8822E-06, 1.34E-11, 2.6839999999999996E-06
DataValue, 1.5750000000000002, 1, -2.398E-11, 2.9801000000000005E-06, 2.9801000000000005E-06, 2.398E-11, 3.9159999999999935E-06
DataValue, 1.6, 1, -3.783E-11, 3.1433000000000005E-06, 3.1433000000000005E-06, 3.783E-11, 6.528000000000022E-06
DataValue, 1.625, 1, -4.7460000000000003E-11, 3.1967000000000002E-06, 3.1967000000000002E-06, 4.7460000000000003E-11, 2.1359999999999987E-06
DataValue, 1.6500000000000001, 1, -4.9510000000000005E-11, 3.4000000000000005E-06, 3.4000000000000005E-06, 4.9510000000000005E-11, 8.1319999999999655E-06
DataValue, 1.675, 1, -4.7760000000000005E-11, 3.5351000000000003E-06, 3.5351000000000003E-06, 4.7760000000000005E-11, 5.4040000000000104E-06
DataValue, 1.7000000000000002, 1, -4.447E-11, 3.7365000000000006E-06, 3.7365000000000006E-06, 4.447E-11, 8.05599999999997E-06
DataValue, 1.725, 1, -4.02E-11, 3.9042000000000007E-06, 3.9042000000000007E-06, 4.02E-11, 6.7080000000000279E-06
DataValue, 1.75, 1, -3.5780000000000005E-11, 4.0930000000000005E-06, 4.0930000000000005E-06, 3.5780000000000005E-11, 7.5520000000000185E-06
DataValue, 1.7750000000000001, 1, -3.124E-11, 4.1179E-06, 4.1179E-06, 3.124E-11, 9.9599999999997636E-07
DataValue, 1.8, 1, -1.6470000000000002E-11, 4.2493E-06, 4.2493E-06, 1.6470000000000002E-11, 5.2560000000000239E-06
DataValue, 1.8250000000000002, 1, 3.3100000000000002E-12, 4.3459E-06, 4.3459E-06, 3.3100000000000002E-12, 3.863999999999982E-06
DataValue, 1.85, 1, 2.028E-11, 4.6504E-06, 4.6504E-06, 2.028E-11, 1.2180000000000053E-05
DataValue, 1.875, 1, 3.293E-11, 4.8117000000000009E-06, 4.8117000000000009E-06, 3.293E-11, 6.4520000000000417E-06
DataValue, 1.9000000000000001, 1, 4.5610000000000005E-11, 4.9448000000000005E-06, 4.9448000000000005E-06, 4.5610000000000005E-11, 5.323999999999957E-06
DataValue, 1.925, 1, 5.5310000000000007E-11, 5.0085E-06, 5.0085E-06, 5.5310000000000007E-11, 2.5480000000000055E-06
DataValue, 1.9500000000000002, 1, 5.6680000000000005E-11, 5.1753E-06, 5.1753E-06, 5.6680000000000005E-11, 6.6719999999999575E-06
DataValue, 1.975, 1, 5.543E-11, 5.3133000000000004E-06, 5.3133000000000004E-06, 5.543E-11, 5.5200000000000276E-06
DataValue, 2, 1, 4.7760000000000005E-11, 5.4250000000000006E-06, 5.4250000000000006E-06, 4.7760000000000005E-11, 4.4680000000000214E-06
DataValue, 2, 1, -3.59E-11, 5.3644000000000007E-06, 5.3644000000000007E-06, 3.59E-11, 
DataValue, 1.975, 1, -2.198E-11, 5.1109000000000005E-06, 5.1109000000000005E-06, 2.198E-11, 1.0140000000000044E-05
DataValue, 1.9500000000000002, 1, -2.9600000000000003E-12, 5.0185E-06, 5.0185E-06, 2.9600000000000003E-12, 3.6960000000000198E-06
DataValue, 1.925, 1, 9.8000000000000011E-12, 4.8332000000000006E-06, 4.8332000000000006E-06, 9.8000000000000011E-12, 7.4119999999999495E-06
DataValue, 1.9000000000000001, 1, 1.9690000000000002E-11, 4.6608E-06, 4.6608E-06, 1.9690000000000002E-11, 6.8960000000000344E-06
DataValue, 1.875, 1, 3.4680000000000003E-11, 4.4974E-06, 4.4974E-06, 3.4680000000000003E-11, 6.535999999999965E-06
DataValue, 1.85, 1, 4.851E-11, 4.3327E-06, 4.3327E-06, 4.851E-11, 6.5880000000000359E-06
DataValue, 1.8250000000000002, 1, 5.6620000000000007E-11, 4.1364000000000007E-06, 4.1364000000000007E-06, 5.6620000000000007E-11, 7.8519999999999987E-06
DataValue, 1.8, 1, 5.736E-11, 3.9735E-06, 3.9735E-06, 5.736E-11, 6.5159999999999889E-06
DataValue, 1.7750000000000001, 1, 5.244E-11, 3.7730000000000006E-06, 3.7730000000000006E-06, 5.244E-11, 8.020000000000013E-06
