 ****** PrimeSim HSPICE -- R-2020.12-SP1 linux64 (Apr 10 2021 6983340) ******
  Copyright (c) 1986 - 2025 by Synopsys, Inc. All Rights Reserved.
  This software and the associated documentation are proprietary
  to Synopsys, Inc. This software may only be used in accordance
  with the terms and conditions of a written license agreement with
  Synopsys, Inc. All other use, reproduction, or distribution of
  this software is strictly prohibited.
  Input File: osfet_model_run.sp                                                
  Command line options: /cad/synopsys/hspice/R-2020.12-SP1/hspice/linux64/hspice osfet_model_run.sp -o
  Start time: Sun Aug 17 23:27:15 2025
 lic:  
 lic: FLEXlm: SDK_12.9.5 
 lic: USER:   kj2011               HOSTNAME: nanopower.stanford.edu 
 lic: HOSTID: "002590e70e02"       PID:      3038806 
 lic: Using FLEXlm license file: 
 lic: 27000@cadlic0.stanford.edu 
 lic: Checkout 1 hspice 
 lic: License/Maintenance for hspice will expire on 06-nov-2026/2025.06 
 lic: 1(in_use)/200(total) FLOATING license(s) on SERVER 27000@cadlic0.stanford.edu 
 lic:   
 **info** *pvaI* current limit stacksize=8388608, set new limit stacksize=62914560

 Loading pVA library osfet_model_run.pvadir/pvaRTL_linux64.so...
1****** PrimeSim HSPICE -- R-2020.12-SP1 linux64 (Apr 10 2021 6983340) ******
 ******  
 ** osfet model test

 ****** circuit name directory
 circuit number to circuit name directory
   number circuitname                     definition         multiplier
        0 main circuit
        1 xos.                            osfet(va)          1.00 
 **info** *pvaI* Creating VA module (osfet) for instance XOS

 **info** *pvaI*        termCount=9 diwSize=50 probeSize=74 Qsize=4 Isize=7

 End of GMD creation on Sun Aug 17 23:27:16 2025	GTM/In-use: 3.3750/2.2696 MB


  
      
 *****************************************************************
 ******  option summary
 ******
 runlvl  = 3         bypass  = 2.0000    
  Opening plot unit= 15
 file=osfet_model_run.pa0

 End of pVA setup    on Sun Aug 17 23:27:16 2025	GTM/In-use: 3.3750/2.3102 MB


 Begin of pVA simulation on Sun Aug 17 23:27:16 2025	GTM/In-use: 3.3750/2.3102 MB


 temperature = 2.981500e+02

 temperature = 2.981500e+02

 temperature = 2.981500e+02

 temperature = 2.981500e+02

 temperature = 2.981500e+02

 temperature = 2.981500e+02

 temperature = 2.981500e+02

 temperature = 2.981500e+02

 temperature = 2.981500e+02

 temperature = 2.981500e+02

 temperature = 2.981500e+02

 temperature = 2.981500e+02

 temperature = 2.981500e+02

 temperature = 2.981500e+02

 temperature = 2.981500e+02

 temperature = 2.981500e+02

 temperature = 2.981500e+02

 temperature = 2.981500e+02

 temperature = 2.981500e+02

 temperature = 2.981500e+02

 temperature = 2.981500e+02

 temperature = 2.981500e+02

 temperature = 2.981500e+02

 temperature = 2.981500e+02

 temperature = 2.981500e+02

 temperature = 2.981500e+02

 temperature = 2.981500e+02

 temperature = 2.981500e+02

 temperature = 2.981500e+02

 temperature = 2.981500e+02

 temperature = 2.981500e+02

 temperature = 2.981500e+02

 temperature = 2.981500e+02

 temperature = 2.981500e+02

 temperature = 2.981500e+02

 temperature = 2.981500e+02

 temperature = 2.981500e+02

 temperature = 2.981500e+02

 temperature = 2.981500e+02

 temperature = 2.981500e+02

 temperature = 2.981500e+02

 temperature = 2.981500e+02

 temperature = 2.981500e+02

 temperature = 2.981500e+02

 temperature = 2.981500e+02

 temperature = 2.981500e+02

 temperature = 2.981500e+02

 temperature = 2.981500e+02

 temperature = 2.981500e+02

 temperature = 2.981500e+02

  **warning** too many 50 repeated identical pVA messages given, further will be suppressed in the log file
 ******
 ** osfet model test

 ****** dc transfer curves tnom=  25.000 temp=  25.000 ******
  *** parameter vdrain =   5.000e-02       ***
  
x

 vgate        voltage    current   
             g          vs         
 -1.0000e+00 -1.000e+00  1.118e-19 
 -9.7500e-01 -9.750e-01  2.190e-19 
 -9.5000e-01 -9.500e-01  4.309e-19 
 -9.2500e-01 -9.250e-01  8.440e-19 
 -9.0000e-01 -9.000e-01  1.657e-18 
 -8.7500e-01 -8.750e-01  3.254e-18 
 -8.5000e-01 -8.500e-01  6.386e-18 
 -8.2500e-01 -8.250e-01  1.253e-17 
 -8.0000e-01 -8.000e-01  2.459e-17 
 -7.7500e-01 -7.750e-01  4.826e-17 
 -7.5000e-01 -7.500e-01  9.471e-17 
 -7.2500e-01 -7.250e-01  1.859e-16 
 -7.0000e-01 -7.000e-01  3.647e-16 
 -6.7500e-01 -6.750e-01  7.157e-16 
 -6.5000e-01 -6.500e-01  1.404e-15 
 -6.2500e-01 -6.250e-01  2.756e-15 
 -6.0000e-01 -6.000e-01  5.408e-15 
 -5.7500e-01 -5.750e-01  1.061e-14 
 -5.5000e-01 -5.500e-01  2.082e-14 
 -5.2500e-01 -5.250e-01  4.084e-14 
 -5.0000e-01 -5.000e-01  8.012e-14 
 -4.7500e-01 -4.750e-01  1.571e-13 
 -4.5000e-01 -4.500e-01  3.081e-13 
 -4.2500e-01 -4.250e-01  6.039e-13 
 -4.0000e-01 -4.000e-01  1.183e-12 
 -3.7500e-01 -3.750e-01  2.316e-12 
 -3.5000e-01 -3.500e-01  4.531e-12 
 -3.2500e-01 -3.250e-01  8.851e-12 
 -3.0000e-01 -3.000e-01  1.726e-11 
 -2.7500e-01 -2.750e-01  3.356e-11 
 -2.5000e-01 -2.500e-01  6.502e-11 
 -2.2500e-01 -2.250e-01  1.253e-10 
 -2.0000e-01 -2.000e-01  2.400e-10 
 -1.7500e-01 -1.750e-01  4.554e-10 
 -1.5000e-01 -1.500e-01  8.535e-10 
 -1.2500e-01 -1.250e-01  1.575e-09 
 -1.0000e-01 -1.000e-01  2.850e-09 
 -7.5000e-02 -7.500e-02  5.035e-09 
 -5.0000e-02 -5.000e-02  8.655e-09 
 -2.5000e-02 -2.500e-02  1.442e-08 
  0.0000e+00  0.000e+00  2.326e-08 
  2.5000e-02  2.500e-02  3.625e-08 
  5.0000e-02  5.000e-02  5.465e-08 
  7.5000e-02  7.500e-02  7.977e-08 
  1.0000e-01  1.000e-01  1.130e-07 
  1.2500e-01  1.250e-01  1.556e-07 
  1.5000e-01  1.500e-01  2.090e-07 
  1.7500e-01  1.750e-01  2.745e-07 
  2.0000e-01  2.000e-01  3.532e-07 
  2.2500e-01  2.250e-01  4.464e-07 
  2.5000e-01  2.500e-01  5.552e-07 
  2.7500e-01  2.750e-01  6.806e-07 
  3.0000e-01  3.000e-01  8.236e-07 
  3.2500e-01  3.250e-01  9.851e-07 
  3.5000e-01  3.500e-01  1.166e-06 
  3.7500e-01  3.750e-01  1.367e-06 
  4.0000e-01  4.000e-01  1.589e-06 
  4.2500e-01  4.250e-01  1.832e-06 
  4.5000e-01  4.500e-01  2.098e-06 
  4.7500e-01  4.750e-01  2.385e-06 
  5.0000e-01  5.000e-01  2.696e-06 
  5.2500e-01  5.250e-01  3.029e-06 
  5.5000e-01  5.500e-01  3.385e-06 
  5.7500e-01  5.750e-01  3.763e-06 
  6.0000e-01  6.000e-01  4.165e-06 
  6.2500e-01  6.250e-01  4.588e-06 
  6.5000e-01  6.500e-01  5.033e-06 
  6.7500e-01  6.750e-01  5.500e-06 
  7.0000e-01  7.000e-01  5.987e-06 
  7.2500e-01  7.250e-01  6.494e-06 
  7.5000e-01  7.500e-01  7.020e-06 
  7.7500e-01  7.750e-01  7.564e-06 
  8.0000e-01  8.000e-01  8.125e-06 
  8.2500e-01  8.250e-01  8.702e-06 
  8.5000e-01  8.500e-01  9.294e-06 
  8.7500e-01  8.750e-01  9.901e-06 
  9.0000e-01  9.000e-01  1.052e-05 
  9.2500e-01  9.250e-01  1.115e-05 
  9.5000e-01  9.500e-01  1.179e-05 
  9.7500e-01  9.750e-01  1.244e-05 
  1.0000e+00  1.000e+00  1.310e-05 
  1.0250e+00  1.025e+00  1.377e-05 
  1.0500e+00  1.050e+00  1.444e-05 
  1.0750e+00  1.075e+00  1.512e-05 
  1.1000e+00  1.100e+00  1.581e-05 
  1.1250e+00  1.125e+00  1.650e-05 
  1.1500e+00  1.150e+00  1.719e-05 
  1.1750e+00  1.175e+00  1.788e-05 
  1.2000e+00  1.200e+00  1.858e-05 
  1.2250e+00  1.225e+00  1.928e-05 
  1.2500e+00  1.250e+00  1.998e-05 
  1.2750e+00  1.275e+00  2.068e-05 
  1.3000e+00  1.300e+00  2.138e-05 
  1.3250e+00  1.325e+00  2.208e-05 
  1.3500e+00  1.350e+00  2.278e-05 
  1.3750e+00  1.375e+00  2.348e-05 
  1.4000e+00  1.400e+00  2.418e-05 
  1.4250e+00  1.425e+00  2.487e-05 
  1.4500e+00  1.450e+00  2.557e-05 
  1.4750e+00  1.475e+00  2.626e-05 
  1.5000e+00  1.500e+00  2.695e-05 
  1.5250e+00  1.525e+00  2.764e-05 
  1.5500e+00  1.550e+00  2.832e-05 
  1.5750e+00  1.575e+00  2.900e-05 
  1.6000e+00  1.600e+00  2.968e-05 
  1.6250e+00  1.625e+00  3.036e-05 
  1.6500e+00  1.650e+00  3.103e-05 
  1.6750e+00  1.675e+00  3.170e-05 
  1.7000e+00  1.700e+00  3.237e-05 
  1.7250e+00  1.725e+00  3.303e-05 
  1.7500e+00  1.750e+00  3.369e-05 
  1.7750e+00  1.775e+00  3.435e-05 
  1.8000e+00  1.800e+00  3.500e-05 
  1.8250e+00  1.825e+00  3.565e-05 
  1.8500e+00  1.850e+00  3.630e-05 
  1.8750e+00  1.875e+00  3.694e-05 
  1.9000e+00  1.900e+00  3.758e-05 
  1.9250e+00  1.925e+00  3.822e-05 
  1.9500e+00  1.950e+00  3.885e-05 
  1.9750e+00  1.975e+00  3.948e-05 
  2.0000e+00  2.000e+00  4.011e-05 
y
 ******
 ** osfet model test

 ****** dc transfer curves tnom=  25.000 temp=  25.000 ******
  *** parameter vdrain =   2.000e+00       ***
  
x

 vgate        voltage    current   
             g          vs         
 -1.0000e+00 -1.000e+00  3.060e-18 
 -9.7500e-01 -9.750e-01  6.005e-18 
 -9.5000e-01 -9.500e-01  1.178e-17 
 -9.2500e-01 -9.250e-01  2.312e-17 
 -9.0000e-01 -9.000e-01  4.538e-17 
 -8.7500e-01 -8.750e-01  8.905e-17 
 -8.5000e-01 -8.500e-01  1.748e-16 
 -8.2500e-01 -8.250e-01  3.429e-16 
 -8.0000e-01 -8.000e-01  6.730e-16 
 -7.7500e-01 -7.750e-01  1.321e-15 
 -7.5000e-01 -7.500e-01  2.591e-15 
 -7.2500e-01 -7.250e-01  5.085e-15 
 -7.0000e-01 -7.000e-01  9.978e-15 
 -6.7500e-01 -6.750e-01  1.958e-14 
 -6.5000e-01 -6.500e-01  3.841e-14 
 -6.2500e-01 -6.250e-01  7.536e-14 
 -6.0000e-01 -6.000e-01  1.478e-13 
 -5.7500e-01 -5.750e-01  2.899e-13 
 -5.5000e-01 -5.500e-01  5.684e-13 
 -5.2500e-01 -5.250e-01  1.114e-12 
 -5.0000e-01 -5.000e-01  2.182e-12 
 -4.7500e-01 -4.750e-01  4.273e-12 
 -4.5000e-01 -4.500e-01  8.356e-12 
 -4.2500e-01 -4.250e-01  1.632e-11 
 -4.0000e-01 -4.000e-01  3.180e-11 
 -3.7500e-01 -3.750e-01  6.182e-11 
 -3.5000e-01 -3.500e-01  1.197e-10 
 -3.2500e-01 -3.250e-01  2.306e-10 
 -3.0000e-01 -3.000e-01  4.412e-10 
 -2.7500e-01 -2.750e-01  8.363e-10 
 -2.5000e-01 -2.500e-01  1.566e-09 
 -2.2500e-01 -2.250e-01  2.888e-09 
 -2.0000e-01 -2.000e-01  5.227e-09 
 -1.7500e-01 -1.750e-01  9.253e-09 
 -1.5000e-01 -1.500e-01  1.597e-08 
 -1.2500e-01 -1.250e-01  2.683e-08 
 -1.0000e-01 -1.000e-01  4.379e-08 
 -7.5000e-02 -7.500e-02  6.944e-08 
 -5.0000e-02 -5.000e-02  1.070e-07 
 -2.5000e-02 -2.500e-02  1.604e-07 
  0.0000e+00  0.000e+00  2.343e-07 
  2.5000e-02  2.500e-02  3.342e-07 
  5.0000e-02  5.000e-02  4.660e-07 
  7.5000e-02  7.500e-02  6.367e-07 
  1.0000e-01  1.000e-01  8.538e-07 
  1.2500e-01  1.250e-01  1.125e-06 
  1.5000e-01  1.500e-01  1.461e-06 
  1.7500e-01  1.750e-01  1.869e-06 
  2.0000e-01  2.000e-01  2.360e-06 
  2.2500e-01  2.250e-01  2.945e-06 
  2.5000e-01  2.500e-01  3.634e-06 
  2.7500e-01  2.750e-01  4.440e-06 
  3.0000e-01  3.000e-01  5.375e-06 
  3.2500e-01  3.250e-01  6.450e-06 
  3.5000e-01  3.500e-01  7.678e-06 
  3.7500e-01  3.750e-01  9.072e-06 
  4.0000e-01  4.000e-01  1.064e-05 
  4.2500e-01  4.250e-01  1.241e-05 
  4.5000e-01  4.500e-01  1.437e-05 
  4.7500e-01  4.750e-01  1.655e-05 
  5.0000e-01  5.000e-01  1.896e-05 
  5.2500e-01  5.250e-01  2.161e-05 
  5.5000e-01  5.500e-01  2.450e-05 
  5.7500e-01  5.750e-01  2.766e-05 
  6.0000e-01  6.000e-01  3.108e-05 
  6.2500e-01  6.250e-01  3.478e-05 
  6.5000e-01  6.500e-01  3.876e-05 
  6.7500e-01  6.750e-01  4.303e-05 
  7.0000e-01  7.000e-01  4.760e-05 
  7.2500e-01  7.250e-01  5.247e-05 
  7.5000e-01  7.500e-01  5.765e-05 
  7.7500e-01  7.750e-01  6.314e-05 
  8.0000e-01  8.000e-01  6.894e-05 
  8.2500e-01  8.250e-01  7.506e-05 
  8.5000e-01  8.500e-01  8.149e-05 
  8.7500e-01  8.750e-01  8.824e-05 
  9.0000e-01  9.000e-01  9.531e-05 
  9.2500e-01  9.250e-01  1.027e-04 
  9.5000e-01  9.500e-01  1.104e-04 
  9.7500e-01  9.750e-01  1.184e-04 
  1.0000e+00  1.000e+00  1.267e-04 
  1.0250e+00  1.025e+00  1.354e-04 
  1.0500e+00  1.050e+00  1.443e-04 
  1.0750e+00  1.075e+00  1.536e-04 
  1.1000e+00  1.100e+00  1.631e-04 
  1.1250e+00  1.125e+00  1.730e-04 
  1.1500e+00  1.150e+00  1.832e-04 
  1.1750e+00  1.175e+00  1.936e-04 
  1.2000e+00  1.200e+00  2.044e-04 
  1.2250e+00  1.225e+00  2.155e-04 
  1.2500e+00  1.250e+00  2.268e-04 
  1.2750e+00  1.275e+00  2.384e-04 
  1.3000e+00  1.300e+00  2.503e-04 
  1.3250e+00  1.325e+00  2.625e-04 
  1.3500e+00  1.350e+00  2.750e-04 
  1.3750e+00  1.375e+00  2.878e-04 
  1.4000e+00  1.400e+00  3.008e-04 
  1.4250e+00  1.425e+00  3.141e-04 
  1.4500e+00  1.450e+00  3.277e-04 
  1.4750e+00  1.475e+00  3.416e-04 
  1.5000e+00  1.500e+00  3.557e-04 
  1.5250e+00  1.525e+00  3.701e-04 
  1.5500e+00  1.550e+00  3.847e-04 
  1.5750e+00  1.575e+00  3.996e-04 
  1.6000e+00  1.600e+00  4.148e-04 
  1.6250e+00  1.625e+00  4.302e-04 
  1.6500e+00  1.650e+00  4.459e-04 
  1.6750e+00  1.675e+00  4.619e-04 
  1.7000e+00  1.700e+00  4.781e-04 
  1.7250e+00  1.725e+00  4.945e-04 
  1.7500e+00  1.750e+00  5.112e-04 
  1.7750e+00  1.775e+00  5.282e-04 
  1.8000e+00  1.800e+00  5.454e-04 
  1.8250e+00  1.825e+00  5.628e-04 
  1.8500e+00  1.850e+00  5.805e-04 
  1.8750e+00  1.875e+00  5.985e-04 
  1.9000e+00  1.900e+00  6.167e-04 
  1.9250e+00  1.925e+00  6.351e-04 
  1.9500e+00  1.950e+00  6.538e-04 
  1.9750e+00  1.975e+00  6.727e-04 
  2.0000e+00  2.000e+00  6.919e-04 
y

          ***** job concluded
 ******  
 ** osfet model test

 ****** job statistics summary tnom=  25.000 temp=  25.000 ******
  
 ******  Machine Information  ******
 CPU:
 model name	: Intel(R) Xeon(R) CPU E5-2430 v2 @ 2.50GHz
 cpu MHz	: 3000.000
 CPU(s)		: 24
  
 OS:
 Linux version 4.18.0-553.16.1.el8_10.x86_64 (mockbuild@iad1-prod-build001.bld.equ.rockylinux.org) (gcc version 8.5.0 20210514 (Red Hat 8.5.0-22) (GCC)) #1 SMP Thu Aug 8 17:47:08 UTC 2024

 System loadavg : 0.40 0.27 0.27 1/794 3038816


  ******  HSPICE Threads Information  ******

  Command Line Threads Count :     1
  Available CPU Count        :    24
  Actual Threads Count       :     1


  ******  Circuit Statistics  ******
  # nodes       =       8 # elements   =       4
  # resistors   =       0 # capacitors =       0 # inductors   =       0
  # mutual_inds =       0 # vccs       =       0 # vcvs        =       0
  # cccs        =       0 # ccvs       =       0 # volt_srcs   =       3
  # curr_srcs   =       0 # diodes     =       0 # bjts        =       0
  # jfets       =       0 # mosfets    =       0 # U elements  =       0
  # T elements  =       0 # W elements =       0 # B elements  =       0
  # S elements  =       0 # P elements =       0 # va device   =       1
  # vector_srcs =       0 # N elements =       0


  ******  Runtime Statistics (seconds)  ******

  analysis           time    # points   tot. iter  conv.iter
  op point           0.00           1           0
  dc sweep           0.19         242         532
  readin             1.24
  errchk             0.00
  setup              0.00
  output             0.00


           peak memory used        496.77 megabytes
           total cpu time            1.44 seconds
           total elapsed time        1.56 seconds
           job started at     23:27:15 08/17/2025
           job ended   at     23:27:16 08/17/2025
           job total runtime         1.56 seconds


 lic: Release hspice token(s) 
 lic: total license checkout elapse time:        0.06(s)
