 ****** PrimeSim HSPICE -- R-2020.12-SP1 linux64 (Apr 10 2021 6983340) ******
  Copyright (c) 1986 - 2025 by Synopsys, Inc. All Rights Reserved.
  This software and the associated documentation are proprietary
  to Synopsys, Inc. This software may only be used in accordance
  with the terms and conditions of a written license agreement with
  Synopsys, Inc. All other use, reproduction, or distribution of
  this software is strictly prohibited.
  Input File: osfet_model_run.sp                                                
  Command line options: /cad/synopsys/hspice/R-2020.12-SP1/hspice/linux64/hspice osfet_model_run.sp -o
  Start time: Wed Oct  1 21:30:47 2025
 lic:  
 lic: FLEXlm: SDK_12.9.5 
 lic: USER:   kj2011               HOSTNAME: nanopower.stanford.edu 
 lic: HOSTID: "002590e70e02"       PID:      986804 
 lic: Using FLEXlm license file: 
 lic: 27000@cadlic0.stanford.edu 
 lic: Checkout 1 hspice 
 lic: License/Maintenance for hspice will expire on 06-nov-2026/2025.06 
 lic: 1(in_use)/200(total) FLOATING license(s) on SERVER 27000@cadlic0.stanford.edu 
 lic:   
 **info** *pvaI* current limit stacksize=8388608, set new limit stacksize=62914560

 **info** *pvaI* Module (osfet): 3 unexpanded port, 0 init, 172 behav, 11 contrib, 51/235 expr(s)

 **info** *pvaI*        Has DIS(ST), 3/14 afCount, 0 MT, dlg, 2 node(s) maybe reduced, IO(0/0/1/0)

 **info** *pvaI*        0 gmdIsThreadSafe (ST)

 **info** *pvaI*        0 const-G and 0 const-C, Has switchBranch, 22 bypassOpt, 0 bus2scalar, 0 vwb

 **info** *pvaI*        set_va_exp = 80 [80.0, 704.0] set by default

 **warning** *pvaW*        variable 'Vds' initialized but not used in RHS, deleted (osfet_potential_based_compact_model_v0.va:133)

 **warning** *pvaW*                   To relax this rule, use 'setenv PVA_KEEP_VARS 1' to keep variables for probing.

 **warning** *pvaW*        variable 'Vgs' initialized but not used in RHS, deleted (osfet_potential_based_compact_model_v0.va:131)

 **warning** *pvaW*        variable 'tt' initialized but not used in RHS, deleted (osfet_potential_based_compact_model_v0.va:149)

 **warning** *pvaW*        variable 'nphit' declared but not used in RHS, deleted (osfet_potential_based_compact_model_v0.va:108)

 **info** *pvaI*        For analog block, use $abstime() instead of $realtime().

 **info** *pvaI*        generated 2 flow node(s) during compilation.

 **info** *pvaI* #### Total 361 line-size(s), 51/235 expr(s), 11 contr(s), 0 init(s), 172 behav(s), 3 port(s)

 Loading pVA library osfet_model_run.pvadir/pvaRTL_linux64.so...
  **warning** multiple output options specified, using post
1****** PrimeSim HSPICE -- R-2020.12-SP1 linux64 (Apr 10 2021 6983340) ******
 ******  
 ** osfet model test

 ****** circuit name directory
 circuit number to circuit name directory
   number circuitname                     definition         multiplier
        0 main circuit
        1 xos.                            osfet(va)          1.00 
 **info** *pvaI* Creating VA module (osfet) for instance XOS

 **info** *pvaI*        termCount=9 diwSize=50 probeSize=74 Qsize=4 Isize=7

 End of GMD creation on Wed Oct  1 21:30:49 2025	GTM/In-use: 4.3750/2.8407 MB


  
      
 *****************************************************************
 ******  option summary
 ******
 runlvl  = 3         bypass  = 2.0000    
  Opening plot unit= 15
 file=osfet_model_run.pa0

 End of pVA setup    on Wed Oct  1 21:30:49 2025	GTM/In-use: 4.3750/2.8813 MB


 Begin of pVA simulation on Wed Oct  1 21:30:49 2025	GTM/In-use: 4.3750/2.8813 MB


 ******
 ** osfet model test

 ****** dc transfer curves tnom=  25.000 temp=  25.000 ******
  *** parameter vdrain =   5.000e-02       ***
  
x

 vgate        voltage    current   
             g          vs         
 -1.0000e+00 -1.000e+00  5.615e-21 
 -9.7500e-01 -9.750e-01  9.606e-21 
 -9.5000e-01 -9.500e-01  1.649e-20 
 -9.2500e-01 -9.250e-01  2.832e-20 
 -9.0000e-01 -9.000e-01  4.863e-20 
 -8.7500e-01 -8.750e-01  8.352e-20 
 -8.5000e-01 -8.500e-01  1.434e-19 
 -8.2500e-01 -8.250e-01  2.462e-19 
 -8.0000e-01 -8.000e-01  4.228e-19 
 -7.7500e-01 -7.750e-01  7.260e-19 
 -7.5000e-01 -7.500e-01  1.246e-18 
 -7.2500e-01 -7.250e-01  2.140e-18 
 -7.0000e-01 -7.000e-01  3.675e-18 
 -6.7500e-01 -6.750e-01  6.309e-18 
 -6.5000e-01 -6.500e-01  1.083e-17 
 -6.2500e-01 -6.250e-01  1.860e-17 
 -6.0000e-01 -6.000e-01  3.193e-17 
 -5.7500e-01 -5.750e-01  5.483e-17 
 -5.5000e-01 -5.500e-01  9.413e-17 
 -5.2500e-01 -5.250e-01  1.616e-16 
 -5.0000e-01 -5.000e-01  2.775e-16 
 -4.7500e-01 -4.750e-01  4.763e-16 
 -4.5000e-01 -4.500e-01  8.177e-16 
 -4.2500e-01 -4.250e-01  1.404e-15 
 -4.0000e-01 -4.000e-01  2.409e-15 
 -3.7500e-01 -3.750e-01  4.135e-15 
 -3.5000e-01 -3.500e-01  7.096e-15 
 -3.2500e-01 -3.250e-01  1.218e-14 
 -3.0000e-01 -3.000e-01  2.088e-14 
 -2.7500e-01 -2.750e-01  3.581e-14 
 -2.5000e-01 -2.500e-01  6.139e-14 
 -2.2500e-01 -2.250e-01  1.052e-13 
 -2.0000e-01 -2.000e-01  1.801e-13 
 -1.7500e-01 -1.750e-01  3.080e-13 
 -1.5000e-01 -1.500e-01  5.262e-13 
 -1.2500e-01 -1.250e-01  8.975e-13 
 -1.0000e-01 -1.000e-01  1.528e-12 
 -7.5000e-02 -7.500e-02  2.594e-12 
 -5.0000e-02 -5.000e-02  4.388e-12 
 -2.5000e-02 -2.500e-02  7.392e-12 
  0.0000e+00  0.000e+00  1.238e-11 
  2.5000e-02  2.500e-02  2.059e-11 
  5.0000e-02  5.000e-02  3.396e-11 
  7.5000e-02  7.500e-02  5.540e-11 
  1.0000e-01  1.000e-01  8.922e-11 
  1.2500e-01  1.250e-01  1.416e-10 
  1.5000e-01  1.500e-01  2.208e-10 
  1.7500e-01  1.750e-01  3.380e-10 
  2.0000e-01  2.000e-01  5.068e-10 
  2.2500e-01  2.250e-01  7.437e-10 
  2.5000e-01  2.500e-01  1.067e-09 
  2.7500e-01  2.750e-01  1.498e-09 
  3.0000e-01  3.000e-01  2.058e-09 
  3.2500e-01  3.250e-01  2.767e-09 
  3.5000e-01  3.500e-01  3.649e-09 
  3.7500e-01  3.750e-01  4.722e-09 
  4.0000e-01  4.000e-01  6.007e-09 
  4.2500e-01  4.250e-01  7.520e-09 
  4.5000e-01  4.500e-01  9.279e-09 
  4.7500e-01  4.750e-01  1.130e-08 
  5.0000e-01  5.000e-01  1.359e-08 
  5.2500e-01  5.250e-01  1.616e-08 
  5.5000e-01  5.500e-01  1.902e-08 
  5.7500e-01  5.750e-01  2.219e-08 
  6.0000e-01  6.000e-01  2.566e-08 
  6.2500e-01  6.250e-01  2.944e-08 
  6.5000e-01  6.500e-01  3.354e-08 
  6.7500e-01  6.750e-01  3.795e-08 
  7.0000e-01  7.000e-01  4.268e-08 
  7.2500e-01  7.250e-01  4.773e-08 
  7.5000e-01  7.500e-01  5.309e-08 
  7.7500e-01  7.750e-01  5.876e-08 
  8.0000e-01  8.000e-01  6.475e-08 
  8.2500e-01  8.250e-01  7.104e-08 
  8.5000e-01  8.500e-01  7.762e-08 
  8.7500e-01  8.750e-01  8.451e-08 
  9.0000e-01  9.000e-01  9.168e-08 
  9.2500e-01  9.250e-01  9.912e-08 
  9.5000e-01  9.500e-01  1.068e-07 
  9.7500e-01  9.750e-01  1.148e-07 
  1.0000e+00  1.000e+00  1.231e-07 
  1.0250e+00  1.025e+00  1.316e-07 
  1.0500e+00  1.050e+00  1.403e-07 
  1.0750e+00  1.075e+00  1.492e-07 
  1.1000e+00  1.100e+00  1.584e-07 
  1.1250e+00  1.125e+00  1.678e-07 
  1.1500e+00  1.150e+00  1.774e-07 
  1.1750e+00  1.175e+00  1.872e-07 
  1.2000e+00  1.200e+00  1.971e-07 
  1.2250e+00  1.225e+00  2.073e-07 
  1.2500e+00  1.250e+00  2.175e-07 
  1.2750e+00  1.275e+00  2.280e-07 
  1.3000e+00  1.300e+00  2.386e-07 
  1.3250e+00  1.325e+00  2.493e-07 
  1.3500e+00  1.350e+00  2.602e-07 
  1.3750e+00  1.375e+00  2.712e-07 
  1.4000e+00  1.400e+00  2.823e-07 
  1.4250e+00  1.425e+00  2.935e-07 
  1.4500e+00  1.450e+00  3.048e-07 
  1.4750e+00  1.475e+00  3.162e-07 
  1.5000e+00  1.500e+00  3.277e-07 
  1.5250e+00  1.525e+00  3.393e-07 
  1.5500e+00  1.550e+00  3.509e-07 
  1.5750e+00  1.575e+00  3.626e-07 
  1.6000e+00  1.600e+00  3.744e-07 
  1.6250e+00  1.625e+00  3.862e-07 
  1.6500e+00  1.650e+00  3.981e-07 
  1.6750e+00  1.675e+00  4.100e-07 
  1.7000e+00  1.700e+00  4.219e-07 
  1.7250e+00  1.725e+00  4.339e-07 
  1.7500e+00  1.750e+00  4.460e-07 
  1.7750e+00  1.775e+00  4.580e-07 
  1.8000e+00  1.800e+00  4.701e-07 
  1.8250e+00  1.825e+00  4.822e-07 
  1.8500e+00  1.850e+00  4.943e-07 
  1.8750e+00  1.875e+00  5.064e-07 
  1.9000e+00  1.900e+00  5.185e-07 
  1.9250e+00  1.925e+00  5.307e-07 
  1.9500e+00  1.950e+00  5.428e-07 
  1.9750e+00  1.975e+00  5.550e-07 
  2.0000e+00  2.000e+00  5.671e-07 
y
 ******
 ** osfet model test

 ****** dc transfer curves tnom=  25.000 temp=  25.000 ******
  *** parameter vdrain =   2.000e+00       ***
  
x

 vgate        voltage    current   
             g          vs         
 -1.0000e+00 -1.000e+00  2.904e-19 
 -9.7500e-01 -9.750e-01  4.986e-19 
 -9.5000e-01 -9.500e-01  8.561e-19 
 -9.2500e-01 -9.250e-01  1.470e-18 
 -9.0000e-01 -9.000e-01  2.524e-18 
 -8.7500e-01 -8.750e-01  4.333e-18 
 -8.5000e-01 -8.500e-01  7.440e-18 
 -8.2500e-01 -8.250e-01  1.278e-17 
 -8.0000e-01 -8.000e-01  2.193e-17 
 -7.7500e-01 -7.750e-01  3.766e-17 
 -7.5000e-01 -7.500e-01  6.466e-17 
 -7.2500e-01 -7.250e-01  1.110e-16 
 -7.0000e-01 -7.000e-01  1.906e-16 
 -6.7500e-01 -6.750e-01  3.272e-16 
 -6.5000e-01 -6.500e-01  5.618e-16 
 -6.2500e-01 -6.250e-01  9.645e-16 
 -6.0000e-01 -6.000e-01  1.656e-15 
 -5.7500e-01 -5.750e-01  2.842e-15 
 -5.5000e-01 -5.500e-01  4.878e-15 
 -5.2500e-01 -5.250e-01  8.372e-15 
 -5.0000e-01 -5.000e-01  1.437e-14 
 -4.7500e-01 -4.750e-01  2.465e-14 
 -4.5000e-01 -4.500e-01  4.227e-14 
 -4.2500e-01 -4.250e-01  7.248e-14 
 -4.0000e-01 -4.000e-01  1.242e-13 
 -3.7500e-01 -3.750e-01  2.128e-13 
 -3.5000e-01 -3.500e-01  3.641e-13 
 -3.2500e-01 -3.250e-01  6.226e-13 
 -3.0000e-01 -3.000e-01  1.063e-12 
 -2.7500e-01 -2.750e-01  1.812e-12 
 -2.5000e-01 -2.500e-01  3.082e-12 
 -2.2500e-01 -2.250e-01  5.228e-12 
 -2.0000e-01 -2.000e-01  8.833e-12 
 -1.7500e-01 -1.750e-01  1.486e-11 
 -1.5000e-01 -1.500e-01  2.484e-11 
 -1.2500e-01 -1.250e-01  4.122e-11 
 -1.0000e-01 -1.000e-01  6.780e-11 
 -7.5000e-02 -7.500e-02  1.103e-10 
 -5.0000e-02 -5.000e-02  1.773e-10 
 -2.5000e-02 -2.500e-02  2.809e-10 
  0.0000e+00  0.000e+00  4.379e-10 
  2.5000e-02  2.500e-02  6.710e-10 
  5.0000e-02  5.000e-02  1.009e-09 
  7.5000e-02  7.500e-02  1.490e-09 
  1.0000e-01  1.000e-01  2.158e-09 
  1.2500e-01  1.250e-01  3.067e-09 
  1.5000e-01  1.500e-01  4.279e-09 
  1.7500e-01  1.750e-01  5.865e-09 
  2.0000e-01  2.000e-01  7.904e-09 
  2.2500e-01  2.250e-01  1.048e-08 
  2.5000e-01  2.500e-01  1.370e-08 
  2.7500e-01  2.750e-01  1.764e-08 
  3.0000e-01  3.000e-01  2.243e-08 
  3.2500e-01  3.250e-01  2.817e-08 
  3.5000e-01  3.500e-01  3.497e-08 
  3.7500e-01  3.750e-01  4.297e-08 
  4.0000e-01  4.000e-01  5.227e-08 
  4.2500e-01  4.250e-01  6.301e-08 
  4.5000e-01  4.500e-01  7.531e-08 
  4.7500e-01  4.750e-01  8.930e-08 
  5.0000e-01  5.000e-01  1.051e-07 
  5.2500e-01  5.250e-01  1.229e-07 
  5.5000e-01  5.500e-01  1.427e-07 
  5.7500e-01  5.750e-01  1.647e-07 
  6.0000e-01  6.000e-01  1.890e-07 
  6.2500e-01  6.250e-01  2.158e-07 
  6.5000e-01  6.500e-01  2.451e-07 
  6.7500e-01  6.750e-01  2.770e-07 
  7.0000e-01  7.000e-01  3.117e-07 
  7.2500e-01  7.250e-01  3.493e-07 
  7.5000e-01  7.500e-01  3.899e-07 
  7.7500e-01  7.750e-01  4.335e-07 
  8.0000e-01  8.000e-01  4.803e-07 
  8.2500e-01  8.250e-01  5.304e-07 
  8.5000e-01  8.500e-01  5.837e-07 
  8.7500e-01  8.750e-01  6.405e-07 
  9.0000e-01  9.000e-01  7.007e-07 
  9.2500e-01  9.250e-01  7.645e-07 
  9.5000e-01  9.500e-01  8.318e-07 
  9.7500e-01  9.750e-01  9.029e-07 
  1.0000e+00  1.000e+00  9.776e-07 
  1.0250e+00  1.025e+00  1.056e-06 
  1.0500e+00  1.050e+00  1.138e-06 
  1.0750e+00  1.075e+00  1.225e-06 
  1.1000e+00  1.100e+00  1.315e-06 
  1.1250e+00  1.125e+00  1.409e-06 
  1.1500e+00  1.150e+00  1.506e-06 
  1.1750e+00  1.175e+00  1.608e-06 
  1.2000e+00  1.200e+00  1.714e-06 
  1.2250e+00  1.225e+00  1.824e-06 
  1.2500e+00  1.250e+00  1.938e-06 
  1.2750e+00  1.275e+00  2.056e-06 
  1.3000e+00  1.300e+00  2.178e-06 
  1.3250e+00  1.325e+00  2.304e-06 
  1.3500e+00  1.350e+00  2.434e-06 
  1.3750e+00  1.375e+00  2.568e-06 
  1.4000e+00  1.400e+00  2.707e-06 
  1.4250e+00  1.425e+00  2.849e-06 
  1.4500e+00  1.450e+00  2.996e-06 
  1.4750e+00  1.475e+00  3.146e-06 
  1.5000e+00  1.500e+00  3.301e-06 
  1.5250e+00  1.525e+00  3.460e-06 
  1.5500e+00  1.550e+00  3.623e-06 
  1.5750e+00  1.575e+00  3.790e-06 
  1.6000e+00  1.600e+00  3.961e-06 
  1.6250e+00  1.625e+00  4.136e-06 
  1.6500e+00  1.650e+00  4.315e-06 
  1.6750e+00  1.675e+00  4.498e-06 
  1.7000e+00  1.700e+00  4.686e-06 
  1.7250e+00  1.725e+00  4.877e-06 
  1.7500e+00  1.750e+00  5.072e-06 
  1.7750e+00  1.775e+00  5.272e-06 
  1.8000e+00  1.800e+00  5.475e-06 
  1.8250e+00  1.825e+00  5.683e-06 
  1.8500e+00  1.850e+00  5.894e-06 
  1.8750e+00  1.875e+00  6.110e-06 
  1.9000e+00  1.900e+00  6.329e-06 
  1.9250e+00  1.925e+00  6.552e-06 
  1.9500e+00  1.950e+00  6.779e-06 
  1.9750e+00  1.975e+00  7.011e-06 
  2.0000e+00  2.000e+00  7.246e-06 
y

          ***** job concluded
 ******  
 ** osfet model test

 ****** job statistics summary tnom=  25.000 temp=  25.000 ******
  
 ******  Machine Information  ******
 CPU:
 model name	: Intel(R) Xeon(R) CPU E5-2430 v2 @ 2.50GHz
 cpu MHz	: 2800.325
 CPU(s)		: 24
  
 OS:
 Linux version 4.18.0-553.16.1.el8_10.x86_64 (mockbuild@iad1-prod-build001.bld.equ.rockylinux.org) (gcc version 8.5.0 20210514 (Red Hat 8.5.0-22) (GCC)) #1 SMP Thu Aug 8 17:47:08 UTC 2024

 System loadavg : 0.47 0.29 0.18 7/1207 986830


  ******  HSPICE Threads Information  ******

  Command Line Threads Count :     1
  Available CPU Count        :    24
  Actual Threads Count       :     1


  ******  Circuit Statistics  ******
  # nodes       =       8 # elements   =       4
  # resistors   =       0 # capacitors =       0 # inductors   =       0
  # mutual_inds =       0 # vccs       =       0 # vcvs        =       0
  # cccs        =       0 # ccvs       =       0 # volt_srcs   =       3
  # curr_srcs   =       0 # diodes     =       0 # bjts        =       0
  # jfets       =       0 # mosfets    =       0 # U elements  =       0
  # T elements  =       0 # W elements =       0 # B elements  =       0
  # S elements  =       0 # P elements =       0 # va device   =       1
  # vector_srcs =       0 # N elements =       0


  ******  Runtime Statistics (seconds)  ******

  analysis           time    # points   tot. iter  conv.iter
  op point           0.00           1           0
  dc sweep           0.09         242         524
  readin             1.29
  errchk             0.01
  setup              0.01
  output             0.00


           peak memory used        497.91 megabytes
           total cpu time            1.41 seconds
           total elapsed time        1.49 seconds
           job started at     21:30:47 10/01/2025
           job ended   at     21:30:49 10/01/2025
           job total runtime         1.49 seconds


 lic: Release hspice token(s) 
 lic: total license checkout elapse time:        0.06(s)
